!Agilent Technologies,N3383A,US41480161,A.04.87.01
!Agilent N3383A: A.04.87.01
!Date: Monday, September 24, 2018 16:44:19
!Correction: S11(Full 2 Port SOLT,1,2) S21(Full 2 Port SOLT,1,2) S12(Full 2 Port SOLT,1,2) S22(Full 2 Port SOLT,1,2)
!S2P File: Measurements: S11, S21, S12, S22:
!Part No: SF-SF50+
!Part Description: SMA-F to SMA-F Adaptor
# Hz S  dB   R 50
10000000 -5.539129e+001 1.061981e+002 4.430967e-003 -3.132135e-001 -2.017906e-003 -1.936155e-001 -6.289217e+001 1.474317e+002
20000000 -5.555636e+001 1.555126e+002 2.460576e-004 -6.010907e-001 -9.808920e-003 -5.260369e-001 -6.050544e+001 -1.693414e+002
30000000 -5.378289e+001 1.602887e+002 2.971090e-003 -9.145133e-001 -1.058587e-002 -8.468593e-001 -6.230400e+001 -1.659464e+002
40000000 -5.375222e+001 1.588816e+002 -8.498584e-004 -1.208836e+000 -1.237865e-002 -1.154352e+000 -6.315246e+001 1.790542e+002
50000000 -5.471842e+001 1.524360e+002 -4.100614e-004 -1.476210e+000 -1.323930e-002 -1.433559e+000 -6.521636e+001 -1.640051e+002
60000000 -5.461621e+001 1.484798e+002 3.337574e-004 -1.775239e+000 -1.513783e-002 -1.715218e+000 -6.490718e+001 1.349105e+002
70000000 -5.645817e+001 1.510296e+002 9.907313e-004 -2.068811e+000 -1.036156e-002 -2.008118e+000 -6.359142e+001 1.203183e+002
80000000 -5.701896e+001 1.572031e+002 2.398950e-003 -2.363589e+000 -1.061180e-002 -2.308080e+000 -6.326565e+001 1.433986e+002
90000000 -5.755930e+001 1.625747e+002 3.214842e-003 -2.665359e+000 -1.177054e-002 -2.614768e+000 -6.225765e+001 1.495456e+002
100000000 -5.819146e+001 1.601120e+002 -1.952765e-004 -2.979620e+000 -1.209252e-002 -2.935556e+000 -6.238881e+001 1.266550e+002
110000000 -6.082639e+001 1.754671e+002 -2.581239e-003 -3.254557e+000 -1.656593e-002 -3.211186e+000 -6.321347e+001 1.337902e+002
120000000 -6.029667e+001 1.636467e+002 -1.864389e-003 -3.536629e+000 -1.537325e-002 -3.498012e+000 -6.482201e+001 1.413133e+002
130000000 -5.850580e+001 1.723547e+002 3.568774e-004 -3.824069e+000 -1.368273e-002 -3.773315e+000 -6.307287e+001 1.531632e+002
140000000 -5.912209e+001 -1.787619e+002 1.673771e-003 -4.108848e+000 -1.380037e-002 -4.069831e+000 -6.564444e+001 1.645286e+002
150000000 -5.772850e+001 -1.774013e+002 1.107676e-003 -4.421301e+000 -1.336514e-002 -4.385525e+000 -6.749367e+001 -1.708014e+002
160000000 -5.746332e+001 -1.652702e+002 4.647647e-004 -4.739073e+000 -1.348810e-002 -4.702402e+000 -6.565678e+001 1.754776e+002
170000000 -5.952607e+001 -1.543085e+002 -5.386519e-003 -5.026050e+000 -1.806091e-002 -4.998074e+000 -6.581934e+001 1.646699e+002
180000000 -6.091014e+001 -1.497094e+002 -6.401946e-003 -5.302703e+000 -2.151366e-002 -5.262005e+000 -6.332439e+001 1.582374e+002
190000000 -6.374547e+001 -1.160378e+002 -5.876033e-003 -5.567731e+000 -1.927665e-002 -5.524364e+000 -6.370266e+001 1.542028e+002
200000000 -6.177662e+001 -9.636488e+001 -2.224885e-003 -5.849433e+000 -1.396910e-002 -5.809985e+000 -5.832014e+001 1.563477e+002
210000000 -5.865526e+001 -1.084113e+002 4.490679e-003 -6.166533e+000 -1.043787e-002 -6.119321e+000 -5.702560e+001 1.364320e+002
220000000 -5.608801e+001 -1.237747e+002 3.067361e-003 -6.503387e+000 -1.105179e-002 -6.462992e+000 -5.817842e+001 1.320970e+002
230000000 -5.668554e+001 -1.316651e+002 -7.613834e-004 -6.805668e+000 -1.560997e-002 -6.777639e+000 -6.057364e+001 1.223869e+002
240000000 -5.724522e+001 -1.316491e+002 -4.882105e-003 -7.108625e+000 -2.005744e-002 -7.069466e+000 -6.513943e+001 1.478935e+002
250000000 -5.577252e+001 -1.341005e+002 -9.020753e-003 -7.371261e+000 -2.210911e-002 -7.344848e+000 -6.486139e+001 -1.656467e+002
260000000 -5.451032e+001 -1.320016e+002 -4.318948e-003 -7.635526e+000 -2.231376e-002 -7.601827e+000 -6.373249e+001 -1.708475e+002
270000000 -5.395843e+001 -1.286315e+002 -1.468642e-003 -7.937725e+000 -1.884598e-002 -7.899250e+000 -6.152481e+001 -1.530051e+002
280000000 -5.300945e+001 -1.216045e+002 -1.443763e-004 -8.244241e+000 -1.405034e-002 -8.201556e+000 -5.945169e+001 -1.454492e+002
290000000 -5.193744e+001 -1.207443e+002 -1.279564e-003 -8.553158e+000 -1.763310e-002 -8.524456e+000 -6.167636e+001 -1.336677e+002
300000000 -5.370231e+001 -1.153440e+002 -7.542907e-003 -8.851468e+000 -2.058346e-002 -8.812669e+000 -6.521410e+001 -1.414737e+002
310000000 -5.320597e+001 -9.910174e+001 -8.377451e-003 -9.123219e+000 -2.386314e-002 -9.092170e+000 -7.175906e+001 -1.349102e+002
320000000 -5.390842e+001 -8.826247e+001 -9.273075e-003 -9.403219e+000 -2.433834e-002 -9.367859e+000 -7.456357e+001 -1.031840e+002
330000000 -5.383891e+001 -9.274483e+001 -4.406213e-003 -9.695882e+000 -1.923396e-002 -9.657111e+000 -6.999994e+001 -9.677908e+001
340000000 -5.312194e+001 -7.890088e+001 5.552996e-004 -1.001888e+001 -1.556125e-002 -9.962560e+000 -6.194865e+001 -1.272964e+002
350000000 -5.263609e+001 -7.955913e+001 1.911792e-004 -1.034053e+001 -1.418581e-002 -1.029766e+001 -5.922552e+001 -1.591382e+002
360000000 -5.553382e+001 -8.187237e+001 -7.231671e-003 -1.066713e+001 -2.038245e-002 -1.062127e+001 -6.304956e+001 -1.621604e+002
370000000 -5.570467e+001 -7.935779e+001 -1.295253e-002 -1.095428e+001 -2.692360e-002 -1.090649e+001 -6.749773e+001 1.496405e+002
380000000 -5.626481e+001 -7.791231e+001 -1.521046e-002 -1.121713e+001 -3.136345e-002 -1.118876e+001 -6.607780e+001 1.629132e+002
390000000 -5.669140e+001 -7.677805e+001 -1.296260e-002 -1.147196e+001 -2.822073e-002 -1.144149e+001 -7.136026e+001 -7.452406e+001
400000000 -5.568828e+001 -8.038691e+001 -8.343472e-003 -1.175632e+001 -2.546792e-002 -1.171004e+001 -6.357745e+001 -4.412113e+001
410000000 -5.381441e+001 -9.159261e+001 -6.894340e-003 -1.206917e+001 -2.153855e-002 -1.202373e+001 -6.258527e+001 -5.616227e+001
420000000 -5.343846e+001 -9.122758e+001 -8.032526e-003 -1.240322e+001 -2.172944e-002 -1.233277e+001 -5.925508e+001 -5.534865e+001
430000000 -5.343299e+001 -8.056732e+001 -1.203017e-002 -1.269558e+001 -2.458145e-002 -1.266144e+001 -6.149443e+001 -5.975056e+001
440000000 -5.258425e+001 -8.185284e+001 -1.565922e-002 -1.297528e+001 -3.012899e-002 -1.294731e+001 -6.293462e+001 -7.235466e+001
450000000 -5.321897e+001 -7.287693e+001 -1.517585e-002 -1.323816e+001 -3.292019e-002 -1.321736e+001 -6.195826e+001 -9.113955e+001
460000000 -5.331996e+001 -7.569838e+001 -1.517330e-002 -1.351021e+001 -3.139937e-002 -1.346938e+001 -6.136348e+001 -8.771718e+001
470000000 -5.161670e+001 -7.262445e+001 -8.070123e-003 -1.381602e+001 -2.701466e-002 -1.375573e+001 -6.304699e+001 -8.449501e+001
480000000 -5.186939e+001 -7.319382e+001 -7.189400e-003 -1.412903e+001 -2.374603e-002 -1.406121e+001 -6.252451e+001 -6.561193e+001
490000000 -5.296441e+001 -6.970774e+001 -9.137777e-003 -1.444049e+001 -2.246151e-002 -1.438141e+001 -5.938013e+001 -2.913973e+001
500000000 -5.348209e+001 -7.528131e+001 -1.257603e-002 -1.474343e+001 -2.568460e-002 -1.469541e+001 -5.638103e+001 -3.998553e+001
510000000 -5.262296e+001 -7.274128e+001 -1.796435e-002 -1.501059e+001 -2.936764e-002 -1.498678e+001 -5.377771e+001 -3.558218e+001
520000000 -5.251780e+001 -7.563873e+001 -1.790981e-002 -1.527242e+001 -3.321323e-002 -1.524981e+001 -5.262854e+001 -4.158424e+001
530000000 -5.259254e+001 -7.947503e+001 -1.449969e-002 -1.555002e+001 -2.976721e-002 -1.551236e+001 -5.103057e+001 -4.434375e+001
540000000 -5.274583e+001 -8.053663e+001 -9.130937e-003 -1.586004e+001 -2.469087e-002 -1.579656e+001 -5.108266e+001 -4.408774e+001
550000000 -5.200829e+001 -8.607419e+001 -9.725013e-003 -1.618284e+001 -2.211422e-002 -1.611360e+001 -5.170055e+001 -4.544181e+001
560000000 -5.200819e+001 -8.744743e+001 -1.357716e-002 -1.649325e+001 -2.553987e-002 -1.644835e+001 -5.230320e+001 -4.772168e+001
570000000 -5.169783e+001 -8.759518e+001 -1.786343e-002 -1.677083e+001 -2.851712e-002 -1.673363e+001 -5.271350e+001 -4.575565e+001
580000000 -5.178488e+001 -8.343912e+001 -2.025295e-002 -1.704011e+001 -3.362744e-002 -1.700451e+001 -5.336610e+001 -4.986295e+001
590000000 -5.093908e+001 -8.102318e+001 -1.960001e-002 -1.729407e+001 -3.477304e-002 -1.725130e+001 -5.293787e+001 -4.399028e+001
600000000 -5.043453e+001 -8.003265e+001 -1.218453e-002 -1.758467e+001 -2.932314e-002 -1.751941e+001 -5.150941e+001 -5.118384e+001
610000000 -5.085384e+001 -8.323355e+001 -9.375442e-003 -1.788366e+001 -2.450870e-002 -1.782402e+001 -5.155646e+001 -5.772036e+001
620000000 -5.055221e+001 -9.009262e+001 -8.093656e-003 -1.820508e+001 -1.983581e-002 -1.813681e+001 -4.972073e+001 -5.467765e+001
630000000 -5.078135e+001 -9.323888e+001 -1.177086e-002 -1.850884e+001 -2.326117e-002 -1.846452e+001 -4.917777e+001 -5.726662e+001
640000000 -5.042482e+001 -9.364246e+001 -1.459720e-002 -1.879325e+001 -2.723302e-002 -1.875999e+001 -4.907257e+001 -5.871402e+001
650000000 -4.970682e+001 -1.001903e+002 -1.591191e-002 -1.905284e+001 -3.015747e-002 -1.903254e+001 -4.904507e+001 -5.836429e+001
660000000 -4.881673e+001 -1.015684e+002 -1.129698e-002 -1.933887e+001 -2.944985e-002 -1.929180e+001 -4.869352e+001 -5.489888e+001
670000000 -4.798383e+001 -1.010701e+002 -6.506898e-003 -1.963505e+001 -2.414367e-002 -1.957385e+001 -4.911913e+001 -5.027096e+001
680000000 -4.753944e+001 -1.018242e+002 -5.538569e-003 -1.996838e+001 -1.990633e-002 -1.989807e+001 -4.828048e+001 -5.034608e+001
690000000 -4.715828e+001 -9.657097e+001 -6.365323e-003 -2.030832e+001 -1.785597e-002 -2.023594e+001 -4.707734e+001 -5.119874e+001
700000000 -4.718947e+001 -9.488745e+001 -1.179314e-002 -2.059543e+001 -2.444254e-002 -2.053913e+001 -4.590035e+001 -5.137713e+001
710000000 -4.746803e+001 -9.167844e+001 -1.690092e-002 -2.086663e+001 -2.729493e-002 -2.083482e+001 -4.614016e+001 -6.049746e+001
720000000 -4.706995e+001 -8.533504e+001 -1.521452e-002 -2.114400e+001 -3.213067e-002 -2.109488e+001 -4.601446e+001 -6.306633e+001
730000000 -4.700397e+001 -8.334276e+001 -1.229019e-002 -2.141927e+001 -3.121929e-002 -2.135666e+001 -4.630904e+001 -6.465291e+001
740000000 -4.755299e+001 -8.321578e+001 -1.092019e-002 -2.171745e+001 -2.624599e-002 -2.164280e+001 -4.642092e+001 -6.226523e+001
750000000 -4.714426e+001 -7.977493e+001 -1.009708e-002 -2.201741e+001 -2.220711e-002 -2.194709e+001 -4.572214e+001 -6.074879e+001
760000000 -4.806849e+001 -8.465673e+001 -1.076243e-002 -2.232425e+001 -2.220922e-002 -2.227400e+001 -4.540725e+001 -6.187260e+001
770000000 -4.844476e+001 -8.262046e+001 -1.310441e-002 -2.262208e+001 -2.681292e-002 -2.257384e+001 -4.487053e+001 -5.834592e+001
780000000 -4.835883e+001 -8.576408e+001 -1.501264e-002 -2.288547e+001 -2.983736e-002 -2.287807e+001 -4.474151e+001 -6.337289e+001
790000000 -4.731169e+001 -8.863283e+001 -1.203858e-002 -2.318385e+001 -3.065158e-002 -2.314178e+001 -4.407753e+001 -6.646964e+001
800000000 -4.645297e+001 -8.776601e+001 -8.242951e-003 -2.347488e+001 -2.825993e-002 -2.340472e+001 -4.407653e+001 -6.608040e+001
810000000 -4.582314e+001 -8.857533e+001 -5.790981e-003 -2.378815e+001 -2.192838e-002 -2.369822e+001 -4.366282e+001 -7.109602e+001
820000000 -4.556353e+001 -8.728407e+001 -5.505516e-003 -2.410648e+001 -1.754389e-002 -2.400869e+001 -4.376602e+001 -7.125918e+001
830000000 -4.536089e+001 -8.912789e+001 -9.742676e-003 -2.441026e+001 -1.914018e-002 -2.434683e+001 -4.348491e+001 -7.601501e+001
840000000 -4.495887e+001 -9.031279e+001 -1.386108e-002 -2.470487e+001 -2.425916e-002 -2.466672e+001 -4.363296e+001 -7.892073e+001
850000000 -4.525216e+001 -9.140421e+001 -1.740708e-002 -2.498244e+001 -3.226417e-002 -2.495314e+001 -4.362683e+001 -8.193370e+001
860000000 -4.487049e+001 -8.807170e+001 -1.457184e-002 -2.525644e+001 -3.221367e-002 -2.521366e+001 -4.392872e+001 -8.123360e+001
870000000 -4.472906e+001 -8.871856e+001 -1.067971e-002 -2.553994e+001 -2.911556e-002 -2.548761e+001 -4.364563e+001 -8.106956e+001
880000000 -4.433178e+001 -9.226817e+001 -1.004892e-002 -2.586137e+001 -2.566794e-002 -2.576589e+001 -4.407061e+001 -8.160368e+001
890000000 -4.430607e+001 -9.232348e+001 -9.988140e-003 -2.616657e+001 -2.075215e-002 -2.608322e+001 -4.465931e+001 -8.164083e+001
900000000 -4.396242e+001 -9.448353e+001 -1.264502e-002 -2.646605e+001 -2.294495e-002 -2.642188e+001 -4.380904e+001 -8.090759e+001
910000000 -4.341929e+001 -9.725892e+001 -1.467628e-002 -2.674321e+001 -2.826152e-002 -2.671799e+001 -4.359238e+001 -7.898965e+001
920000000 -4.292036e+001 -9.924607e+001 -1.563351e-002 -2.702286e+001 -3.345867e-002 -2.699496e+001 -4.324935e+001 -7.959312e+001
930000000 -4.267148e+001 -9.852113e+001 -1.453276e-002 -2.729943e+001 -3.296927e-002 -2.724713e+001 -4.315354e+001 -8.119610e+001
940000000 -4.197260e+001 -9.643468e+001 -1.348066e-002 -2.759992e+001 -2.987688e-002 -2.751322e+001 -4.263966e+001 -8.049606e+001
950000000 -4.220440e+001 -9.672101e+001 -9.930721e-003 -2.791312e+001 -2.470920e-002 -2.783712e+001 -4.227826e+001 -8.207604e+001
960000000 -4.212962e+001 -9.534591e+001 -1.117282e-002 -2.820286e+001 -2.072881e-002 -2.815608e+001 -4.206710e+001 -8.491577e+001
970000000 -4.245008e+001 -9.313297e+001 -1.441845e-002 -2.850937e+001 -2.532551e-002 -2.848776e+001 -4.169443e+001 -8.605415e+001
980000000 -4.296543e+001 -9.280052e+001 -1.447153e-002 -2.878805e+001 -2.963541e-002 -2.877982e+001 -4.200908e+001 -8.902892e+001
990000000 -4.291531e+001 -9.328457e+001 -1.393271e-002 -2.907676e+001 -3.182817e-002 -2.903616e+001 -4.219008e+001 -9.064183e+001
1000000000 -4.319839e+001 -9.306475e+001 -1.124661e-002 -2.939619e+001 -3.024532e-002 -2.930612e+001 -4.284836e+001 -9.089253e+001
1010000000 -4.306902e+001 -9.803725e+001 -9.660321e-003 -2.968672e+001 -2.509860e-002 -2.959341e+001 -4.297631e+001 -9.153136e+001
1020000000 -4.276987e+001 -1.023373e+002 -8.911785e-003 -2.999697e+001 -1.968704e-002 -2.989859e+001 -4.324345e+001 -8.671001e+001
1030000000 -4.200512e+001 -1.068626e+002 -1.002084e-002 -3.030151e+001 -1.947920e-002 -3.024167e+001 -4.316698e+001 -8.605418e+001
1040000000 -4.158007e+001 -1.074459e+002 -1.495539e-002 -3.061144e+001 -2.423750e-002 -3.055623e+001 -4.273689e+001 -8.677235e+001
1050000000 -4.060999e+001 -1.067512e+002 -1.495525e-002 -3.087899e+001 -3.094125e-002 -3.085384e+001 -4.231433e+001 -8.724694e+001
1060000000 -3.977366e+001 -1.061230e+002 -1.677154e-002 -3.116873e+001 -3.401541e-002 -3.110922e+001 -4.154108e+001 -9.012495e+001
1070000000 -3.913007e+001 -1.030965e+002 -1.346729e-002 -3.148158e+001 -3.346290e-002 -3.140713e+001 -4.100834e+001 -9.458157e+001
1080000000 -3.871052e+001 -9.931109e+001 -1.772925e-002 -3.178066e+001 -3.088391e-002 -3.169468e+001 -4.066980e+001 -9.970573e+001
1090000000 -3.851779e+001 -9.546649e+001 -1.681840e-002 -3.208604e+001 -2.966883e-002 -3.201519e+001 -4.117507e+001 -1.033008e+002
1100000000 -3.876923e+001 -9.208209e+001 -2.230155e-002 -3.237396e+001 -3.322805e-002 -3.233587e+001 -4.142769e+001 -1.031882e+002
1110000000 -3.908603e+001 -8.870031e+001 -2.324812e-002 -3.267004e+001 -3.688445e-002 -3.262560e+001 -4.191921e+001 -1.018500e+002
1120000000 -3.963268e+001 -8.559407e+001 -2.514818e-002 -3.294685e+001 -4.316479e-002 -3.290267e+001 -4.211239e+001 -9.767180e+001
1130000000 -4.045788e+001 -8.431458e+001 -2.456095e-002 -3.321695e+001 -4.540038e-002 -3.315646e+001 -4.157273e+001 -9.508594e+001
1140000000 -4.121312e+001 -8.618990e+001 -2.405529e-002 -3.350515e+001 -4.327682e-002 -3.341841e+001 -4.108963e+001 -9.594962e+001
1150000000 -4.194551e+001 -9.032309e+001 -2.503588e-002 -3.378920e+001 -3.609178e-002 -3.370549e+001 -4.092336e+001 -9.755170e+001
1160000000 -4.230867e+001 -9.626122e+001 -2.384456e-002 -3.408177e+001 -3.331727e-002 -3.400454e+001 -4.064614e+001 -1.007640e+002
1170000000 -4.190066e+001 -1.008287e+002 -2.516541e-002 -3.436830e+001 -3.603975e-002 -3.434446e+001 -4.067076e+001 -1.026216e+002
1180000000 -4.124015e+001 -1.066546e+002 -2.589710e-002 -3.465219e+001 -3.887720e-002 -3.463463e+001 -4.068431e+001 -1.056124e+002
1190000000 -4.058952e+001 -1.054505e+002 -2.444977e-002 -3.492987e+001 -4.540962e-002 -3.490625e+001 -4.085836e+001 -1.093103e+002
1200000000 -4.007050e+001 -1.051413e+002 -2.472098e-002 -3.521516e+001 -4.578782e-002 -3.515937e+001 -4.108571e+001 -1.104163e+002
1210000000 -3.960704e+001 -1.024343e+002 -2.422812e-002 -3.551124e+001 -3.860677e-002 -3.542598e+001 -4.117009e+001 -1.105541e+002
1220000000 -3.938365e+001 -9.717743e+001 -2.212828e-002 -3.582609e+001 -3.415778e-002 -3.573477e+001 -4.138039e+001 -1.081713e+002
1230000000 -3.958719e+001 -9.298648e+001 -2.343707e-002 -3.611762e+001 -3.500466e-002 -3.605503e+001 -4.118218e+001 -1.069678e+002
1240000000 -4.007257e+001 -9.196973e+001 -2.308846e-002 -3.641217e+001 -3.201548e-002 -3.637666e+001 -4.160483e+001 -1.040841e+002
1250000000 -4.052522e+001 -9.084469e+001 -2.439410e-002 -3.669302e+001 -3.893034e-002 -3.667181e+001 -4.161773e+001 -1.041960e+002
1260000000 -4.136134e+001 -8.958469e+001 -2.601211e-002 -3.698629e+001 -4.293385e-002 -3.694034e+001 -4.133573e+001 -1.046581e+002
1270000000 -4.209387e+001 -9.198496e+001 -2.289374e-002 -3.727278e+001 -4.176550e-002 -3.720074e+001 -4.142602e+001 -1.078486e+002
1280000000 -4.275191e+001 -9.561115e+001 -2.112703e-002 -3.756851e+001 -3.600692e-002 -3.748259e+001 -4.144678e+001 -1.086403e+002
1290000000 -4.221767e+001 -1.002091e+002 -2.225517e-002 -3.786757e+001 -3.461129e-002 -3.779672e+001 -4.125386e+001 -1.138826e+002
1300000000 -4.143933e+001 -1.029687e+002 -2.359314e-002 -3.816095e+001 -3.278092e-002 -3.811840e+001 -4.126504e+001 -1.157965e+002
1310000000 -4.014063e+001 -1.041054e+002 -2.434464e-002 -3.845750e+001 -3.666509e-002 -3.843121e+001 -4.122187e+001 -1.194009e+002
1320000000 -3.912755e+001 -1.030812e+002 -2.539254e-002 -3.873347e+001 -4.159713e-002 -3.872507e+001 -4.171283e+001 -1.226611e+002
1330000000 -3.848314e+001 -1.011494e+002 -2.641761e-002 -3.903418e+001 -4.525280e-002 -3.897731e+001 -4.186949e+001 -1.251182e+002
1340000000 -3.828975e+001 -9.730000e+001 -2.752047e-002 -3.933649e+001 -4.353156e-002 -3.923911e+001 -4.231839e+001 -1.258182e+002
1350000000 -3.841729e+001 -9.138719e+001 -2.735732e-002 -3.963631e+001 -3.957845e-002 -3.952638e+001 -4.254421e+001 -1.209442e+002
1360000000 -3.883217e+001 -8.629713e+001 -2.654641e-002 -3.991058e+001 -3.768692e-002 -3.982832e+001 -4.255253e+001 -1.148678e+002
1370000000 -3.967188e+001 -8.325161e+001 -2.716005e-002 -4.021791e+001 -3.728621e-002 -4.017474e+001 -4.191750e+001 -1.113902e+002
1380000000 -4.079632e+001 -7.823212e+001 -2.842358e-002 -4.050650e+001 -3.896221e-002 -4.048750e+001 -4.130369e+001 -1.086200e+002
1390000000 -4.148887e+001 -7.966730e+001 -2.932521e-002 -4.078990e+001 -4.638602e-002 -4.075568e+001 -4.085648e+001 -1.100099e+002
1400000000 -4.316302e+001 -8.454705e+001 -3.188493e-002 -4.108192e+001 -5.044777e-002 -4.101963e+001 -4.032967e+001 -1.147641e+002
1410000000 -4.376315e+001 -9.324585e+001 -3.217981e-002 -4.136045e+001 -5.022249e-002 -4.127972e+001 -4.022308e+001 -1.195486e+002
1420000000 -4.360038e+001 -1.050125e+002 -3.253062e-002 -4.164764e+001 -4.521334e-002 -4.155053e+001 -4.051666e+001 -1.248981e+002
1430000000 -4.325524e+001 -1.136394e+002 -3.118084e-002 -4.193137e+001 -4.221334e-002 -4.184081e+001 -4.114803e+001 -1.266295e+002
1440000000 -4.176188e+001 -1.179821e+002 -2.990368e-002 -4.219701e+001 -4.396265e-002 -4.214459e+001 -4.198623e+001 -1.274425e+002
1450000000 -4.059700e+001 -1.156320e+002 -2.985082e-002 -4.248730e+001 -4.640188e-002 -4.244484e+001 -4.307116e+001 -1.248973e+002
1460000000 -3.982543e+001 -1.119411e+002 -2.750322e-002 -4.279020e+001 -4.533929e-002 -4.271642e+001 -4.315775e+001 -1.192822e+002
1470000000 -3.951994e+001 -1.058073e+002 -2.668022e-002 -4.309377e+001 -4.558513e-002 -4.298432e+001 -4.295491e+001 -1.134056e+002
1480000000 -3.935799e+001 -1.008207e+002 -2.798990e-002 -4.337565e+001 -4.276975e-002 -4.325909e+001 -4.236148e+001 -1.102740e+002
1490000000 -3.936546e+001 -9.523615e+001 -2.832601e-002 -4.365493e+001 -3.870367e-002 -4.355595e+001 -4.162569e+001 -1.097159e+002
1500000000 -3.986797e+001 -9.206021e+001 -2.833157e-002 -4.393526e+001 -3.720885e-002 -4.387459e+001 -4.130584e+001 -1.126729e+002
1510000000 -4.067977e+001 -8.852183e+001 -2.596480e-002 -4.422209e+001 -3.938615e-002 -4.418339e+001 -4.082231e+001 -1.151196e+002
