# Hz S DB R 50
100000000.0 -29.209470765 23.378785191
105900000.0 -29.029190058 17.798881326
111800000.0 -23.884532405 60.104717365
117700000.0 -24.250369582 57.598500724
123600000.0 -24.435215375 52.727252605
129500000.0 -24.617432450 48.873106918
135400000.0 -24.823032846 44.974511622
141300000.0 -25.144078016 39.879041587
147200000.0 -25.405808365 36.186137137
153100000.0 -25.606225385 31.721932648
159000000.0 -26.011987752 27.318296002
164900000.0 -26.297300444 22.208053178
170800000.0 -26.658512083 17.720511884
176700000.0 -26.749100808 13.205755587
182600000.0 -27.184497505 7.975581727
188500000.0 -27.333794692 3.837038227
194400000.0 -27.625421225 -0.874614803
200300000.0 -27.870195032 -6.205839369
206200000.0 -28.297148872 -11.337591865
212100000.0 -28.817861596 -16.282057121
218000000.0 -29.128268123 -22.732591711
223900000.0 -29.461084863 -26.010940266
229800000.0 -29.940897460 -31.425357006
235700000.0 -30.053818090 -38.577600418
241600000.0 -30.851951176 -41.977233655
247500000.0 -31.404516369 -47.786938839
253400000.0 -31.716301038 -53.923408545
259300000.0 -32.386119493 -60.064017557
265200000.0 -33.080231446 -67.544452962
271100000.0 -34.311969494 -75.936257213
277000000.0 -35.075073057 -82.793900433
282900000.0 -35.428734819 -87.304264119
288800000.0 -36.334393754 -96.263698234
294700000.0 -37.283740577 -106.616315685
300600000.0 -38.733369767 -117.590218641
306500000.0 -39.801562478 -126.092744157
312400000.0 -40.077904926 -140.701080929
318300000.0 -42.392875508 -155.308817517
324200000.0 -42.074705337 -163.280962664
330100000.0 -41.588406450 177.121072282
336000000.0 -41.820280674 148.512675339
341900000.0 -40.294187047 137.992674533
347800000.0 -40.637673545 128.705196091
353700000.0 -39.638063969 116.541422623
359600000.0 -38.829177284 107.234849606
365500000.0 -37.128585785 95.450438648
371400000.0 -37.097417450 88.977794870
377300000.0 -35.515311649 80.147617402
383200000.0 -34.792430220 74.233350899
389100000.0 -34.171106322 63.544702581
395000000.0 -33.713572464 58.934990100
400900000.0 -32.980295547 52.537926569
406800000.0 -32.252013923 46.091781221
412700000.0 -31.908981715 40.560628876
418600000.0 -31.355904987 35.280635699
424500000.0 -30.764562542 29.012502308
430400000.0 -30.427249430 23.008777464
436300000.0 -30.189146736 15.058611343
442200000.0 -29.759485748 11.920152491
448100000.0 -29.546285638 5.967645752
454000000.0 -29.096243259 2.120300207
459900000.0 -28.757708619 -3.210793611
465800000.0 -28.523365329 -10.016018567
471700000.0 -28.380495012 -13.298936158
477600000.0 -28.226686998 -18.242522168
483500000.0 -27.871758143 -24.038089707
489400000.0 -27.758601584 -28.259353437
495300000.0 -27.720147573 -33.395273022
501200000.0 -27.376483753 -40.318719355
507100000.0 -27.455997734 -43.988059931
513000000.0 -26.963004044 -49.424403564
518900000.0 -26.927946130 -55.434350982
524800000.0 -26.831088086 -60.238811579
530700000.0 -26.792884170 -64.551555564
536600000.0 -26.616544827 -68.401678700
542500000.0 -26.583260657 -73.719824915
548400000.0 -26.538091467 -78.512292560
554300000.0 -26.244626642 -83.478017447
560200000.0 -26.167714385 -88.538120180
566100000.0 -26.165203363 -92.098688663
572000000.0 -25.955609311 -97.391627785
577900000.0 -25.854552827 -101.355837558
583800000.0 -25.801631186 -107.761634450
589700000.0 -25.810977862 -111.921357504
595600000.0 -25.962209385 -115.936270674
601500000.0 -25.889631421 -121.998277256
607400000.0 -25.943437384 -126.602111699
613300000.0 -25.890437644 -130.804234435
619200000.0 -25.827192163 -135.214954405
625100000.0 -25.976044207 -140.700291375
631000000.0 -26.099792977 -145.237402416
636900000.0 -26.024888591 -148.714678280
642800000.0 -26.195366575 -154.124419165
648700000.0 -26.119254338 -158.834808529
654600000.0 -26.278316695 -162.674107808
660500000.0 -26.282985152 -168.674182423
666400000.0 -26.337420117 -173.066474075
672300000.0 -26.370756063 -177.470214362
678200000.0 -26.643772253 178.105818443
684100000.0 -26.775598830 173.549896025
690000000.0 -26.916013507 168.489535984
695900000.0 -26.987576802 164.391261852
701800000.0 -27.103163849 159.656922058
707700000.0 -27.366528290 155.214722310
713600000.0 -27.439301342 151.438822167
719500000.0 -27.670456731 144.702352806
725400000.0 -27.911754151 140.684946741
731300000.0 -28.121024385 136.729510538
737200000.0 -28.416591711 134.211791952
743100000.0 -28.491766128 128.717692379
749000000.0 -28.879191491 123.896121150
754900000.0 -29.053759738 120.324324067
760800000.0 -29.157710860 115.075439890
766700000.0 -29.443501263 110.833160885
772600000.0 -29.855886417 107.742635498
778500000.0 -30.197176169 105.318032126
784400000.0 -30.489069903 101.327479647
790300000.0 -30.930976023 94.239069640
796200000.0 -31.438336561 92.324640268
802100000.0 -31.723450899 93.035153903
808000000.0 -32.236918193 86.676605028
813900000.0 -32.920056952 85.334496759
819800000.0 -33.507913861 80.573161367
825700000.0 -33.660408963 79.116782035
831600000.0 -34.508679064 75.628559385
837500000.0 -34.765503402 79.711729377
843400000.0 -35.481416561 76.440834313
849300000.0 -36.619807214 75.612913808
855200000.0 -35.690776364 74.013570505
861100000.0 -37.219644931 78.055883446
867000000.0 -37.991875937 79.049075612
872900000.0 -38.263021391 80.632221471
878800000.0 -38.940109458 91.402250469
884700000.0 -38.056997733 88.836257298
890600000.0 -37.942781892 91.648496078
896500000.0 -37.947591328 99.189991848
902400000.0 -37.386976418 98.889669599
908300000.0 -36.020571333 102.561145781
914200000.0 -36.139510289 103.944850322
920100000.0 -35.077670068 102.519251413
926000000.0 -35.143056564 102.630235499
931900000.0 -34.121496931 99.053106678
937800000.0 -33.914506782 96.766609772
943700000.0 -33.220409563 95.013140190
949600000.0 -32.270472978 89.545598650
955500000.0 -31.581715741 87.960305742
961400000.0 -31.707483837 85.078734234
967300000.0 -30.776563639 85.367176318
973200000.0 -30.396596130 81.544891896
979100000.0 -29.945206074 74.823685114
985000000.0 -29.938603970 70.949267081
990900000.0 -29.422365804 67.603879776
996800000.0 -29.173613133 64.083973429
1002700000.0 -28.809704061 60.633085924
1008600000.0 -28.637777092 55.348180271
1014500000.0 -28.449567733 50.905892650
1020400000.0 -27.916188731 48.214112380
1026300000.0 -27.707834357 43.052466477
1032200000.0 -27.263998767 39.033322495
1038100000.0 -27.225892776 34.127616951
1044000000.0 -26.940943979 31.169086944
1049900000.0 -26.642298054 25.941614206
1055800000.0 -26.368086654 22.043090260
1061700000.0 -26.088704114 18.332148852
1067600000.0 -25.891359548 13.655617313
1073500000.0 -25.825930123 8.567660663
1079400000.0 -25.502338639 3.965236345
1085300000.0 -25.485513358 0.306274312
1091200000.0 -25.322130578 -4.785672468
1097100000.0 -25.282738773 -9.166089744
1103000000.0 -25.011315383 -13.881359377
1108900000.0 -24.868387458 -18.869918587
1114800000.0 -24.675291463 -22.662280958
1120700000.0 -24.664297228 -27.889637141
1126600000.0 -24.393973451 -31.974095135
1132500000.0 -24.300651164 -37.073554189
1138400000.0 -24.210429184 -40.732318886
1144300000.0 -24.224493455 -45.561418029
1150200000.0 -24.123940997 -50.312021064
1156100000.0 -23.996335084 -54.644244681
1162000000.0 -23.913146904 -59.827570975
1167900000.0 -23.782787885 -65.172365434
1173800000.0 -23.751932295 -69.544214363
1179700000.0 -23.783482826 -73.548794074
1185600000.0 -23.646597606 -78.827400453
1191500000.0 -23.657222652 -83.432410417
1197400000.0 -23.582976188 -88.753394874
1203300000.0 -23.489036327 -92.781488909
1209200000.0 -23.541089855 -97.949387658
1215100000.0 -23.419499738 -103.090531392
1221000000.0 -23.472177407 -106.636730320
1226900000.0 -23.457334741 -111.256577746
1232800000.0 -23.691883472 -116.969722365
1238700000.0 -23.454045961 -121.948163219
1244600000.0 -23.701242153 -126.929389585
1250500000.0 -23.737430088 -130.483531141
1256400000.0 -23.628356269 -136.564480223
1262300000.0 -23.759182421 -140.887067641
1268200000.0 -23.777960295 -145.746931865
1274100000.0 -23.848199630 -150.471384840
1280000000.0 -23.806030158 -155.134072577
1285900000.0 -24.021863387 -159.673654548
1291800000.0 -23.967951780 -164.345982183
1297700000.0 -24.144508528 -168.989760816
1303600000.0 -24.377975990 -173.757173507
1309500000.0 -24.593487301 -179.266947721
1315400000.0 -24.782598393 176.609240166
1321300000.0 -24.756486136 170.658495040
1327200000.0 -24.953872281 166.624162296
1333100000.0 -25.244089664 162.880452072
1339000000.0 -25.377190449 157.288699805
1344900000.0 -25.602441048 153.043985819
1350800000.0 -25.753319221 148.249017435
1356700000.0 -25.968185719 144.568079934
1362600000.0 -26.135127781 138.956358162
1368500000.0 -26.392141800 134.138794209
1374400000.0 -26.620405792 130.654796729
1380300000.0 -27.110601993 125.351628853
1386200000.0 -27.241064676 120.626782913
1392100000.0 -27.305134144 115.615148712
1398000000.0 -27.593519619 112.332444657
1403900000.0 -27.885458358 108.834311590
1409800000.0 -28.210926031 102.880359574
1415700000.0 -28.606547872 99.639063807
1421600000.0 -28.734784713 94.719906377
1427500000.0 -29.297545848 90.835570281
1433400000.0 -29.514337787 88.212190069
1439300000.0 -29.876416636 84.829144247
1445200000.0 -30.163192875 79.027949512
1451100000.0 -30.756343696 76.757918173
1457000000.0 -30.926517281 70.780348039
1462900000.0 -31.522247937 67.405846129
1468800000.0 -31.734134133 66.306359710
1474700000.0 -32.360856466 63.218302845
1480600000.0 -33.261926069 60.852828473
1486500000.0 -33.383984452 59.007851651
1492400000.0 -33.690088459 56.745415568
1498300000.0 -34.063331586 53.830797365
1504200000.0 -35.404000438 53.922135631
1510100000.0 -35.802514931 52.187696154
1516000000.0 -36.086358033 56.185079369
1521900000.0 -36.406291282 54.202289529
1527800000.0 -37.043437587 57.342073441
1533700000.0 -37.759235438 57.832217531
1539600000.0 -37.112940023 63.910758982
1545500000.0 -37.592720581 64.775999028
1551400000.0 -36.117102814 67.621155990
1557300000.0 -37.099712757 69.160784062
1563200000.0 -35.897707246 73.613303095
1569100000.0 -34.856599541 78.150328685
1575000000.0 -35.126429621 76.188221667
1580900000.0 -34.442403779 76.380490420
1586800000.0 -34.308184649 71.991779082
1592700000.0 -33.498681365 72.337273295
1598600000.0 -33.225030902 71.396959707
1604500000.0 -32.644105945 69.992348792
1610400000.0 -32.196213097 69.522711533
1616300000.0 -32.093711212 61.388433488
1622200000.0 -31.403019542 61.008163743
1628100000.0 -31.178799762 58.309417869
1634000000.0 -30.741221530 54.901115884
1639900000.0 -30.668429569 49.571234603
1645800000.0 -30.345392288 46.037265435
1651700000.0 -29.781298984 42.400481793
1657600000.0 -29.585961630 37.336220651
1663500000.0 -29.409011213 33.366625216
1669400000.0 -29.328817481 30.605279378
1675300000.0 -28.821998719 25.325893540
1681200000.0 -28.691539111 19.653496382
1687100000.0 -28.821556712 17.671521642
1693000000.0 -28.202046000 11.697208009
1698900000.0 -28.027673731 7.569345636
1704800000.0 -27.829960782 2.664036464
1710700000.0 -27.551909584 -0.170749699
1716600000.0 -27.470417859 -5.490213999
1722500000.0 -27.417821077 -9.537064396
1728400000.0 -27.115651782 -14.454587137
1734300000.0 -27.066588103 -19.825381564
1740200000.0 -26.826637298 -25.478060523
1746100000.0 -26.704121970 -30.292595171
1752000000.0 -26.346919255 -33.718071448
1757900000.0 -26.287511443 -39.364797544
1763800000.0 -26.024670117 -43.467567074
1769700000.0 -26.125214682 -46.947643156
1775600000.0 -25.707969353 -52.318781907
1781500000.0 -25.753573430 -56.876235754
1787400000.0 -25.821261093 -63.956054049
1793300000.0 -25.673846810 -68.268337312
1799200000.0 -25.388617805 -71.861200474
1805100000.0 -25.296757480 -78.148110354
1811000000.0 -25.444571982 -82.331125522
1816900000.0 -25.174117212 -87.915809075
1822800000.0 -25.091601065 -92.989611813
1828700000.0 -24.996382340 -97.094472772
1834600000.0 -25.115641115 -102.790071789
1840500000.0 -24.970055063 -108.029267333
1846400000.0 -24.860021645 -113.105828770
1852300000.0 -24.935098764 -117.126480453
1858200000.0 -24.496447877 -123.205113246
1864100000.0 -24.839466291 -127.533390817
1870000000.0 -25.016154841 -132.764913434
1875900000.0 -24.995970118 -137.900787422
1881800000.0 -24.884427612 -142.391771621
1887700000.0 -25.073432590 -147.963943386
1893600000.0 -24.898674874 -152.898867472
1899500000.0 -24.857314116 -157.506085698
1905400000.0 -24.939931096 -163.091304657
1911300000.0 -24.844618773 -166.519148239
1917200000.0 -24.999949251 -172.896667889
1923100000.0 -25.090469118 -176.975357167
1929000000.0 -25.169033364 177.864657214
1934900000.0 -25.242721745 171.824372659
1940800000.0 -25.292999128 167.253804873
1946700000.0 -25.442280983 161.984047528
1952600000.0 -25.489201137 158.131636989
1958500000.0 -25.523629065 153.059920521
1964400000.0 -25.461413486 147.603933550
1970300000.0 -25.860864735 143.287088134
1976200000.0 -25.764778943 137.412033155
1982100000.0 -25.924203943 133.745872956
1988000000.0 -25.902328039 127.547629235
1993900000.0 -26.206804128 122.169986180
1999800000.0 -26.494886752 117.435719837
2005700000.0 -26.410732239 112.955763044
2011600000.0 -26.731245630 107.874285324
2017500000.0 -26.643442345 102.289196407
2023400000.0 -26.910487888 97.160239112
2029300000.0 -26.923580440 92.152786827
2035200000.0 -27.260917393 87.584286612
2041100000.0 -27.473601749 83.243746726
2047000000.0 -27.561476295 77.562637643
2052900000.0 -27.808640820 72.865261673
2058800000.0 -27.846692734 68.093523751
2064700000.0 -28.020742966 63.022951313
2070600000.0 -28.306157960 59.763413000
2076500000.0 -28.334247116 54.538827940
2082400000.0 -28.438822155 49.036815579
2088300000.0 -28.825032821 44.784859732
2094200000.0 -29.048424678 38.620568807
2100100000.0 -29.113809246 36.205858296
2106000000.0 -29.358298890 28.973712499
2111900000.0 -29.907755746 26.424772512
2117800000.0 -29.594275563 21.193870744
2123700000.0 -30.102856702 18.412122965
2129600000.0 -29.965532513 11.984513400
2135500000.0 -30.781962035 7.849582011
2141400000.0 -30.768630535 5.622472448
2147300000.0 -31.355825014 -0.738999247
2153200000.0 -31.555507075 -5.359572886
2159100000.0 -32.027906518 -6.936653900
2165000000.0 -32.219118573 -12.927925202
2170900000.0 -32.529436616 -12.342234687
2176800000.0 -33.032372087 -16.680774810
2182700000.0 -34.040985766 -18.038856828
2188600000.0 -34.495584341 -25.692089811
2194500000.0 -34.094015491 -26.509482205
2200400000.0 -35.282274254 -28.874692993
2206300000.0 -34.786356121 -30.591423650
2212200000.0 -35.871994554 -30.770992756
2218100000.0 -36.377180615 -24.622613322
2224000000.0 -37.867374308 -32.046504010
2229900000.0 -37.395133224 -28.047713151
2235800000.0 -37.900019663 -27.846299925
2241700000.0 -37.712724699 -20.558990441
2247600000.0 -37.794271227 -21.198497968
2253500000.0 -37.933371106 -12.335433289
2259400000.0 -37.969357957 -15.184665970
2265300000.0 -37.358554832 -8.092528133
2271200000.0 -36.077959655 -7.678069715
2277100000.0 -35.106848817 -6.062747559
2283000000.0 -35.021979892 -7.901157241
2288900000.0 -35.195912494 -10.235206671
2294800000.0 -34.324226695 -11.221244019
2300700000.0 -34.154624671 -13.027667042
2306600000.0 -33.533524958 -14.944172804
2312500000.0 -32.909541853 -16.175594661
2318400000.0 -32.563081936 -21.575852774
2324300000.0 -32.274219025 -23.968075959
2330200000.0 -31.882291836 -29.632309590
2336100000.0 -31.623268576 -32.763376408
2342000000.0 -31.471757318 -36.562410940
2347900000.0 -30.747964219 -40.783172876
2353800000.0 -30.446702961 -44.487095244
2359700000.0 -30.180666910 -47.503190915
2365600000.0 -30.026974921 -54.323513472
2371500000.0 -29.902484773 -57.802477284
2377400000.0 -29.526624014 -63.218843295
2383300000.0 -29.229809998 -67.679625409
2389200000.0 -28.912956234 -71.797188798
2395100000.0 -28.714313340 -75.607553808
2401000000.0 -28.515975620 -81.455823827
2406900000.0 -28.452213697 -85.590184411
2412800000.0 -28.032530074 -89.160439535
2418700000.0 -27.778630683 -92.611757071
2424600000.0 -27.515702904 -99.667607869
2430500000.0 -27.404955031 -104.423379628
2436400000.0 -27.197153135 -108.166299177
2442300000.0 -27.160167238 -113.288472479
2448200000.0 -26.903347498 -119.012861310
2454100000.0 -26.706630525 -122.661890769
2460000000.0 -26.465479471 -128.687442842
2465900000.0 -26.335572298 -132.772491393
2471800000.0 -26.032106373 -137.177362730
2477700000.0 -26.193591718 -141.766995933
2483600000.0 -26.000481186 -146.370747994
2489500000.0 -25.656919040 -152.173624569
2495400000.0 -25.494642235 -157.404476423
2501300000.0 -25.297080674 -162.367944577
2507200000.0 -25.369182893 -166.239668049
2513100000.0 -25.248620604 -172.365384879
2519000000.0 -25.328794874 -176.918853482
2524900000.0 -25.249338934 178.785249273
2530800000.0 -25.144949844 173.906618578
2536700000.0 -24.978599519 169.172768026
2542600000.0 -24.957980581 164.572040825
2548500000.0 -24.815029636 160.128481359
2554400000.0 -24.609823871 154.546240657
2560300000.0 -24.661998154 149.674584149
2566200000.0 -24.684242957 144.396384862
2572100000.0 -24.628700923 140.079093638
2578000000.0 -24.452305340 135.346861489
2583900000.0 -24.442337256 131.088609128
2589800000.0 -24.346683548 125.519336029
2595700000.0 -24.194499836 120.144363749
2601600000.0 -24.389772384 115.996444640
2607500000.0 -24.421154110 111.583252182
2613400000.0 -24.316871644 106.431970060
2619300000.0 -24.079654671 100.838642866
2625200000.0 -24.387623285 96.985102338
2631100000.0 -24.206747116 91.858008017
2637000000.0 -24.240316333 87.362923253
2642900000.0 -24.307080008 82.075374878
2648800000.0 -24.254152983 77.367284848
2654700000.0 -24.201143740 72.816728286
2660600000.0 -24.247361507 68.871272565
2666500000.0 -24.348889491 63.375453538
2672400000.0 -24.514259249 58.834823284
2678300000.0 -24.592178681 54.442968508
2684200000.0 -24.582001391 49.253365085
2690100000.0 -24.648850423 44.583956190
2696000000.0 -24.678812414 40.475367629
2701900000.0 -24.684768248 35.295582289
2707800000.0 -24.912102465 31.007073464
2713700000.0 -25.001015005 26.288987948
2719600000.0 -25.036031681 20.001395993
2725500000.0 -25.250004988 16.974428381
2731400000.0 -25.072573912 12.049031715
2737300000.0 -25.331511844 6.293854134
2743200000.0 -25.332367084 2.587593541
2749100000.0 -25.505028140 -1.128876835
2755000000.0 -25.741839955 -7.103215041
2760900000.0 -26.139614287 -9.750754303
2766800000.0 -26.129816075 -14.938376317
2772700000.0 -26.265712071 -19.812196506
2778600000.0 -26.373253640 -21.951354497
2784500000.0 -26.686173763 -27.689415807
2790400000.0 -26.617182342 -31.763987292
2796300000.0 -26.983572965 -36.496108851
2802200000.0 -27.251755962 -41.266939351
2808100000.0 -27.526825415 -45.684788279
2814000000.0 -27.621771449 -49.521938028
2819900000.0 -27.606833103 -53.836345826
2825800000.0 -28.147074249 -56.449934328
2831700000.0 -28.448163096 -59.189448012
2837600000.0 -28.386853865 -62.309128797
2843500000.0 -28.688889483 -67.531866614
2849400000.0 -29.229688550 -70.854622331
2855300000.0 -29.335505164 -74.497772790
2861200000.0 -29.552635160 -76.995066784
2867100000.0 -29.761119744 -79.998706538
2873000000.0 -30.097676048 -81.060938251
2878900000.0 -30.356739784 -85.016500312
2884800000.0 -30.559716568 -88.252575663
2890700000.0 -30.494001946 -89.431746243
2896600000.0 -30.800969604 -92.815692535
2902500000.0 -30.819598181 -95.073632652
2908400000.0 -31.465789487 -96.305151880
2914300000.0 -31.566814641 -101.268022875
2920200000.0 -31.838849359 -99.952511915
2926100000.0 -32.012256155 -101.937076014
2932000000.0 -31.758101639 -100.532607470
2937900000.0 -32.063663072 -102.213800392
2943800000.0 -32.183471566 -102.312523998
2949700000.0 -31.945372177 -103.536301363
2955600000.0 -32.393670354 -104.385671290
2961500000.0 -32.198714484 -104.871862963
2967400000.0 -32.128211796 -104.140821072
2973300000.0 -32.044835854 -108.855081108
2979200000.0 -31.809593617 -108.899294137
2985100000.0 -31.913900582 -110.902487624
2991000000.0 -31.013754618 -109.956050663
2996900000.0 -31.263476224 -110.509790880
3002800000.0 -30.823650566 -115.848443518
