!Created with skrf (http://scikit-rf.org).
# MHz S RI R 50.0 
!freq ReS11 ImS11
100.0 0.03179234739204009 0.013743803384950166
105.89999999999999 0.033669695729965414 0.010809431522383157
111.8 0.031868797150538884 0.05543209763354528
117.69999999999999 0.032849128735821444 0.05175895055333782
123.6 0.03634395993435037 0.047755371137405855
129.5 0.038652295059110484 0.04426599794533868
135.4 0.04060004103504357 0.04056393474158674
141.29999999999998 0.042444140750449916 0.035462438180929416
147.2 0.0433150324430334 0.03168572026615301
153.1 0.04460865847670999 0.027574464221436848
159.0 0.04446760474425131 0.022969427630819193
164.9 0.04483945740658792 0.018305996020761876
170.79999999999998 0.04425510259354598 0.01414106380887135
176.7 0.04476162856100409 0.010503489153342059
182.6 0.04330657842916902 0.006067522896048191
188.5 0.04288798732638223 0.0028764649526303253
194.39999999999998 0.04156026783660867 -0.0006344629456606933
200.29999999999998 0.04017332477162698 -0.0043683623483352614
206.2 0.037721061292069605 -0.0075631522240120225
212.1 0.03478001842836049 -0.010158567066934571
218.0 0.032245378420744535 -0.013510090906065824
223.89999999999998 0.030238865158810736 -0.014755628082180573
229.79999999999998 0.027168591249747923 -0.01660028717814237
235.7 0.024568856209890282 -0.01959733902778559
241.6 0.021312343944399303 -0.01917439218152327
247.5 0.018074737583822793 -0.01992452881649912
253.39999999999998 0.015282752310748162 -0.020975880630450056
259.3 0.011990090897532567 -0.020821137486178743
265.2 0.008472542014369326 -0.02049949624306611
271.09999999999997 0.004677458901518409 -0.018671744351012775
277.0 0.002211456566927194 -0.017490506615576377
282.9 0.0007960818538528097 -0.016907616676525364
288.8 -0.0016638841900058765 -0.015159327209909491
294.7 -0.0039094904631211255 -0.013100497926469876
300.59999999999997 -0.005358561830306089 -0.010254246744701928
306.5 -0.006027073639224889 -0.008267379995500552
312.4 -0.007669424071097473 -0.006277109248690164
318.3 -0.006897882624919927 -0.003171385498212993
324.2 -0.007542345925105307 -0.0022655441101415027
330.09999999999997 -0.008318235407550414 0.0004183165471609043
336.0 -0.006915293458388903 0.0042355932262831564
341.9 -0.007183136237306155 0.006469388062873229
347.8 -0.005810507673384542 0.007251351342306422
353.7 -0.004658578434974747 0.009326770696817983
359.59999999999997 -0.0033904450814532423 0.010929221270618697
365.5 -0.0013219782865662127 0.013854877724476616
371.4 0.00024918477983843006 0.013965613116898775
377.29999999999995 0.0028675477695941434 0.016511315903087374
383.2 0.0049488041979126145 0.017527638899285013
389.09999999999997 0.008715490812550403 0.01751477818460967
395.0 0.010640934293632128 0.01766405902859918
400.9 0.013647636428545109 0.01781034434040156
406.79999999999995 0.016921895681053747 0.01757940362904574
412.7 0.019284283543919263 0.016505657483843174
418.59999999999997 0.02208370921132243 0.015624935057612439
424.5 0.025324366410691412 0.014044750229711623
430.4 0.027709925874714002 0.011767175925113128
436.29999999999995 0.029879075585796274 0.008038842770826409
442.2 0.03180960764099423 0.006715021749068393
448.09999999999997 0.03313796027011636 0.0034640217630166094
454.0 0.03506633638597573 0.001298265245170832
459.9 0.03642774528656739 -0.002043511076669543
465.79999999999995 0.03691150606394322 -0.006519135389744171
471.7 0.03708257019938626 -0.008765221134483444
477.59999999999997 0.036835822792825136 -0.012141302652800178
483.5 0.036898915009137306 -0.016457856743711724
489.4 0.036054033866480414 -0.019380116914539388
495.29999999999995 0.03432603054758282 -0.022629783879122494
501.2 0.03261303024272662 -0.027676184480704958
507.09999999999997 0.03049450470920482 -0.029435922251766236
513.0 0.029178585071502294 -0.034072598933593407
518.9 0.025553704078155836 -0.03708975718667747
524.8 0.022608156326781596 -0.03953814612281631
530.6999999999999 0.01965712029428091 -0.04130762434657074
536.6 0.017184440776799714 -0.043406658542319225
542.5 0.01313752800611179 -0.04498461637101261
548.4 0.009381936943609528 -0.04616438771225718
554.3 0.0055346145855547065 -0.04841154379083451
560.1999999999999 0.0012541693922115463 -0.04914427171336324
566.1 -0.0018008108435456692 -0.049141501647629066
572.0 -0.006480845267490041 -0.04995689712040564
577.9 -0.010035103191616223 -0.04996730808919658
583.8 -0.0156422928345758 -0.04883235544409392
589.6999999999999 -0.019122655598000995 -0.04751791010785987
595.6 -0.022016063672054012 -0.04526734147187669
601.5 -0.026897210299088762 -0.04304741447195154
607.4 -0.03007874928733632 -0.040497951905666914
613.3 -0.03316714763075261 -0.03841876974732706
619.1999999999999 -0.03628679596334137 -0.03601554075355214
625.1 -0.038891159358999776 -0.03183171481926477
631.0 -0.04070327313867241 -0.028250123664518206
636.9 -0.04270850211270574 -0.025952192677378378
642.8 -0.0440910623310557 -0.021386252300175514
648.6999999999999 -0.04610057059209495 -0.01784901971802011
654.6 -0.0463358962850501 -0.014454998530543986
660.5 -0.04756746135302639 -0.009527208502427494
666.4 -0.047856537567928306 -0.005819692143367516
672.3 -0.04797762346246235 -0.002119737918759681
678.1999999999999 -0.046512963875849175 0.0015382653088084463
684.1 -0.045547260798939004 0.005149279111572444
690.0 -0.04419527970358512 0.009000037143375442
695.9 -0.04308263494518515 0.012035970830359502
701.8 -0.04138779551238793 0.015345195723457819
707.6999999999999 -0.03887805549353656 0.017952062397781222
713.6 -0.037297638721640984 0.02030256054902378
719.5 -0.033748398710767936 0.023893117694180097
725.4 -0.031115026034392704 0.025481007999781626
731.3 -0.028586122989881488 0.026910414755800867
737.1999999999999 -0.026460494035242827 0.027198721071648346
743.1 -0.02353030907320503 0.02935204757513851
749.0 -0.020064689305821243 0.02986377475167138
754.9 -0.017803784383136734 0.030437853877682403
760.8 -0.014766817043476512 0.03155898768008864
766.6999999999999 -0.011990719541573998 0.03151084178811595
772.5999999999999 -0.009798008735334497 0.030622526230051225
778.5 -0.008166492017214982 0.02981479738123366
784.4 -0.005871165574286218 0.029309149286032992
790.3 -0.0020999203984828933 0.028330971902980045
796.1999999999999 -0.0010869188933482603 0.026774762024255206
802.0999999999999 -0.0013730375133079655 0.02589511325014498
808.0 0.0014170000302716065 0.024401869014827493
813.9 0.0018377776759473036 0.02251934454334073
819.8 0.0034584905289997132 0.02083048762198846
825.6999999999999 0.00391741447559912 0.0203749830606063
831.5999999999999 0.004670680699635937 0.01822881702056371
837.5 0.003262933445000612 0.017975680233894658
843.4 0.003944374957233044 0.016355083853584872
849.3 0.0036667926264896985 0.014294589056210276
855.1999999999999 0.004523143557566281 0.015788188431358728
861.0999999999999 0.0028503555702745543 0.013474478575710186
867.0 0.0023937949913184864 0.012371572975098
872.9 0.00198804529290437 0.012050863003945153
878.8 -0.0002764738961225299 0.011294433408954967
884.6999999999999 0.0002540122083407239 0.012504332826192366
890.5999999999999 -0.0003645576959642181 0.01266721447817162
896.5 -0.0020227823862329557 0.012502873025353562
902.4 -0.00208771072120248 0.013347586262056427
908.3 -0.003438694002782182 0.015432985089437815
914.1999999999999 -0.0037585436643985145 0.015136749239781646
920.0999999999999 -0.003820418516855538 0.01720543406325115
926.0 -0.0038248372690696604 0.017069022764144997
931.9 -0.0030959329684637745 0.01943037278452154
937.8 -0.0023741772281724743 0.02000962403584934
943.6999999999999 -0.001907271296596562 0.021742777540115606
949.5999999999999 0.00019310289239951134 0.024347966351795435
955.5 0.0009381340919772546 0.026341406513632492
961.4 0.0022286704935672217 0.02588343038831189
967.3 0.0023357245026230477 0.028823754838523195
973.1999999999999 0.00444211017918204 0.029882998235362626
979.0999999999999 0.008330923348880592 0.030713065803227888
985.0 0.010395058235036135 0.030102825813994597
990.9 0.012877025099303467 0.03124801033441386
996.8 0.01520035878058455 0.03128163171435201
1002.6999999999999 0.017785487512180367 0.031606817173197556
1008.5999999999999 0.021033367892490894 0.03043068357737332
1014.5 0.023838164838941012 0.02933901983780642
1020.4 0.02678503420812289 0.02997228461706747
1026.3 0.030086007150777506 0.028107206898169375
1032.2 0.03365875122291497 0.027288746732471194
1038.1 0.036026787704454014 0.024417302602706466
1044.0 0.038480944413985425 0.02327652082103601
1049.8999999999999 0.0418563018720058 0.020361909750279326
1055.8 0.04452761381984152 0.01802928979501322
1061.7 0.04709176947370762 0.015603432550934057
1067.6 0.04931495673388178 0.011981227593912921
1073.5 0.05056264617753514 0.0076176920503410305
1079.3999999999999 0.05294710310792699 0.003670141265632506
1085.3 0.05317630139146353 0.0002842563692110932
1091.2 0.05399788726705078 -0.004520731501270571
1097.1 0.05373802748223019 -0.008671025442032647
1103.0 0.05452071925207755 -0.013473691341355848
1108.8999999999999 0.05402427509838618 -0.018464960643620333
1114.8 0.05386903792300702 -0.02249224958573604
1120.7 0.05166112112706257 -0.027341193589661434
1126.6 0.051149859575234304 -0.031929832670783496
1132.5 0.04862900315221495 -0.03674255461834215
1138.3999999999999 0.046667429178757006 -0.04018614277174222
1144.3 0.043048981585615896 -0.043900996305416565
1150.2 0.03972246598426197 -0.047866372094943675
1156.1 0.03652585268270877 -0.051481013471167604
1162.0 0.03203085944050755 -0.05509549262270255
1167.8999999999999 0.027164142526729468 -0.05871420181833754
1173.8 0.022689830661817185 -0.06082976896946717
1179.7 0.018319647189204497 -0.06204005970238794
1185.6 0.01273344509734452 -0.06447039723404685
1191.5 0.0075070754585752925 -0.06520478553083459
1197.3999999999999 0.0014402013090564288 -0.066183295541255
1203.3 -0.0032473738179312345 -0.06683996681670241
1209.2 -0.009199459720487512 -0.0658797627174999
1215.1 -0.015278288606216689 -0.06570371852314089
1221.0 -0.01919625481395672 -0.06424210355972919
1226.8999999999999 -0.024349790167495087 -0.06259410730471653
1232.8 -0.029648442017530363 -0.058264439167702076
1238.7 -0.03555314132267498 -0.057011630215297225
1244.6 -0.039236453706479574 -0.052202260260930694
1250.5 -0.042220824477382096 -0.04946301628395836
1256.3999999999999 -0.04781979160720126 -0.04527711772985581
1262.3 -0.05033254493280507 -0.04092301694583008
1268.2 -0.05350275738561766 -0.03643292423483197
1274.1 -0.05586811355378401 -0.0316455018170191
1280.0 -0.058539181178083446 -0.02713068202186417
1285.8999999999999 -0.05901797729573114 -0.021862268624499026
1291.8 -0.06098000819670569 -0.01708791357065908
1297.7 -0.060912448429155545 -0.011851477752801182
1303.6 -0.0600507105768571 -0.006569013911866187
1309.5 -0.05892371075058508 -0.0007539214542392534
1315.3999999999999 -0.057558455164744664 0.0034102871298268946
1321.3 -0.05706603773766807 0.009387374176877234
1327.2 -0.05500001017360236 0.013078342579969168
1333.1 -0.05225330421690532 0.016094732225943886
1339.0 -0.049669403452569955 0.020788672709177034
1344.8999999999999 -0.0467658195686814 0.023783170174541023
1350.8 -0.04384582866689635 0.027133661917383717
1356.7 -0.04098683378034681 0.029162206660691026
1362.6 -0.0372165141616486 0.03240162388166309
1368.5 -0.033361914747067484 0.034380215028494615
1374.3999999999999 -0.03040144173632415 0.0354013932437856
1380.3 -0.02551778240421935 0.035971283368969494
1386.2 -0.022133137093647344 0.037385195007776345
1392.1 -0.018644588937204172 0.038887869801821386
1398.0 -0.01585202588921223 0.03858897668321396
1403.8999999999999 -0.013022800370481176 0.03817926447446363
1409.8 -0.008661535119357999 0.037877909246579064
1415.7 -0.006216333292919805 0.036601391004012794
1421.6 -0.003010095047897581 0.036457384412660124
1427.5 -0.0004999973077050687 0.03428281883581142
1433.3999999999999 0.0010433051403806455 0.03342501828849181
1439.3 0.0028908746398459704 0.03194538633767479
1445.2 0.005906740440599211 0.030466885418901767
1451.1 0.006639619624248067 0.02821493350237974
1457.0 0.009356673665698026 0.02683906276742608
1462.8999999999999 0.01019638514421273 0.024502288454184697
1468.8 0.010407659894332889 0.023716463195345962
1474.7 0.010857779688035184 0.021511822734908485
1480.6 0.010579894517690718 0.018971546131053625
1486.5 0.011029124757765664 0.01836124505746132
1492.3999999999999 0.01133865280522494 0.017291302150018544
1498.3 0.011689929599137859 0.015990290450039142
1504.2 0.009996082849818995 0.013719181538924586
1510.1 0.009940061658067524 0.012808969625042941
1516.0 0.00873286264073418 0.01303764863564723
1521.8999999999999 0.008846791989763413 0.012267412810062555
1527.8 0.007584342871853119 0.011832932236333686
1533.6999999999998 0.006890910058297857 0.010956237293756534
1539.6 0.006131674927880687 0.01252225703132886
1545.5 0.005622570433971345 0.01193559005676744
1551.3999999999999 0.00595334132159716 0.014459040024026268
1557.3 0.004967698895383079 0.013050644596258903
1563.1999999999998 0.004524249339659479 0.015385268275552668
1569.1 0.003712387249166173 0.01769355324537745
1575.0 0.00418399480795563 0.01701907158001629
1580.8999999999999 0.004464995604169681 0.018428621398171252
1586.8 0.005953397297842519 0.018313731441880365
1592.6999999999998 0.006413579390821244 0.020141629461174138
1598.6 0.006959086071977748 0.02067487668577014
1604.5 0.007980051510329217 0.021915904853292596
1610.3999999999999 0.008591201889673085 0.023006009588482812
1616.3 0.011899569350550766 0.021814874658701258
1622.1999999999998 0.013040931046162585 0.023534369976325645
1628.1 0.014504197257298172 0.023492933256320476
1634.0 0.01669547193565511 0.023756237184446718
1639.8999999999999 0.018988468656379293 0.022288693740334334
1645.8 0.021096429815982302 0.021874446542246784
1651.6999999999998 0.02394726674815357 0.021867228725004226
1657.6 0.026370498391281475 0.020115294201162773
1663.5 0.028269848486548135 0.01861691285378551
1669.3999999999999 0.029404138927463155 0.017393216464909052
1675.3 0.032735224240048454 0.015491973034247996
1681.1999999999998 0.03462229323404149 0.012364881465042003
1687.1 0.0345087796608375 0.01099426016089122
1693.0 0.03808759967159304 0.00788562714409536
1698.8999999999999 0.03933827893079961 0.005227427134757378
1704.8 0.04055387345035463 0.0018869613240916103
1710.6999999999998 0.041918196798014624 -0.0001249226514387192
1716.6 0.04211940434881957 -0.004048376868561971
1722.5 0.04198213607930854 -0.007053321799997981
1728.3999999999999 0.04268230638583721 -0.011002309530731332
1734.3 0.04169998265322578 -0.015033787985505915
1740.1999999999998 0.041137288723035674 -0.019602147902912644
1746.1 0.03990584407054756 -0.023312174537323767
1752.0 0.04005548827857263 -0.026731946749793976
1757.8999999999999 0.03748635804881559 -0.03075308981988297
1763.8 0.03627119463569497 -0.034381078218741215
1769.6999999999998 0.033724675903555885 -0.036099095011332696
1775.6 0.03168348439560723 -0.04102142308900131
1781.5 0.02817547575511527 -0.04318193196483651
1787.3999999999999 0.022462661279697333 -0.04596576667105914
1793.3 0.019267024056420865 -0.04833812053830121
1799.1999999999998 0.0167407985628073 -0.05110132763407728
1805.1 0.011161575666597796 -0.05318677188115979
1811.0 0.007129890962157233 -0.05295043425369463
1816.8999999999999 0.002004533072240876 -0.05508162497457029
1822.8 -0.002902117745669048 -0.055568474254183084
1828.6999999999998 -0.006948131859601467 -0.05582684290911187
1834.6 -0.01228444065359433 -0.054113568256408597
1840.5 -0.017464726114709676 -0.053657622869858375
1846.3999999999999 -0.022426519636328267 -0.05256342133043554
1852.3 -0.025832609102230404 -0.05042386452171356
1858.1999999999998 -0.032634059415492106 -0.04986035787346774
1864.1 -0.0348982346246579 -0.045425426535146446
1870.0 -0.038111568668393644 -0.04120733960043995
1875.8999999999999 -0.04174424894549501 -0.03771778128808797
1881.8 -0.04514550961374949 -0.034777052409054085
1887.6999999999998 -0.0472691676351628 -0.02957843220951709
1893.6 -0.050647230255103995 -0.025918760407504276
1899.5 -0.052816393714234834 -0.021870694453379164
1905.3999999999999 -0.05417647539215712 -0.016469053063547248
1911.3 -0.055671817111612454 -0.013345944454275288
1917.1999999999998 -0.05580284741790189 -0.0069539077324390595
1923.1 -0.05557393142994778 -0.002936474792121553
1929.0 -0.05511206106941014 0.0020549097866664414
1934.8999999999999 -0.05412868973552573 0.007776561220285692
1940.8 -0.05302902441277772 0.011995541382193275
1946.6999999999998 -0.05082214246023814 0.01652876042899475
1952.6 -0.04932960124850235 0.019798739503063167
1958.5 -0.04719875608086908 0.023986824648285172
1964.3999999999999 -0.045025588655271176 0.02856977153488945
1970.3 -0.040825983462134875 0.030445064531478307
1976.1999999999998 -0.037912288972994715 0.03484744475237347
1982.1 -0.03495887967989982 0.036523788439475076
1988.0 -0.03088878430359936 0.04018583448581702
1993.8999999999999 -0.026057017468956573 0.0414259511715065
1999.8 -0.021813432403038485 0.04201824196957781
2005.6999999999998 -0.018644494336616985 0.04401813609137447
2011.6 -0.014140877452355151 0.04384827421514835
2017.5 -0.009905894236042507 0.04547372713159055
2023.3999999999999 -0.0056253491337157945 0.04477911003633202
2029.3 -0.0016927669940325996 0.04503128592246873
2035.1999999999998 0.001827040717586321 0.04330798769821449
2041.1 0.0049761821356101524 0.0420042744478459
2047.0 0.00901811481742893 0.04088958317852992
2052.9 0.011990294228042611 0.03889114402296762
2058.7999999999997 0.015117572597494218 0.03759386385801102
2064.7 0.01801640002593208 0.03539421893738579
2070.6 0.019353229671924634 0.0332033901014446
2076.5 0.02222433508379951 0.031202073583715687
2082.4 0.024813074644550032 0.02858124735896613
2088.2999999999997 0.025695554148464913 0.02550330633497244
2094.2 0.027567324534436735 0.022022913885399654
2100.1 0.028257205523696035 0.020685585278416546
2106.0 0.02978617273872699 0.01649288470485907
2111.9 0.028621159729147565 0.01422309442498061
2117.7999999999997 0.03089377723499285 0.011979104537375449
2123.7 0.029650775301460704 0.009870468548435976
2129.6 0.03105651379575979 0.006592492703065162
2135.5 0.028629475080220818 0.003946993214094487
2141.4 0.028805410056640494 0.0028358022148496525
2147.2999999999997 0.027050333524141837 -0.00034891373924637344
2153.2 0.026322176664094747 -0.002469440997227805
2159.1 0.024855017323071448 -0.003023922220341811
2165.0 0.023872272851524472 -0.005479727071003085
2170.9 0.023087295792736544 -0.005051674904381555
2176.7999999999997 0.02136535536932281 -0.006402100320684898
2182.7 0.018882575433708797 -0.006149481515725165
2188.6 0.016982888117951313 -0.008170424585579504
2194.5 0.01766259726636638 -0.008809896163479413
2200.4 0.015074075218729378 -0.008312651663567112
2206.2999999999997 0.015688941415896784 -0.009275244600863375
2212.2 0.013819876256333451 -0.008228819601826578
2218.1 0.013795553422844945 -0.006322684771036549
2224.0 0.010835059642109488 -0.006782730979531596
2229.9 0.011912029898107834 -0.006346468512817144
2235.7999999999997 0.011260337219176117 -0.005948536052193604
2241.7 0.012183833338676868 -0.004569651883948501
2247.6 0.012018703627640204 -0.004661385437095212
2253.5 0.012393318752994969 -0.0027102102947970355
2259.4 0.012192658248312963 -0.0033091681950207733
2265.2999999999997 0.01341917719917409 -0.0019080463437477174
2271.2 0.015566491962980936 -0.0020986055204421992
2277.1 0.017467134133193833 -0.001855212485467728
2283.0 0.01756946014679127 -0.0024383257575136506
2288.9 0.017109514936415934 -0.0030893425205638704
2294.7999999999997 0.018854104244072467 -0.0037404784704090483
2300.7 0.01909608020136174 -0.0044183911989013405
2306.6 0.020341393228403944 -0.005429222403355153
2312.5 0.02172604537249326 -0.006301965510921056
2318.4 0.021892576959069564 -0.008657213234931375
2324.2999999999997 0.022239594632002153 -0.009886861372463175
2330.2 0.022131622134393923 -0.012589024253360875
2336.1 0.022059084232781207 -0.014196161539477632
