# Hz S DB R 50
100000000.0 1.238742539 74.324039414
105900000.0 1.273646754 67.358643005
111800000.0 1.560352847 50.648382865
117700000.0 1.522592122 43.960685551
123600000.0 1.512728863 37.215305950
129500000.0 1.490938843 30.606656463
135400000.0 1.486217542 23.753127809
141300000.0 1.469224545 17.021697134
147200000.0 1.441335763 10.284748010
153100000.0 1.428335402 3.552836539
159000000.0 1.423152968 -3.267044514
164900000.0 1.416921028 -10.145666116
170800000.0 1.385386510 -16.928583011
176700000.0 1.367043693 -23.822378842
182600000.0 1.367596139 -30.672238833
188500000.0 1.345769445 -37.522453354
194400000.0 1.345978526 -44.347621400
200300000.0 1.312717620 -51.310092154
206200000.0 1.300264658 -58.163079993
212100000.0 1.284663376 -65.034202743
218000000.0 1.260460594 -71.919350818
223900000.0 1.230958489 -78.864653068
229800000.0 1.224616434 -85.915169953
235700000.0 1.209962828 -92.835696319
241600000.0 1.183639094 -99.814348891
247500000.0 1.160019932 -106.764160639
253400000.0 1.135274929 -113.746820147
259300000.0 1.115231217 -120.563950916
265200000.0 1.108793483 -127.645937811
271100000.0 1.071351335 -134.664629927
277000000.0 1.064885325 -141.613902924
282900000.0 1.050396945 -148.477564985
288800000.0 1.018495294 -155.397579500
294700000.0 1.022875462 -162.147024066
300600000.0 1.010757673 -168.987114911
306500000.0 0.964690076 -175.888968981
312400000.0 0.976362266 177.177644023
318300000.0 0.969518331 170.383039707
324200000.0 0.951979914 163.613639365
330100000.0 0.958651796 156.770874094
336000000.0 0.953998393 149.902100855
341900000.0 0.952027227 143.081090986
347800000.0 0.946965835 136.201220855
353700000.0 0.967620107 129.288484179
359600000.0 0.990307914 122.443017473
365500000.0 1.010785576 115.666360191
371400000.0 1.024717055 108.989198759
377300000.0 1.028932349 102.108237467
383200000.0 1.040678828 95.219982403
389100000.0 1.051753461 88.489459444
395000000.0 1.089070331 81.491324160
400900000.0 1.083503952 74.696077916
406800000.0 1.078434644 67.946565999
412700000.0 1.109858527 60.997953011
418600000.0 1.134359155 54.102595764
424500000.0 1.124019881 47.335196672
430400000.0 1.120789887 40.468598309
436300000.0 1.120618216 33.450079886
442200000.0 1.129401670 26.722033855
448100000.0 1.137385965 19.898159999
454000000.0 1.147826721 13.072265203
459900000.0 1.153671377 6.278994903
465800000.0 1.156459529 -0.496826231
471700000.0 1.154734700 -7.409467447
477600000.0 1.163010571 -14.093645898
483500000.0 1.142121324 -20.705481589
489400000.0 1.121994019 -27.568852362
495300000.0 1.134642108 -34.227625394
501200000.0 1.119062112 -40.940914240
507100000.0 1.106603759 -47.722311378
513000000.0 1.116566550 -54.366499971
518900000.0 1.078304449 -60.965936861
524800000.0 1.093456379 -67.548081559
530700000.0 1.094682126 -74.197733571
536600000.0 1.080710466 -80.709736788
542500000.0 1.095831205 -87.284000348
548400000.0 1.122181543 -93.781857783
554300000.0 1.110163990 -100.464897542
560200000.0 1.118274108 -106.977986673
566100000.0 1.135772622 -113.513887960
572000000.0 1.152921422 -120.099893878
577900000.0 1.162288157 -126.743528044
583800000.0 1.205205750 -133.220253274
589700000.0 1.210306111 -139.920089917
595600000.0 1.255964820 -146.515495546
601500000.0 1.290366845 -153.063394654
607400000.0 1.330395008 -159.885760975
613300000.0 1.375191564 -166.557552626
619200000.0 1.410638141 -173.299782481
625100000.0 1.441025202 179.809117764
631000000.0 1.472913122 172.953027924
636900000.0 1.500893214 166.069460192
642800000.0 1.552499109 159.078427309
648700000.0 1.557447136 152.187877026
654600000.0 1.576050860 145.113333652
660500000.0 1.625954598 138.126023677
666400000.0 1.645742702 131.060960740
672300000.0 1.663911241 123.870036822
678200000.0 1.665381823 116.807247402
684100000.0 1.659243614 109.660184329
690000000.0 1.643765333 102.581248903
695900000.0 1.632230313 95.459755562
701800000.0 1.628345120 88.238402158
707700000.0 1.579713825 81.149139508
713600000.0 1.542623468 73.927073139
719500000.0 1.513861847 66.855752362
725400000.0 1.470923419 59.625589592
731300000.0 1.429719126 52.632140744
737200000.0 1.384761571 45.646199435
743100000.0 1.357543539 38.596781249
749000000.0 1.323229049 31.541279553
754900000.0 1.269175865 24.368930881
760800000.0 1.246453052 17.431042038
766700000.0 1.212391965 10.473384257
772600000.0 1.181228644 3.532806377
778500000.0 1.138322497 -3.311373319
784400000.0 1.121173190 -10.238361691
790300000.0 1.109726518 -17.132442977
796200000.0 1.085564937 -24.012861182
802100000.0 1.070984506 -31.001879180
808000000.0 1.059234944 -37.887153182
813900000.0 1.047257228 -44.879553417
819800000.0 1.063950933 -51.850328003
825700000.0 1.069982694 -58.781465091
831600000.0 1.066603522 -65.652305356
837500000.0 1.098537647 -72.700428301
843400000.0 1.098064941 -79.660760315
849300000.0 1.118486378 -86.591992203
855200000.0 1.114535503 -93.587828250
861100000.0 1.130797543 -100.727177053
867000000.0 1.152859842 -107.883482106
872900000.0 1.147371414 -114.989087808
878800000.0 1.172086785 -121.945122164
884700000.0 1.179201182 -129.229231105
890600000.0 1.179702760 -136.502033866
896500000.0 1.175586368 -143.664384495
902400000.0 1.178092303 -150.882314147
908300000.0 1.162558559 -158.083996253
914200000.0 1.122540675 -165.128520622
920100000.0 1.096120153 -172.272872720
926000000.0 1.069786395 -179.381534906
931900000.0 1.045225706 173.563269258
937800000.0 1.006248988 166.494902184
943700000.0 0.969383376 159.556708814
949600000.0 0.917164315 152.557656404
955500000.0 0.866853515 145.611593467
961400000.0 0.827920885 138.736538628
967300000.0 0.772284543 131.964534940
973200000.0 0.727197109 125.104412370
979100000.0 0.688445877 118.384759540
985000000.0 0.651095284 111.835831798
990900000.0 0.618750132 105.142067892
996800000.0 0.562356980 98.539722479
1002700000.0 0.536935544 92.089455909
1008600000.0 0.520493764 85.657002006
1014500000.0 0.484946815 79.190912942
1020400000.0 0.469650602 72.838669225
1026300000.0 0.449369078 66.453052103
1032200000.0 0.467663322 60.088259972
1038100000.0 0.450823135 53.739559615
1044000000.0 0.444482544 47.493264992
1049900000.0 0.453226817 41.088828204
1055800000.0 0.478308561 34.829926178
1061700000.0 0.489307085 28.559264914
1067600000.0 0.514630398 22.196341994
1073500000.0 0.551415434 15.753001559
1079400000.0 0.578241187 9.430713448
1085300000.0 0.618363038 3.009475590
1091200000.0 0.685491207 -3.309129341
1097100000.0 0.720962273 -9.834809928
1103000000.0 0.763670919 -16.272814597
1108900000.0 0.822294098 -22.680429649
1114800000.0 0.878251775 -29.303903914
1120700000.0 0.910916637 -35.848073701
1126600000.0 0.968247889 -42.431646862
1132500000.0 1.004022328 -48.978077276
1138400000.0 1.034601315 -55.629922145
1144300000.0 1.066664401 -62.323308918
1150200000.0 1.096263688 -69.078651851
1156100000.0 1.145909050 -75.739095904
1162000000.0 1.169618208 -82.473858141
1167900000.0 1.185621984 -89.177665750
1173800000.0 1.230628080 -95.982903933
1179700000.0 1.235207725 -102.753008833
1185600000.0 1.265278229 -109.498629658
1191500000.0 1.278124479 -116.220310972
1197400000.0 1.294267929 -122.813441083
1203300000.0 1.296556464 -129.792456712
1209200000.0 1.319781494 -136.514971388
1215100000.0 1.320605490 -143.251045908
1221000000.0 1.353995662 -150.133566081
1226900000.0 1.370614784 -156.952368404
1232800000.0 1.327523750 -163.968338780
1238700000.0 1.331992433 -170.765035967
1244600000.0 1.346317184 -177.632778742
1250500000.0 1.350055580 175.598803894
1256400000.0 1.358406014 168.638128911
1262300000.0 1.360106450 161.740063518
1268200000.0 1.384027535 154.767739070
1274100000.0 1.383029056 147.775524551
1280000000.0 1.394786943 140.802884427
1285900000.0 1.396825819 133.799943914
1291800000.0 1.395835613 126.703571789
1297700000.0 1.390213273 119.695435327
1303600000.0 1.408454363 112.694881891
1309500000.0 1.384172981 105.535701675
1315400000.0 1.382768533 98.417842487
1321300000.0 1.356529073 91.292614615
1327200000.0 1.330207370 84.118460266
1333100000.0 1.305469594 76.931746932
1339000000.0 1.281328262 69.817086985
1344900000.0 1.240875177 62.676471639
1350800000.0 1.203156054 55.589379376
1356700000.0 1.140850089 48.377188258
1362600000.0 1.105882133 41.340564363
1368500000.0 1.059062653 34.228885434
1374400000.0 1.010195576 27.075277068
1380300000.0 0.960554678 20.017749662
1386200000.0 0.912418975 12.999047365
1392100000.0 0.822830511 6.149867387
1398000000.0 0.787429327 -0.679371287
1403900000.0 0.739764755 -7.767377649
1409800000.0 0.681828993 -14.644122631
1415700000.0 0.658462509 -21.562708623
1421600000.0 0.593367580 -28.328242376
1427500000.0 0.558903348 -35.303469982
1433400000.0 0.532611214 -42.163430003
1439300000.0 0.497567627 -48.940486495
1445200000.0 0.497160915 -55.796827797
1451100000.0 0.466882903 -62.533470100
1457000000.0 0.450274234 -69.355070140
1462900000.0 0.447061192 -76.318100117
1468800000.0 0.485306231 -83.076817316
1474700000.0 0.459587770 -90.031561544
1480600000.0 0.491017659 -96.922828421
1486500000.0 0.527032965 -103.785020248
1492400000.0 0.520359409 -110.703712711
1498300000.0 0.563197093 -117.713073357
1504200000.0 0.553992007 -124.658038188
1510100000.0 0.565154642 -131.563663904
1516000000.0 0.590926093 -138.528391902
1521900000.0 0.593610778 -145.711735701
1527800000.0 0.622105758 -152.812171173
1533700000.0 0.603732169 -159.859625187
1539600000.0 0.591966112 -166.889429768
1545500000.0 0.614683230 -174.014261113
1551400000.0 0.625263599 178.805778282
1557300000.0 0.591534745 171.696350344
1563200000.0 0.573714420 164.507982854
1569100000.0 0.528768684 157.578866946
1575000000.0 0.512784159 150.642612978
1580900000.0 0.480807233 143.620344331
1586800000.0 0.438448874 136.879788664
1592700000.0 0.380237958 130.044021844
1598600000.0 0.346468640 123.236000917
1604500000.0 0.300784567 116.427076508
1610400000.0 0.246402918 109.806610138
1616300000.0 0.210282004 103.208936203
1622200000.0 0.173855089 96.765903690
1628100000.0 0.125397047 90.243522309
1634000000.0 0.098274786 83.789254878
1639900000.0 0.072461042 77.392071928
1645800000.0 0.054374836 71.039686638
1651700000.0 0.034381733 64.697921910
1657600000.0 0.044357049 58.445477737
1663500000.0 0.045196368 52.100528896
1669400000.0 0.043509821 45.842447599
1675300000.0 0.077737782 39.548172264
1681200000.0 0.100537370 33.434280874
1687100000.0 0.142786992 27.046432691
1693000000.0 0.183957655 20.692236043
1698900000.0 0.234207757 14.430879494
1704800000.0 0.301243265 8.027877451
1710700000.0 0.329502248 1.606374081
1716600000.0 0.387514607 -4.772175434
1722500000.0 0.455863660 -11.492107706
1728400000.0 0.523544857 -17.872444427
1734300000.0 0.604613004 -24.544336809
1740200000.0 0.695671334 -31.197515902
1746100000.0 0.751705147 -38.034628462
1752000000.0 0.802778274 -44.945429356
1757900000.0 0.885888331 -51.899946538
1763800000.0 0.961420607 -58.931484173
1769700000.0 1.033034585 -65.927257316
1775600000.0 1.097875134 -72.890602056
1781500000.0 1.104209067 -79.983697425
1787400000.0 1.101054399 -87.275533416
1793300000.0 1.117225324 -94.326577037
1799200000.0 1.134252076 -101.361068495
1805100000.0 1.086566897 -108.638368460
1811000000.0 1.067354321 -115.588052773
1816900000.0 0.994525359 -122.992828164
1822800000.0 0.984075874 -130.134131830
1828700000.0 0.935122264 -137.020876804
1834600000.0 0.967601017 -143.786966552
1840500000.0 0.823404640 -150.722589294
1846400000.0 0.785111567 -157.549295784
1852300000.0 0.714266349 -164.343220042
1858200000.0 0.663111884 -170.942170738
1864100000.0 0.624945993 -177.646312723
1870000000.0 0.517281424 175.711344124
1875900000.0 0.464055125 168.999600618
1881800000.0 0.401822355 162.541258273
1887700000.0 0.364797470 156.150314735
1893600000.0 0.336655967 149.533817426
1899500000.0 0.287963877 143.292968168
1905400000.0 0.286910273 136.786531980
1911300000.0 0.278663281 130.378738250
1917200000.0 0.269860437 123.947923732
1923100000.0 0.269326975 117.470866395
1929000000.0 0.303018440 111.140288004
1934900000.0 0.319573031 104.591288839
1940800000.0 0.359410456 98.056315439
1946700000.0 0.401129636 91.498310655
1952600000.0 0.437318942 84.832599055
1958500000.0 0.509106663 78.000458798
1964400000.0 0.545030962 71.204561088
1970300000.0 0.605714806 64.360707713
1976200000.0 0.649582190 57.255449679
1982100000.0 0.695947243 50.316572127
1988000000.0 0.767795705 43.209868760
1993900000.0 0.803795368 35.997404194
1999800000.0 0.836843565 28.657431564
2005700000.0 0.870164839 21.405273303
2011600000.0 0.910509916 13.962258800
2017500000.0 0.897111066 6.511285848
2023400000.0 0.901739364 -0.904483224
2029300000.0 0.860109841 -8.332996159
2035200000.0 0.859471520 -15.839692277
2041100000.0 0.808472682 -23.150804339
2047000000.0 0.765206010 -30.568641304
2052900000.0 0.672769899 -37.739984113
2058800000.0 0.622876577 -45.030183767
2064700000.0 0.547462316 -52.178049849
2070600000.0 0.474906246 -59.256523574
2076500000.0 0.358855047 -66.236442857
2082400000.0 0.296066817 -73.151813700
2088300000.0 0.223858232 -80.126562857
2094200000.0 0.146195536 -86.901543465
2100100000.0 0.102331143 -93.701123028
2106000000.0 0.039932457 -100.275398527
2111900000.0 -0.022329587 -106.918370083
2117800000.0 -0.078636281 -113.434742790
2123700000.0 -0.095748784 -120.059535457
2129600000.0 -0.103708855 -126.466058396
2135500000.0 -0.107755614 -133.003178171
2141400000.0 -0.132281265 -139.708889547
2147300000.0 -0.117451077 -146.123865972
2153200000.0 -0.115886787 -152.691003337
2159100000.0 -0.065631798 -159.143886673
2165000000.0 -0.034365688 -165.921885820
2170900000.0 0.013488552 -172.583043187
2176800000.0 0.067969536 -179.262838212
2182700000.0 0.128173669 173.992066832
2188600000.0 0.200771583 167.054372078
2194500000.0 0.265483789 160.355821702
2200400000.0 0.317130179 153.231939382
2206300000.0 0.382545821 146.280950829
2212200000.0 0.468481674 139.106354557
2218100000.0 0.518549318 131.951729196
2224000000.0 0.574758731 124.461331373
2229900000.0 0.617641116 117.420546453
2235800000.0 0.659496792 110.054977428
2241700000.0 0.691215886 102.797773909
2247600000.0 0.685179584 95.254824018
2253500000.0 0.700528950 87.967723283
2259400000.0 0.708912194 80.580681555
2265300000.0 0.654108266 73.135951941
2271200000.0 0.647424999 65.891510208
2277100000.0 0.618553669 58.663229566
2283000000.0 0.554826653 51.420500659
2288900000.0 0.477622048 44.302986728
2294800000.0 0.430827649 37.318166834
2300700000.0 0.366287079 30.352049438
2306600000.0 0.281414296 23.413152240
2312500000.0 0.214202995 16.719254835
2318400000.0 0.141202819 9.921555691
2324300000.0 0.085119081 3.292446903
2330200000.0 0.018256335 -3.315059123
2336100000.0 -0.032463416 -9.801779635
2342000000.0 -0.065259032 -16.162653712
2347900000.0 -0.103532552 -22.725468548
2353800000.0 -0.142050190 -28.858376047
2359700000.0 -0.157191099 -35.231655507
2365600000.0 -0.180594766 -41.509718731
2371500000.0 -0.176315436 -47.708504805
2377400000.0 -0.181450510 -53.973334666
2383300000.0 -0.153514591 -60.181095943
2389200000.0 -0.151618995 -66.503670355
2395100000.0 -0.127981499 -72.774183272
2401000000.0 -0.089264977 -79.094797439
2406900000.0 -0.038004572 -85.465814287
2412800000.0 0.027566519 -91.861113766
2418700000.0 0.077359666 -98.244175749
2424600000.0 0.129252469 -104.783304251
2430500000.0 0.203158427 -111.306156559
2436400000.0 0.267960173 -117.851864159
2442300000.0 0.334102213 -124.507228324
2448200000.0 0.405193234 -131.309634208
2454100000.0 0.465130365 -138.023444457
2460000000.0 0.522222513 -144.806453896
2465900000.0 0.570505499 -151.685148551
2471800000.0 0.613195394 -158.640468544
2477700000.0 0.672298625 -165.599054724
2483600000.0 0.719784445 -172.624211203
2489500000.0 0.740192146 -179.673521001
2495400000.0 0.756791308 173.303179278
2501300000.0 0.760708455 166.302554994
2507200000.0 0.760027217 159.206391368
2513100000.0 0.726300616 152.041908941
2519000000.0 0.720815282 145.142076248
2524900000.0 0.677413327 138.215054886
2530800000.0 0.670602222 131.053034213
2536700000.0 0.619107057 124.182736560
2542600000.0 0.585146429 117.509353636
2548500000.0 0.540716838 110.733732396
2554400000.0 0.505196574 103.940003888
2560300000.0 0.459253989 97.180190930
2566200000.0 0.425299543 90.609130431
2572100000.0 0.390117100 83.915034781
2578000000.0 0.361184277 77.215130149
2583900000.0 0.362665124 70.673950736
2589800000.0 0.340674900 64.019769273
2595700000.0 0.306544105 57.485582648
2601600000.0 0.300316930 50.835806203
2607500000.0 0.293269158 44.304317889
2613400000.0 0.281560412 37.660074629
2619300000.0 0.304298559 31.132135486
2625200000.0 0.283012645 24.425862201
2631100000.0 0.298365170 17.777932514
2637000000.0 0.325801710 10.933859846
2642900000.0 0.350424359 4.161706736
2648800000.0 0.368026914 -2.624779333
2654700000.0 0.392475131 -9.432059716
2660600000.0 0.416247785 -16.421048686
2666500000.0 0.473264606 -23.314349137
2672400000.0 0.431841397 -30.253203504
2678300000.0 0.438221000 -37.398610886
2684200000.0 0.454557798 -44.462865833
2690100000.0 0.455237452 -51.583071656
2696000000.0 0.465933277 -58.968190152
2701900000.0 0.446962629 -65.964588324
2707800000.0 0.444845912 -73.270506546
2713700000.0 0.440271616 -80.614318619
2719600000.0 0.422814657 -87.946412607
2725500000.0 0.379908549 -95.188040627
2731400000.0 0.363251098 -102.430193308
2737300000.0 0.323601313 -109.830677456
2743200000.0 0.270246117 -116.958640227
2749100000.0 0.225939715 -124.362621694
2755000000.0 0.174807769 -131.601186922
2760900000.0 0.110151021 -138.809553853
2766800000.0 0.052737789 -146.017824785
2772700000.0 0.000334142 -153.087686676
2778600000.0 -0.070665850 -160.175990061
2784500000.0 -0.150000309 -167.265632175
2790400000.0 -0.209580208 -174.352159765
2796300000.0 -0.258477874 178.667835638
2802200000.0 -0.316727501 171.776913151
2808100000.0 -0.372543803 164.754771941
2814000000.0 -0.430840485 157.843614016
2819900000.0 -0.478431874 151.028147510
2825800000.0 -0.519915101 144.027040646
2831700000.0 -0.537315936 137.349307352
2837600000.0 -0.567599453 130.458559288
2843500000.0 -0.605155065 123.670409102
2849400000.0 -0.644905230 116.789195896
2855300000.0 -0.642728170 110.172124272
2861200000.0 -0.665266416 103.159676223
2867100000.0 -0.694235259 96.561528025
2873000000.0 -0.707064533 89.739121045
2878900000.0 -0.727346026 83.070795417
2884800000.0 -0.746374100 76.231233005
2890700000.0 -0.754757933 69.597680842
2896600000.0 -0.732264624 62.825041593
2902500000.0 -0.757003080 56.259656397
2908400000.0 -0.753904611 49.479802860
2914300000.0 -0.743645722 42.780825972
2920200000.0 -0.747882580 35.874038188
2926100000.0 -0.740103505 29.324277031
2932000000.0 -0.728857011 22.768916991
2937900000.0 -0.719379391 16.023809977
2943800000.0 -0.713633791 9.289217984
2949700000.0 -0.691876137 2.788185821
2955600000.0 -0.674252716 -3.874009060
2961500000.0 -0.650186454 -10.369468950
2967400000.0 -0.630804459 -17.000669359
2973300000.0 -0.610755310 -23.523162668
2979200000.0 -0.592058378 -30.210748523
2985100000.0 -0.555381427 -36.680538417
2991000000.0 -0.526241155 -43.341022003
2996900000.0 -0.496121038 -49.915864275
3002800000.0 -0.447236624 -56.513037678
3008700000.0 -0.400345322 -63.065371487
3014600000.0 -0.353444224 -69.537805283
3020500000.0 -0.310734967 -76.127037296
3026400000.0 -0.239060490 -82.641617451
3032300000.0 -0.184239222 -89.201934261
3038200000.0 -0.135125294 -95.773184790
3044100000.0 -0.087838766 -102.506470195
3050000000.0 -0.000924650 -109.064911870
3055900000.0 0.042824922 -115.810501981
3061800000.0 0.115943318 -122.393280812
3067700000.0 0.169808499 -129.255380031
3073600000.0 0.235372870 -135.965218109
3079500000.0 0.303605891 -142.738364802
3085400000.0 0.366365402 -149.552550897
3091300000.0 0.401766819 -156.375818392
3097200000.0 0.460905347 -163.215589967
3103100000.0 0.503204391 -170.143211391
3109000000.0 0.538131509 -177.050244288
3114900000.0 0.586015356 176.033170947
3120800000.0 0.619910129 169.004913586
3126700000.0 0.658292839 162.063903394
3132600000.0 0.658726704 155.061072790
