!Created with skrf (http://scikit-rf.org).
# MHz S RI R 50.0 
!freq ReS11 ImS11
100.0 0.31161392727232856 1.110390027376116
105.89999999999999 0.4457586298716128 1.0686914078205962
111.8 0.758857381384244 0.925440294322788
117.69999999999999 0.857731327343383 0.8271648690858083
123.6 0.9478736482914282 0.7198744415817924
129.5 1.021856960794814 0.6044847707978059
135.4 1.0860988487599808 0.47796570273291167
141.29999999999998 1.132419209918765 0.34668426629383786
147.2 1.1615345649415678 0.2107672121195766
153.1 1.1764711626589095 0.0730450873382329
159.0 1.1761189349853034 -0.06713588236533827
164.9 1.158781024494431 -0.2073633546803499
170.79999999999998 1.1220979629434185 -0.3415309709020773
176.7 1.07072829720556 -0.4727470970304134
182.6 1.0067659592783664 -0.5971142967910449
188.5 0.9260287704549097 -0.7111436076345583
194.39999999999998 0.8349740747762378 -0.8161730459874843
200.29999999999998 0.7270913519732848 -0.9078860392698155
206.2 0.6126866868916698 -0.986742172173262
212.1 0.4893561224670063 -1.0510652491174115
218.0 0.3588246918524258 -1.0990823981966384
223.89999999999998 0.22253156088660944 -1.1305605470818347
229.79999999999998 0.08201895165294976 -1.1484872288739787
235.7 -0.056866685318011805 -1.1480638071008515
241.6 -0.19534169320016417 -1.1292216423292938
247.5 -0.32964449503877075 -1.0943086354886946
253.39999999999998 -0.45892418366090854 -1.0431415878220769
259.3 -0.5781656835267699 -0.9790301160831218
265.2 -0.6939443162858416 -0.8996120800982064
271.09999999999997 -0.7952351536215325 -0.8045995924679636
277.0 -0.8860821574990946 -0.7019500531637239
282.9 -0.9620139695818672 -0.5900411908019318
288.8 -1.0223345522562128 -0.4681135456601694
294.7 -1.0708055581300522 -0.34489050867089577
300.59999999999997 -1.1027205400359819 -0.21460452837299535
306.5 -1.1145912355735856 -0.08011058835159987
312.4 -1.1176118417208178 0.055097465415800226
318.3 -1.1023749163275185 0.1867884299306081
324.2 -1.0705086504655152 0.3147909380974661
330.09999999999997 -1.0261653957371895 0.4404326541378656
336.0 -0.9656089343332606 0.5596966188851228
341.9 -0.8920978139838712 0.6702664843116328
347.8 -0.8049151704751606 0.7718529737848566
353.7 -0.7078468144449158 0.8651745344045486
359.59999999999997 -0.6012473791020702 0.945843860417976
365.5 -0.4865836465438372 1.0125671120682964
371.4 -0.36613388512795353 1.0639815577134002
377.29999999999995 -0.23613888384543982 1.1007173559438026
383.2 -0.1025603247326757 1.1226103949088595
389.09999999999997 0.02975412065290314 1.1283315351340737
395.0 0.1677240719640093 1.1211066814296722
400.9 0.299005302674789 1.0926854223819937
406.79999999999995 0.4251070152586171 1.0493581336914783
412.7 0.5509245755118996 0.9938105073129389
418.59999999999997 0.6681350635219603 0.9230804312809411
424.5 0.7713361062591738 0.8369199067416708
430.4 0.8655420781151641 0.7384227515246361
436.29999999999995 0.9492655350343377 0.6271164378582331
442.2 1.0172274788881703 0.5121023592942907
448.09999999999997 1.0718531757234222 0.3879665012352927
454.0 1.1117021470482709 0.2581339813915399
459.9 1.135194927302081 0.12490545964605629
465.79999999999995 1.1423696299671695 -0.009906024972642402
471.7 1.1326483403029646 -0.147295652904678
477.59999999999997 1.108860853845689 -0.27839586726656124
483.5 1.0668618160968557 -0.4032501333220077
489.4 1.0086872852378708 -0.5266309478964549
495.29999999999995 0.9421879514191566 -0.6409745795467121
501.2 0.8592546362077725 -0.7453843649929702
507.09999999999997 0.7641302576552705 -0.8404254083471342
513.0 0.6625177601667163 -0.9242528314093178
518.9 0.5494800381994907 -0.9898998569820183
524.8 0.4331432682719507 -1.048187428475403
530.6999999999999 0.30889504924813976 -1.0914471688029672
536.6 0.18282526720992087 -1.1176382684175987
542.5 0.05375711808776818 -1.1331918309598372
548.4 -0.07505441394393757 -1.1354351318194613
554.3 -0.20639690809435673 -1.1174382968856678
560.1999999999999 -0.33212602041034195 -1.0878299200391508
566.1 -0.4547056334604021 -1.0450585672425163
572.0 -0.5726970143535323 -0.9879584102620252
577.9 -0.6838889158099366 -0.916054146489879
583.8 -0.7867324206402662 -0.837191696470086
589.6999999999999 -0.8795495331456061 -0.7401225487309201
595.6 -0.9637902961157664 -0.6375441014563008
601.5 -1.0342933452035679 -0.5255581021353044
607.4 -1.0944336077250227 -0.40081426447778784
613.3 -1.1394508444359042 -0.2723477075549913
619.1999999999999 -1.168303264083583 -0.13724858754543773
625.1 -1.1804534070175328 0.003932722810736274
631.0 -1.1758515643260148 0.14535503334963312
636.9 -1.1536649842981155 0.28615589303928124
642.8 -1.1168746188325847 0.42697485310453415
648.6999999999999 -1.0581847312294834 0.558203685592088
654.6 -0.9834840333686212 0.685747764391065
660.5 -0.8979029386226084 0.8049063807079778
666.4 -0.7938912897626728 0.9113073878284934
672.3 -0.6749834988433928 1.0056170140155993
678.1999999999999 -0.5463065759020012 1.0811633613901246
684.1 -0.40725930199498805 1.1399265230558342
690.0 -0.26320472575396275 1.1793230571368423
695.9 -0.1148165857103583 1.2012592863922003
701.8 0.03707942306410103 1.2056241950910975
707.6999999999999 0.18455249206912183 1.1851768436047845
713.6 0.3306681692727182 1.1476617927911605
719.5 0.46788374985050046 1.0945949447628067
725.4 0.5989559594410795 1.0219411765601119
731.3 0.7155247132748552 0.9369563092300941
737.1999999999999 0.8199159057127526 0.8386222020832853
743.1 0.9137702435563791 0.729369158985015
749.0 0.9925110314543758 0.6091955715072858
754.9 1.054224459870599 0.4775282998120406
760.8 1.1013024686094328 0.3457826522803784
766.6999999999999 1.1306366612522596 0.20900790688468346
772.5999999999999 1.143497839467966 0.07059653957629491
778.5 1.1381261656131538 -0.06585061566815469
784.4 1.119663865604437 -0.20223334730661965
790.3 1.0858615347233924 -0.3347277902076038
796.1999999999999 1.035058730039398 -0.4611162613775435
802.0999999999999 0.9696304858430762 -0.5826560581401372
808.0 0.8915810307575429 -0.6937558907751736
813.9 0.7993903776249596 -0.7960364831852849
819.8 0.6982126466217609 -0.8888755027789349
825.6999999999999 0.5862507808639635 -0.9673087552477811
831.5999999999999 0.46613848253531087 -1.0300951641557188
837.5 0.33745877847615563 -1.0834839265429408
843.4 0.20366182202226396 -1.1163321837310682
849.3 0.06761548198071074 -1.1354175477922452
855.1999999999999 -0.07114623548931301 -1.1346835069053622
861.0999999999999 -0.2120130037184893 -1.119137165168922
867.0 -0.35066928840021183 -1.0867641190629993
872.9 -0.4821025264638098 -1.034386496272427
878.8 -0.6055467127623864 -0.9711458771451644
884.6999999999999 -0.7243839191171769 -0.8872578542654832
890.5999999999999 -0.8309252838909997 -0.7884625959369645
896.5 -0.9223107696808243 -0.6783876936485304
902.4 -1.0005256057152612 -0.5572899931553701
908.3 -1.0605972126562186 -0.42670150203151996
914.1999999999999 -1.0998429344970446 -0.2920594160840243
920.0999999999999 -1.124202246704809 -0.15254013724251073
926.0 -1.131003680435645 -0.012208813140281742
931.9 -1.1207659766445794 0.12644163113644522
937.8 -1.0917788742660637 0.26221565800346247
943.6999999999999 -1.0476525267499894 0.3905197953447865
949.5999999999999 -0.9863121036798428 0.5121807596886772
955.5 -0.9118355606050341 0.6240758697433335
961.4 -0.8268597596403329 0.7254802932161283
967.3 -0.7308468525744019 0.8126987312475391
973.1999999999999 -0.625286785700214 0.8895474776886901
979.0999999999999 -0.5146032524732552 0.952344193505426
985.0 -0.4009013186669642 1.0005097196196893
990.9 -0.2804999643120834 1.0365525167615173
996.8 -0.15842722723735075 1.055057189996581
1002.6999999999999 -0.03878475834792891 1.0630603682696098
1008.5999999999999 0.08040364284985435 1.0587071703603597
1014.5 0.19830540045754866 1.0386583170373898
1020.4 0.3114566922327676 1.0085631457058915
1026.3 0.42071271679332206 0.9654089814370929
1032.2 0.5262503108820021 0.9147435542435807
1038.1 0.6229655494297631 0.8492932270301774
1044.0 0.7111532162267026 0.775904421799849
1049.8999999999999 0.7940630554807645 0.6924327437259068
1055.8 0.867320803811218 0.6034757434641204
1061.7 0.9292223599444003 0.5057717842658412
1067.6 0.9824107832174338 0.40084124946051125
1073.5 1.0255217938977497 0.2892850568085622
1079.3999999999999 1.0543925082497487 0.17513429768896052
1085.3 1.0723061285831053 0.05637500977271511
1091.2 1.0803135595714601 -0.06246319577523556
1097.1 1.070578443665513 -0.18559091077889114
1103.0 1.0481583288942227 -0.3059631690369864
1108.8999999999999 1.0142874073131485 -0.4238786021445272
1114.8 0.9648214849573722 -0.5415190107578157
1120.7 0.9001975354469854 -0.6503918214254839
1126.6 0.8251206742986107 -0.7542748850499456
1132.5 0.7367754013948588 -0.8469084634640266
1138.3999999999999 0.6359481704519843 -0.9298201810172816
1144.3 0.5251724488542078 -1.0012956364338137
1150.2 0.40512223010417825 -1.059725296150305
1156.1 0.2810777150506106 -1.1058639711399938
1162.0 0.14985838387164732 -1.1342880152489372
1167.8999999999999 0.016450986100039977 -1.1461365622658484
1173.8 -0.12009675389728222 -1.14593333581634
1179.7 -0.2544828091709594 -1.1243778820046906
1185.6 -0.3861267013129841 -1.090471052109287
1191.5 -0.511864989857777 -1.0393168136522164
1197.3999999999999 -0.6289800389029103 -0.9754833305440661
1203.3 -0.7430423990164674 -0.8920659741793823
1209.2 -0.8446152976555562 -0.8010906499787737
1215.1 -0.9328381596171357 -0.6965567693452762
1221.0 -1.0134757462166348 -0.5819846137690139
1226.8999999999999 -1.0774655463918477 -0.4584144818124841
1232.8 -1.1198218502825446 -0.3217735398008246
1238.7 -1.1506247765753292 -0.18708119355886982
1244.6 -1.16666208555498 -0.04822902868925527
1250.5 -1.1647164730809498 0.08964450694110837
1256.3999999999999 -1.1463697245549722 0.23035489250638003
1262.3 -1.1106226284232388 0.3664419839967966
1268.2 -1.060844674319241 0.49992538840319384
1274.1 -0.9919826640579269 0.6252767794241668
1280.0 -0.909971460428248 0.7420783344891894
1285.8999999999999 -0.812899371416555 0.8476852876013516
1291.8 -0.7018704592561475 0.9415089627731302
1297.7 -0.5813764418236399 1.0194501142205827
1303.6 -0.45374467738365265 1.084983791749442
1309.5 -0.31411024162534856 1.12991045386389
1315.3999999999999 -0.1716536623509836 1.159936720908896
1321.3 -0.026371573419271745 1.168734657339664
1327.2 0.11943064423160939 1.159359576195048
1333.1 0.2627824335335012 1.1320813827625085
1339.0 0.39986053894577583 1.0877900759508798
1344.8999999999999 0.5295050323251553 1.024864368989391
1350.8 0.6490803097049224 0.9475810394081524
1356.7 0.7574552761699591 0.8524585637484335
1362.6 0.8527396323227783 0.7502204161119445
1368.5 0.9340111824065335 0.6354419354302314
1374.3999999999999 1.0002290418752569 0.5112985659303205
1380.3 1.0494567811740492 0.38233925218475506
1386.2 1.0822972340423909 0.24984905068969232
1392.1 1.093037284534044 0.11777426793927745
1398.0 1.094815496252198 -0.01298212674991931
1403.8999999999999 1.0789098861875026 -0.1471664961969226
1409.8 1.0465236631495805 -0.27345976228717744
1415.7 1.003259988331589 -0.39646358452994945
1421.6 0.9424780280356598 -0.5080715493102608
1427.5 0.8703419656644799 -0.6163155998331377
1433.3999999999999 0.7881074148830487 -0.713696095020893
1439.3 0.6955681551419083 -0.798483035296454
1445.2 0.5952428219994687 -0.87576891192743
1451.1 0.48670078418018653 -0.9362784818775438
1457.0 0.3713350406721791 -0.9855735099563456
1462.8999999999999 0.24902418250780445 -1.0229425512772399
1468.8 0.1274650556554806 -1.0497529853594805
1474.7 -0.0005807844436753339 -1.0543366967512964
1480.6 -0.12754240322517274 -1.0504442686644775
1486.5 -0.2531852610204652 -1.0319503583841159
1492.3999999999999 -0.3753625576541074 -0.9931735466729756
1498.3 -0.4961967930210518 -0.9445918749000024
1504.2 -0.6061295529306255 -0.8767334572719996
1510.1 -0.7080552269299769 -0.798521216358091
1516.0 -0.8020339475887628 -0.708871486558838
1521.8999999999999 -0.8846529542716542 -0.6032038475660324
1527.8 -0.9555596632317891 -0.49083438830587783
1533.6999999999998 -1.006430235127573 -0.36910555259457467
1539.6 -1.0426244231871291 -0.24282907740281834
1545.5 -1.0674802738541336 -0.11192807026503829
1551.3999999999999 -1.0744070187662556 0.0223972174625334
1557.3 -1.0592532810698443 0.15459725146447428
1563.1999999999998 -1.0294683838345606 0.28534239203799144
1569.1 -0.982428415986553 0.40535175681164376
1575.0 -0.9245827848395858 0.5200700305549822
1580.8999999999999 -0.8509275631673265 0.6268916518478289
1586.8 -0.7677121666023936 0.7189204699393481
1592.6999999999998 -0.672166321637741 0.7998078370698891
1598.6 -0.5703933130737264 0.8704581389939156
1604.5 -0.4607403521955904 0.9270551353139623
1610.3999999999999 -0.34859656762834323 0.9679138315359558
1616.3 -0.234102181333845 0.9973999951727339
1622.1999999999998 -0.12019492186518149 1.0131124613497113
1628.1 -0.004312058705860194 1.014532419763147
1634.0 0.10941679231088533 1.0054424600392142
1639.8999999999999 0.2201068562084658 0.9840618433997417
1645.8 0.32695353096723695 0.9516829114282037
1651.6999999999998 0.42908576540054233 0.9076527488235396
1657.6 0.5259889646307119 0.8565054195227783
1663.5 0.6174825949934396 0.7932064250194527
1669.3999999999999 0.7001321579980546 0.721029695083382
1675.3 0.7780216620091405 0.6424509636144259
1681.1999999999998 0.8442338491233793 0.5573946754042817
1687.1 0.9054004887801723 0.4622492032545448
1693.0 0.9555159121036654 0.36091141696808554
1698.8999999999999 0.9949176562531797 0.2560230741634623
1704.8 1.0251447429916944 0.14458337217141945
1710.6999999999998 1.0382558869707248 0.0291167079672363
1716.6 1.041999666705213 -0.08698958268823352
1722.5 1.0327567838826222 -0.20996859944638996
1728.3999999999999 1.0108728424576499 -0.32596623219806176
1734.3 0.9752147180776146 -0.4453426466601854
1740.1999999999998 0.9267147373814805 -0.5611834809013094
1746.1 0.858839879868362 -0.6718355566210058
1752.0 0.7763135391785091 -0.7748361657089659
1757.8999999999999 0.6832904462776569 -0.8714309341475908
1763.8 0.5764657719753659 -0.9568065752899476
1769.6999999999998 0.4594109445989968 -1.0283382309942681
1775.6 0.3338352075729424 -1.0845153111381554
1781.5 0.19750627993630315 -1.1182530856315747
1787.3999999999999 0.05395701275380584 -1.1338655110705227
1793.3 -0.0857966352450901 -1.134023011443135
1799.1999999999998 -0.22447060011562975 -1.1171673467518553
1805.1 -0.362181988436749 -1.073822726582815
1811.0 -0.48836957276660303 -1.0198516143892173
1816.8999999999999 -0.6105922836418334 -0.9404873711673652
1822.8 -0.7219050391424053 -0.85625400456631
1828.6999999999998 -0.8147626040425665 -0.7592235770072996
1834.6 -0.9019031520047753 -0.6604084337943695
1840.5 -0.9589970214120643 -0.5376669803137661
1846.3999999999999 -1.0116388732763704 -0.41801518214937833
1852.3 -1.0454241236030737 -0.2930047446067626
1858.1999999999998 -1.0658740000086444 -0.16992081909506807
1864.1 -1.0736945617055054 -0.04413176251043656
1870.0 -1.0583914510875656 0.07937011798443545
1875.8999999999999 -1.0354967597411575 0.20128767095788574
1881.8 -0.9991003236026212 0.3142243341474627
1887.6999999999998 -0.9538399870114167 0.4216819833533528
1893.6 -0.8959918842426758 0.5270674716839429
1899.5 -0.8287266773460027 0.6178720587951082
1905.3999999999999 -0.7532835163482635 0.7077135930044891
1911.3 -0.6689583608208397 0.7866146418145892
1917.1999999999998 -0.5760615462032852 0.8557230374712387
1923.1 -0.4758252414709235 0.9151876641100195
1929.0 -0.37345660919989376 0.9658128462816461
1934.8999999999999 -0.26136362032027255 1.004016158215764
1940.8 -0.14606707713518094 1.0319605433028993
1946.6999999999998 -0.027383327324462216 1.046906676680602
1952.6 0.09471670112164977 1.0473631567912403
1958.5 0.2204539486890854 1.0371951237323884
1964.3999999999999 0.3430552395841479 1.0079811621065116
1970.3 0.4639559580853017 0.9666490161597112
1976.1999999999998 0.5828967766388189 0.9064040106744807
1982.1 0.6918135142247835 0.8337839856845809
1988.0 0.7962113526339297 0.7479503475280345
1993.8999999999999 0.8874864022006588 0.6447351840488532
1999.8 0.9662525291282564 0.5280751220321193
2005.6999999999998 1.0291253892047956 0.40341909776944795
2011.6 1.0777073389874283 0.2679487172978731
2017.5 1.101653653641927 0.12573739948026802
2023.3999999999999 1.1092587212275051 -0.017512446185287817
2029.3 1.092436115189236 -0.1600117620056074
2035.1999999999998 1.0620911791633225 -0.3013363567517064
2041.1 1.0091662846904101 -0.4315039283986367
2047.0 0.9403159299876119 -0.55540687012288
2052.9 0.8544827097475217 -0.6613723126823629
2058.7999999999997 0.7592764353449558 -0.7600768400137186
2064.7 0.6531037016988821 -0.8413104960874342
2070.6 0.5399233468799958 -0.9077647538911603
2076.5 0.4199602639871825 -0.9538200134153701
2082.4 0.29988647630679466 -0.9902612915670138
2088.2999999999997 0.17594911113672998 -1.0109098637431635
2094.2 0.0549693817797037 -1.0154871420369889
2100.1 -0.06531687088936389 -1.009740617440791
2106.0 -0.1792017112976249 -0.9884957948962546
2111.9 -0.2902617889906139 -0.9542639632829336
2117.7999999999997 -0.3941200204552136 -0.9092445642184334
2123.7 -0.495408270621147 -0.8560168990472756
2129.6 -0.5872922295036871 -0.7946639907555786
2135.5 -0.6736299403575384 -0.7222993391133458
2141.4 -0.7512401382151473 -0.6368976100705006
2147.2999999999997 -0.8190934863609665 -0.5499128733324622
2153.2 -0.8767690033452084 -0.45270858848811646
2159.1 -0.9274430173947819 -0.353342308512115
2165.0 -0.9661349196406146 -0.2422840280422685
2170.9 -0.9931741314977229 -0.12928969985067526
2176.7999999999997 -1.0077725648634808 -0.012966616835953458
2182.7 -1.009291714541239 0.10622212607377471
2188.6 -0.9973726493053178 0.22926491156492584
2194.5 -0.971028984188504 0.34661175271456496
2200.4 -0.9260377655016179 0.46712758065255333
2206.2999999999997 -0.8692212558765222 0.580116136143321
2212.2 -0.7978172332498428 0.6909361029157888
2218.1 -0.7096294957437159 0.7894599279749291
2224.0 -0.6045596910601867 0.8809128604242406
2229.9 -0.4944572931471615 0.9530681567928867
2235.7999999999997 -0.3699727617846087 1.0134650008074357
2241.7 -0.23985861852591545 1.0559315469438237
2247.6 -0.09910270550962207 1.0775312860725295
2253.5 0.03844108060078135 1.0833111020614803
2259.4 0.17757606611636673 1.07041010299494
2265.2999999999997 0.31279209566863697 1.0318473366523844
2271.2 0.4400751638464647 0.9834093892496484
2277.1 0.5584538468852076 0.9171687347594293
2283.0 0.6647332264651404 0.8333082745952035
2288.9 0.7561111051927738 0.7379348754482418
2294.7999999999997 0.8357226118279931 0.6370688846764028
2300.7 0.9001054187753705 0.5270766220069378
2306.6 0.9478817084151597 0.41044340109231664
2312.5 0.9816380150870933 0.2948651370528981
2318.4 1.0011888951317354 0.17512359809222627
2324.2999999999997 1.0081810120590338 0.05799800565955087
2330.2 1.0004271804067746 -0.057948090027312577
2336.1 0.9817265537454006 -0.1696050233750631
2342.0 0.9532861073383947 -0.27628152996419164
2347.9 0.911437460638985 -0.3817386732801109
2353.7999999999997 0.8616086734874006 -0.4748171851856374
2359.7 0.8021769101383244 -0.5665375618566331
2365.6 0.7334343029638226 -0.6491096779072167
2371.5 0.6593811239511884 -0.724866517354642
2377.4 0.5760023000671911 -0.7920237388093131
2383.2999999999997 0.4885488644389596 -0.8524021420296326
2389.2 0.39179125957860084 -0.901216080318872
2395.1 0.2918070181231187 -0.941174695296697
2401.0 0.18725031012471377 -0.9719017928179173
2406.9 0.07870875588801708 -0.9925181274098499
2412.7999999999997 -0.0325800870581249 -1.0026495654177683
2418.7 -0.14467482599424591 -0.9985196586737677
2424.6 -0.2589894402988755 -0.9813935244447453
2430.5 -0.37195010730630856 -0.95369988567228
2436.4 -0.48182454310782974 -0.9118598744612717
2442.2999999999997 -0.5887254988086841 -0.8563694475939827
2448.2 -0.6916522665760862 -0.7870243173590512
2454.1 -0.7843139105252654 -0.7056185180760395
2460.0 -0.8678500727456929 -0.6120544920653057
2465.9 -0.9401190053899013 -0.5065163086964867
2471.7999999999997 -0.999437348022974 -0.3908611114965287
2477.7 -1.0465259604299184 -0.26872060069771236
