!Created with skrf (http://scikit-rf.org).
# MHz S RI R 50.0 
!freq ReS11 ImS11
100.0 -0.26558103857103066 -1.1187786396059334
105.89999999999999 -0.3939455354449881 -1.078161948311047
111.8 -0.6932643290153472 -0.8325045278743858
117.69999999999999 -0.7923041824650071 -0.74366620653409
123.6 -0.8824134495670299 -0.6437271634190838
129.5 -0.9583571290659209 -0.5323538032419826
135.4 -1.0198331827361051 -0.41431883304671074
141.29999999999998 -1.0657253755656555 -0.2882498427411236
147.2 -1.098074658575494 -0.15552553061770616
153.1 -1.1106393800651309 -0.02342787692954066
159.0 -1.109682475291926 0.11242588260009213
164.9 -1.090223175757635 0.2467641106206511
170.79999999999998 -1.0569885906681857 0.3775274477967894
176.7 -1.0067076037016325 0.5030929455640247
182.6 -0.940626233698902 0.62287976385337
188.5 -0.8619119301122655 0.7318214438693732
194.39999999999998 -0.7712350832158219 0.8306543694905959
200.29999999999998 -0.6686959113150294 0.9218819145126856
206.2 -0.5553461722905983 0.9984082853121038
212.1 -0.4362467550175425 1.0604054128183382
218.0 -0.3089027026078984 1.1075374802301086
223.89999999999998 -0.17506076589521088 1.139548204488596
229.79999999999998 -0.039703955347958106 1.1563371897976962
235.7 0.10087237528729186 1.1549021853520647
241.6 0.23889564381864495 1.1386802291249996
247.5 0.3757562673072139 1.1064062849308502
253.39999999999998 0.507639200108525 1.0601023723028578
259.3 0.632123308885711 0.9908213871807546
265.2 0.7468541930779932 0.9146590024797343
271.09999999999997 0.8573483727111831 0.8176056539917762
277.0 0.9514580390640459 0.7123720506382009
282.9 1.032226927883342 0.5942061658890849
288.8 1.0995880698192477 0.4678252008788498
294.7 1.150441966775419 0.3338730880249325
300.59999999999997 1.1875301145173724 0.19104530881099735
306.5 1.2016590209476548 0.0464603254367328
312.4 1.1997529007060659 -0.10179235552260747
318.3 1.1795238159580397 -0.24621981265986528
324.2 1.1405109896757228 -0.3892616752678561
330.09999999999997 1.0849763926601284 -0.5251466223340209
336.0 1.011762333825903 -0.6546706439449119
341.9 0.9240564969449759 -0.7710675243682001
347.8 0.8222187950260708 -0.8763550543712729
353.7 0.7062014656614242 -0.9704210414474532
359.59999999999997 0.5834791924437488 -1.0479936000026433
365.5 0.45095153534274995 -1.1084544255502655
371.4 0.31256765762221106 -1.1530033607005672
377.29999999999995 0.1698973817005031 -1.179221134017235
383.2 0.024034430119387 -1.1877173118369502
389.09999999999997 -0.11960915447603046 -1.1788104626085472
395.0 -0.26203166663306354 -1.1511781941561554
400.9 -0.3959619050270654 -1.1082343281235534
406.79999999999995 -0.5265753660507108 -1.0491766691579385
412.7 -0.6460722572406925 -0.9734338647497643
418.59999999999997 -0.7571676437046295 -0.8849504192863549
424.5 -0.8554143993321541 -0.7841307039275482
430.4 -0.9373714548247929 -0.6722809561129911
436.29999999999995 -1.010470155291566 -0.5537840717214868
442.2 -1.065409167530393 -0.42455171422930166
448.09999999999997 -1.1073362887599256 -0.29440449199569885
454.0 -1.1328149689977693 -0.15774684372151235
459.9 -1.1389591976841076 -0.02163751221185338
465.79999999999995 -1.1319135040192447 0.11779586215375489
471.7 -1.1086632311690126 0.2541885986177603
477.59999999999997 -1.0676836434740304 0.3856697518605169
483.5 -1.0134412496736405 0.5140742959741317
489.4 -0.9421624580802173 0.6330886037457565
495.29999999999995 -0.8562270000330362 0.7416883295368569
501.2 -0.7598667017333525 0.8394047306392738
507.09999999999997 -0.6478294467698461 0.9287071389773279
513.0 -0.5283390174464806 0.9994081334625958
518.9 -0.40038946051296653 1.0542138544829307
524.8 -0.26675607972126364 1.0962323046544853
530.6999999999999 -0.12891330601990786 1.119118235000729
536.6 0.010651009903661706 1.1276780021383297
542.5 0.14881223899118212 1.1161061982392402
548.4 0.28412559560689943 1.0867665659099213
554.3 0.41763583205018384 1.0388801819103077
560.1999999999999 0.5422796625284904 0.9796371320946126
566.1 0.6577194918204469 0.902758172467366
572.0 0.7636612331319645 0.8124301444616886
577.9 0.8544926595698906 0.7093110153395272
583.8 0.9343229109955542 0.5998250535656994
589.6999999999999 0.9967107342704326 0.48066881382265203
595.6 1.0414896459956684 0.35587623957931824
601.5 1.0752468340681274 0.22649113399420434
607.4 1.0911054039036918 0.09547725014659415
613.3 1.0937230100538358 -0.0355957168151106
619.1999999999999 1.0802354521377233 -0.16665553036288364
625.1 1.0486040633054314 -0.29307621957953145
631.0 1.0049232689286283 -0.41215198543743553
636.9 0.9502817989639732 -0.5291793055021021
642.8 0.8802000717280662 -0.6359185683141468
648.6999999999999 0.799325662401137 -0.7351198932581926
654.6 0.7058633968785667 -0.8198538565594397
660.5 0.6080130348849273 -0.8986087232025178
666.4 0.4997787507731672 -0.9657980334473222
672.3 0.38671776201597885 -1.018494212996805
678.1999999999999 0.2633660362759225 -1.057371144023404
684.1 0.13965890988811916 -1.083390496854282
690.0 0.011373561071771909 -1.0978446790076908
695.9 -0.11315877644394548 -1.0971178380149453
701.8 -0.24284769057436403 -1.0799749732061676
707.6999999999999 -0.366185220719572 -1.0489848554118881
713.6 -0.4898810271844507 -1.0044361642667021
719.5 -0.6046999953053008 -0.9443437525942158
725.4 -0.7177033103424753 -0.8722232560893096
731.3 -0.8210132257692399 -0.7860948780229186
737.1999999999999 -0.9122985784219554 -0.687448692795286
743.1 -0.9940893066162667 -0.5771846452941913
749.0 -1.064556770886466 -0.4557045877910273
754.9 -1.1133173313589495 -0.32377992912789944
760.8 -1.148224130102021 -0.18737115447780145
766.6999999999999 -1.1691315829598308 -0.045161415654573
772.5999999999999 -1.1708216900773618 0.09628992512534185
778.5 -1.1537808951428088 0.238642389072864
784.4 -1.1192247662312653 0.3772090031058278
790.3 -1.0665489075079178 0.511340524914689
796.1999999999999 -0.9966172192455088 0.6394587906360734
802.0999999999999 -0.911089647306715 0.7555447648819912
808.0 -0.8125939380758432 0.8609226533368843
813.9 -0.6981472265469196 0.9527814850992078
819.8 -0.5782673271462171 1.0285503871037598
825.6999999999999 -0.44699944902705063 1.0890064666590609
831.5999999999999 -0.3116468750829296 1.1332164998746108
837.5 -0.17317550626312242 1.1580830507374706
843.4 -0.031477185388910756 1.1664855656248239
849.3 0.10404226043401042 1.155784594562106
855.1999999999999 0.23985647961407375 1.1353503498850228
861.0999999999999 0.3695246370431179 1.0921324200912936
867.0 0.49344086125693987 1.0368670831508986
872.9 0.6077305836328152 0.9645845266762317
878.8 0.711737919952365 0.8860404525475449
884.6999999999999 0.8059134633665892 0.7937082083812536
890.5999999999999 0.8903992939878236 0.6930900918525474
896.5 0.9623039815658165 0.5833885823429134
902.4 1.0206636223265615 0.46740723215493035
908.3 1.0681924764953163 0.346408297046545
914.1999999999999 1.0920998264193245 0.22037357990077183
920.0999999999999 1.108897354644949 0.09277904704754064
926.0 1.1133276512341888 -0.03708229380233545
931.9 1.1003040482602673 -0.16515200907119246
937.8 1.0734204204436784 -0.2915295822675896
943.6999999999999 1.0331840454005339 -0.4138254821274139
949.5999999999999 0.97767707552712 -0.533940305434659
955.5 0.9090965520316812 -0.6467853103593486
961.4 0.828038351719599 -0.7492495796488989
967.3 0.7333653045810089 -0.8457920635176261
973.1999999999999 0.6289299728953236 -0.9269210960988824
979.0999999999999 0.5120840523383993 -1.000249243306712
985.0 0.3875041566036671 -1.0582720147563593
990.9 0.2561929311947799 -1.0977023549038893
996.8 0.12020538812004314 -1.1250433739294619
1002.6999999999999 -0.01957996260101398 -1.1313021780847392
1008.5999999999999 -0.15967036285941108 -1.1219054998083438
1014.5 -0.2995060315856535 -1.0935598463005045
1020.4 -0.43323785547268595 -1.04714704269511
1026.3 -0.5614350916414145 -0.9852841630037052
1032.2 -0.6785385960670146 -0.9055272568770795
1038.1 -0.785545432285061 -0.8087666963655656
1044.0 -0.8801725088392635 -0.7029073624932586
1049.8999999999999 -0.9614741756497738 -0.5862151168361048
1055.8 -1.022605875924577 -0.45994628983992725
1061.7 -1.0711363143312536 -0.3264953877941617
1067.6 -1.100670536504856 -0.18955620619237915
1073.5 -1.1126390178404748 -0.051118060049798845
1079.3999999999999 -1.1055379586773109 0.0860682752698681
1085.3 -1.0825624746974545 0.22302761914169958
1091.2 -1.0423862084252538 0.3539491910496893
1097.1 -0.9875860706306748 0.4753687747129695
1103.0 -0.9177164380282512 0.5901333237213535
1108.8999999999999 -0.8367760917853359 0.6964297066569258
1114.8 -0.7432425925173901 0.7915728813439165
1120.7 -0.640422713062247 0.8719171221528341
1126.6 -0.528833882127983 0.9438417002335607
1132.5 -0.4087691674845817 0.9964995286890255
1138.3999999999999 -0.28494223827908555 1.0361724354436532
1144.3 -0.15603770957963164 1.0622586623422354
1150.2 -0.02591805703969246 1.071949471582924
1156.1 0.10205451244301442 1.070024483726915
1162.0 0.23108903489440485 1.0502171911784444
1167.8999999999999 0.3554137204081427 1.014005827503354
1173.8 0.47601228074677876 0.9644101406910243
1179.7 0.5934611472778865 0.9016442550062067
1185.6 0.697514788618837 0.8255341833024767
1191.5 0.7967557474023532 0.7358264326021537
1197.3999999999999 0.8797603312805266 0.6348100654819495
1203.3 0.9518093413231062 0.5223926902538075
1209.2 1.008374787451886 0.40448092935927954
1215.1 1.053671035275825 0.27902885448144527
1221.0 1.0814411674505502 0.1496493744314356
1226.8999999999999 1.0933258921933775 0.017484537316627274
1232.8 1.0815464528637804 -0.12063951351999186
1238.7 1.062491428115129 -0.2491640663673485
1244.6 1.0232934732838246 -0.3780556362070914
1250.5 0.9720852223048958 -0.4980347661681771
1256.3999999999999 0.9050525963197139 -0.6116039015457699
1262.3 0.8256753900913163 -0.7150441645678282
1268.2 0.732524963910752 -0.8115690956163505
1274.1 0.6292050088370786 -0.8907196698380087
1280.0 0.5194699772673821 -0.9590197854621906
1285.8999999999999 0.4021598339499211 -1.0164934252371836
1291.8 0.27791544797362533 -1.054401362638526
1297.7 0.15285827884218087 -1.0808275903160771
1303.6 0.025280432635442444 -1.0897704217453197
1309.5 -0.10368340227240037 -1.08674865144232
1315.3999999999999 -0.231174683921961 -1.06535307285895
1321.3 -0.3542963546053999 -1.031408275921026
1327.2 -0.47414649464462083 -0.9841377961540823
1333.1 -0.5846230453979969 -0.9244489585028418
1339.0 -0.6902958247941948 -0.8520885345232675
1344.8999999999999 -0.7864377380403685 -0.7647090415195614
1350.8 -0.8707976651468783 -0.6687151587925863
1356.7 -0.9467445665729398 -0.5661740762416939
1362.6 -1.0074223810799385 -0.4503802804812223
1368.5 -1.0565138053678564 -0.3299758457508511
1374.3999999999999 -1.0885229725806957 -0.2035908879391296
1380.3 -1.1070172249048293 -0.074487727233333
1386.2 -1.109220653250005 0.05642343543729297
1392.1 -1.0910085937932053 0.1847700185798261
1398.0 -1.0641351151550307 0.3087877190023019
1403.8999999999999 -1.0201597727706642 0.43388357829638813
1409.8 -0.9618987261436751 0.5532452245741694
1415.7 -0.8889343766501585 0.6632719989232964
1421.6 -0.804544211002343 0.7637627773773213
1427.5 -0.7056002279483853 0.8531087290008772
1433.3999999999999 -0.5995815787274228 0.9282947120067117
1439.3 -0.4805737037304013 0.9902375725071273
1445.2 -0.35739935442396054 1.0336446590598545
1451.1 -0.23336104707318112 1.0666383391896361
1457.0 -0.1060630450824781 1.0810296894923768
1462.8999999999999 0.02364092150026387 1.0828940670207912
1468.8 0.1476983167485844 1.0687752384346207
1474.7 0.26968388196245896 1.0391196043253306
1480.6 0.38690727752798665 0.9956154116652703
1486.5 0.49649751587880037 0.9423583662005666
1492.3999999999999 0.6002824969056498 0.8709868861855882
1498.3 0.6912030445268201 0.7940620312665533
1504.2 0.7742448385516546 0.7063572549250503
1510.1 0.8478787481773871 0.611167967637276
1516.0 0.9071983661791455 0.5099623649860916
1521.8999999999999 0.9580496773751449 0.4026876004249126
1527.8 0.9972098624456996 0.29204811660025903
1533.6999999999998 1.021685489623977 0.17865131430919878
1539.6 1.0333614600150134 0.061118083950429745
1545.5 1.0365849359602526 -0.05700778499117334
1551.3999999999999 1.02505808352973 -0.1754417626871411
1557.3 0.9999879855548509 -0.2904016469782571
1563.1999999999998 0.9651500471968317 -0.4048585646112753
1569.1 0.9132235466757572 -0.5134351719831376
1575.0 0.8518635155943113 -0.6176262834173077
1580.8999999999999 0.7778070935094665 -0.7157166726645344
1586.8 0.6918752081211327 -0.8077099405455046
1592.6999999999998 0.5948739854585023 -0.8885074412987203
1598.6 0.48797100237962115 -0.958016180319878
1604.5 0.36941073728554613 -1.0180843738256695
1610.3999999999999 0.24465556005563563 -1.0606785134196226
1616.3 0.11208848071123038 -1.089178777030475
1622.1999999999998 -0.02698048483955305 -1.0994835460843824
1628.1 -0.16493361853926516 -1.094985546663858
1634.0 -0.3023625789459688 -1.0680521789584538
1639.8999999999999 -0.44082052821371775 -1.02267288413418
1645.8 -0.5706635042557535 -0.9639749172256762
1651.6999999999998 -0.6907708225290435 -0.8777598943489674
1657.6 -0.7994887946579223 -0.7826560311632873
1663.5 -0.8923127154938648 -0.6729299651163333
1669.3999999999999 -0.9685922010803681 -0.5487816073525958
1675.3 -1.0286657746469108 -0.41580652603400947
1681.1999999999998 -1.0701464698829113 -0.27855053767443594
1687.1 -1.090922904888285 -0.13788249025934682
1693.0 -1.0910231829198118 0.00376408348121108
1698.8999999999999 -1.073422971762725 0.1398475634918117
1704.8 -1.038954049962174 0.27197885865098487
1710.6999999999998 -0.9814533966667928 0.39469185978065563
1716.6 -0.9128820881680065 0.5057530364766089
1722.5 -0.8412060309692662 0.6082606547717224
1728.3999999999999 -0.7541055984857271 0.6976556642157918
1734.3 -0.6639879928128957 0.779224863561978
1740.1999999999998 -0.5602217767745908 0.8462009366083182
1746.1 -0.4501659761933656 0.9025471352828022
1752.0 -0.3405465252827964 0.9415818272650511
1757.8999999999999 -0.2243711841774769 0.9729511317739037
1763.8 -0.11341237687451244 0.9908647662788292
1769.6999999999998 0.006822161185808384 0.996581982529977
1775.6 0.11536185436695358 0.9854687166357922
1781.5 0.2319313716840288 0.9689825600936463
1787.3999999999999 0.34157287007622095 0.9341510502251038
1793.3 0.44650562565762836 0.8903892438330087
1799.1999999999998 0.5522704254142091 0.8343688200313297
1805.1 0.6445897043624583 0.7639961839157813
1811.0 0.7327586367105831 0.6922711416980843
1816.8999999999999 0.8160046260465494 0.6013840287716421
1822.8 0.8886350617034998 0.5023734450809506
1828.6999999999998 0.9438356432918046 0.3946413333159708
1834.6 0.9945503156738796 0.2821349077663197
1840.5 1.0283104017186047 0.15910342764101437
1846.3999999999999 1.0472554421842064 0.033793227399582376
1852.3 1.052645408435048 -0.10037238275623128
1858.1999999999998 1.0373251816761357 -0.23118499986044322
1864.1 1.0056194977856026 -0.3607968661045911
1870.0 0.958929959313483 -0.48970115250547497
1875.8999999999999 0.8922015426527267 -0.6088928597014435
1881.8 0.8075714815027176 -0.7206207195523937
1887.6999999999998 0.7127035293883601 -0.8181135351785954
1893.6 0.6022909767080628 -0.9037674219272677
1899.5 0.4814248589230694 -0.9726826416065745
1905.3999999999999 0.3527490296131426 -1.0217536159017107
1911.3 0.21930414233024417 -1.0538675500262988
1917.1999999999998 0.08794665759650468 -1.0703598511320143
1923.1 -0.04698261601803996 -1.0666286344045075
1929.0 -0.17853018722032968 -1.0465002827044978
1934.8999999999999 -0.30214560026046006 -1.009717978451395
1940.8 -0.4176863344606642 -0.9554186781665865
1946.6999999999998 -0.527250676027921 -0.8933834873054635
1952.6 -0.6225443642462605 -0.8207477928399993
1958.5 -0.7101223581230186 -0.7362705085714173
1964.3999999999999 -0.7829443601970609 -0.6444285265966692
1970.3 -0.8466876965312815 -0.5467041469156722
1976.1999999999998 -0.8956402805963067 -0.4458556027974565
1982.1 -0.9351994651310818 -0.34070389487472236
1988.0 -0.9637364897802086 -0.23403390415708147
1993.8999999999999 -0.98208969629919 -0.1264096740753772
1999.8 -0.9866223098016266 -0.01670369187832684
2005.6999999999998 -0.9827132112229948 0.09247480798203621
2011.6 -0.9658895133771539 0.19895590838003896
2017.5 -0.9378567621761827 0.30364738957329473
2023.3999999999999 -0.9021223033481125 0.40653138244304193
2029.3 -0.8532657743173695 0.5034045014302126
2035.1999999999998 -0.7994438133809716 0.5998612593664785
2041.1 -0.7312741511291179 0.6903738123757726
2047.0 -0.6519947536095975 0.7685655610872909
2052.9 -0.5655199201433515 0.8456504305529955
2058.7999999999997 -0.4680324122990715 0.9099329400145036
2064.7 -0.36490201592115096 0.9658603899868576
2070.6 -0.25292434964346566 1.0101076607780632
2076.5 -0.13499954944445128 1.0385345220854993
2082.4 -0.007331265204109576 1.0523041382200276
2088.2999999999997 0.11873926100806247 1.0548607797751943
2094.2 0.24808246528968372 1.040561981998228
2100.1 0.37371569793274906 1.0083456440953
2106.0 0.4973814064939645 0.9586933345545477
2111.9 0.6132391813257584 0.8937594393740499
2117.7999999999997 0.7220682558213515 0.812925279743446
2123.7 0.8182662280517973 0.7154131552148916
2129.6 0.9009539303638361 0.6077940716078595
2135.5 0.9683452912225478 0.4935376373457297
2141.4 1.0172157214725153 0.36750589612999995
2147.2999999999997 1.051810416375178 0.2380795449443597
2153.2 1.068552524852074 0.10627890484407412
2159.1 1.0665280318103127 -0.023863769990976325
2165.0 1.050538508666085 -0.15285849382998482
2170.9 1.0186615267988999 -0.2745327147050976
2176.7999999999997 0.9697048530169025 -0.3909245613050067
2182.7 0.9110377569303282 -0.4997099554985112
2188.6 0.8425216333018898 -0.5986767466573626
2194.5 0.7614503946155228 -0.6871296096677686
2200.4 0.6745709429605039 -0.7665445052346298
2206.2999999999997 0.5802337642857734 -0.8344961535542135
2212.2 0.48071077202250534 -0.8911400526524577
2218.1 0.37491362490500146 -0.9343413260767885
2224.0 0.26688221358815 -0.9714213689034669
2229.9 0.15687433677526225 -0.9914076134537559
2235.7999999999997 0.04215468266102629 -1.0027552823475385
2241.7 -0.07106387476722502 -1.0028059841065704
2247.6 -0.18315487256744462 -0.9908361090911167
2253.5 -0.29513157175721616 -0.9634256832565118
2259.4 -0.40522186675605554 -0.9308928684452307
2265.2999999999997 -0.5120355596123292 -0.8804520102523182
2271.2 -0.6130953105530871 -0.8203586336807936
2277.1 -0.7109412554991064 -0.7462649150673211
2283.0 -0.7987918003770789 -0.6654387623522979
2288.9 -0.8793090607005536 -0.567402117566611
2294.7999999999997 -0.950497660449011 -0.461337383176082
2300.7 -1.0071506070728566 -0.342240757796233
2306.6 -1.052044293821835 -0.21826236679124617
2312.5 -1.0790216793596412 -0.083085792694241
2318.4 -1.0906984674779974 0.05530261633553562
2324.2999999999997 -1.0817249083058693 0.19682481330977833
2330.2 -1.0526615240300328 0.3403015318721275
2336.1 -1.0032657773982119 0.4765656094534717
2342.0 -0.9353077243679929 0.6086358702160176
2347.9 -0.844177188304656 0.7281522187361704
2353.7999999999997 -0.7404722160838028 0.8313504549319162
2359.7 -0.6219637004709723 0.9237446382350268
2365.6 -0.49197712884698075 0.9921756738001393
2371.5 -0.35166774408692997 1.0453786614786447
2377.4 -0.20843414656425416 1.07461401729467
2383.2999999999997 -0.0630431153960132 1.0831825750651438
2389.2 0.0784743308766461 1.0741844621179295
2395.1 0.21509937832853657 1.0423666107587721
2401.0 0.3440159988849849 0.9946073637526194
2406.9 0.459581150270465 0.9333985674495511
2412.7999999999997 0.5665284225013766 0.8572332537723872
2418.7 0.6617027496643729 0.7714722507832936
2424.6 0.7431229692887419 0.6780685278387378
2430.5 0.811439488867428 0.5750779057643399
2436.4 0.8658200685573414 0.4698652346243666
2442.2999999999997 0.9042337030379953 0.3607696063372838
2448.2 0.9345692007711497 0.24845686862606078
2454.1 0.9496420715270408 0.1379852014892221
2460.0 0.9520356632529972 0.025679438320280117
2465.9 0.9417565804573518 -0.0846781559945962
2471.7999999999997 0.9221344754287569 -0.1918632597791688
2477.7 0.8918529702783282 -0.2945864666331097
