# Hz S DB R 50
100000000.0 1.212968022 -103.353969994
105900000.0 1.197922455 -110.071607752
111800000.0 0.695494150 -129.785685549
117700000.0 0.721709541 -136.813719763
123600000.0 0.766543339 -143.888971335
129500000.0 0.798498915 -150.948448852
135400000.0 0.834022102 -157.889992150
141300000.0 0.859533074 -164.865173246
147200000.0 0.898896271 -171.938546509
153100000.0 0.913393366 -178.791579467
159000000.0 0.948325205 174.214900285
164900000.0 0.967289958 167.246410853
170800000.0 1.002850064 160.344660520
176700000.0 1.026266978 153.446827158
182600000.0 1.047454642 146.487598084
188500000.0 1.066853784 139.666494197
194400000.0 1.088322272 132.875687245
200300000.0 1.129468357 125.955615154
206200000.0 1.156865399 119.084191724
212100000.0 1.188500736 112.362079654
218000000.0 1.212512147 105.584290343
223900000.0 1.235956852 98.733669341
229800000.0 1.266807007 91.966533405
235700000.0 1.283909621 85.008294739
241600000.0 1.315108128 78.151170844
247500000.0 1.352368822 71.241551984
253400000.0 1.403554781 64.412166436
259300000.0 1.402901809 57.462976652
265200000.0 1.443849686 50.767042113
271100000.0 1.472202264 43.640760987
277000000.0 1.500641904 36.822792706
282900000.0 1.518518115 29.927079924
288800000.0 1.547143213 23.047567735
294700000.0 1.568482566 16.183409830
300600000.0 1.603863114 9.139218574
306500000.0 1.602112291 2.214151661
312400000.0 1.612987212 -4.849613451
318300000.0 1.619368933 -11.790897981
324200000.0 1.620533378 -18.845010405
330100000.0 1.622514906 -25.827754324
336000000.0 1.620433805 -32.905278790
341900000.0 1.608961731 -39.842891803
347800000.0 1.595798033 -46.825489989
353700000.0 1.584944215 -53.955611557
359600000.0 1.579818815 -60.892761091
365500000.0 1.559516615 -67.862076846
371400000.0 1.544590593 -74.832232979
377300000.0 1.521132466 -81.801474614
383200000.0 1.496039754 -88.840731312
389100000.0 1.473363153 -95.793743639
395000000.0 1.442228408 -102.823207635
400900000.0 1.414401016 -109.661340196
406800000.0 1.392660152 -116.651795194
412700000.0 1.351271950 -123.572401291
418600000.0 1.324006155 -130.550448189
424500000.0 1.292369187 -137.489522426
430400000.0 1.240563081 -144.351983889
436300000.0 1.231086996 -151.275234238
442200000.0 1.190383088 -158.273360435
448100000.0 1.182209509 -165.111351811
454000000.0 1.166588140 -172.072422657
459900000.0 1.131730449 -178.911647564
465800000.0 1.123046601 174.058735132
471700000.0 1.118490213 167.086702175
477600000.0 1.101482967 160.139216045
483500000.0 1.110391066 153.103318143
489400000.0 1.100747418 146.100766438
495300000.0 1.083032363 139.099952749
501200000.0 1.078872481 132.152802525
507100000.0 1.079489787 124.898106498
513000000.0 1.065168306 117.863254783
518900000.0 1.043773531 110.796731439
524800000.0 1.047888520 103.676487334
530700000.0 1.034767706 96.571045197
536600000.0 1.044089588 89.458852822
542500000.0 1.030638084 82.405453513
548400000.0 1.009867105 75.348462906
554300000.0 0.981907578 68.099588045
560200000.0 0.982130739 61.033210733
566100000.0 0.960639648 53.924167532
572000000.0 0.945484138 46.772334740
577900000.0 0.910616259 39.695932829
583800000.0 0.908747987 32.700017597
589700000.0 0.879498504 25.745925193
595600000.0 0.832691348 18.865259701
601500000.0 0.818705902 11.894953291
607400000.0 0.790461985 5.000932640
613300000.0 0.782744623 -1.864059458
619200000.0 0.772525740 -8.770277957
625100000.0 0.738884256 -15.615241157
631000000.0 0.717863178 -22.300142329
636900000.0 0.730090596 -29.111932205
642800000.0 0.715670634 -35.846999958
648700000.0 0.716326846 -42.603971749
654600000.0 0.683356049 -49.272784135
660500000.0 0.708419482 -55.917089483
666400000.0 0.728175444 -62.639452079
672300000.0 0.744072103 -69.208451141
678200000.0 0.745953641 -76.013581134
684100000.0 0.767276505 -82.654560793
690000000.0 0.811284118 -89.406442689
695900000.0 0.851022810 -95.888770227
701800000.0 0.882498567 -102.672976532
707700000.0 0.914773186 -109.243345220
713600000.0 0.965191211 -115.999298495
719500000.0 0.994897607 -122.633014251
725400000.0 1.058069194 -129.449036996
731300000.0 1.112651605 -136.244694872
737200000.0 1.155687114 -143.000704852
743100000.0 1.210197307 -149.859842948
749000000.0 1.274118688 -156.825695992
754900000.0 1.284990813 -163.784276230
760800000.0 1.314667959 -170.731967517
766700000.0 1.363743287 -177.787868614
772600000.0 1.399090390 175.298499967
778500000.0 1.424396961 168.314007153
784400000.0 1.445588621 161.374792602
790300000.0 1.458163810 154.385325524
796200000.0 1.467955377 147.314580761
802100000.0 1.464171291 140.331897727
808000000.0 1.465920867 133.345841296
813900000.0 1.446371238 126.231964089
819800000.0 1.437356306 119.345384458
825700000.0 1.416828789 112.316452322
831600000.0 1.402890841 105.376831183
837500000.0 1.370837354 98.504782923
843400000.0 1.340748635 91.545730495
849300000.0 1.292588702 84.856170962
855200000.0 1.292229834 78.070980738
861100000.0 1.236235538 71.306674370
867000000.0 1.201055724 64.550411668
872900000.0 1.138630911 57.787272264
878800000.0 1.111409985 51.225809128
884700000.0 1.070298462 44.562836613
890600000.0 1.048914377 37.897321572
896500000.0 1.025610221 31.225981171
902400000.0 1.004476602 24.605148355
908300000.0 1.007267532 17.967562104
914200000.0 0.938580529 11.408450578
920100000.0 0.928122981 4.782674836
926000000.0 0.937275293 -1.907680774
931900000.0 0.927010641 -8.536184241
937800000.0 0.924472465 -15.194418133
943700000.0 0.929734306 -21.827787311
949600000.0 0.937524334 -28.640346649
955500000.0 0.950953157 -35.430307533
961400000.0 0.958742702 -42.140335028
967300000.0 0.980165342 -49.072253104
973200000.0 0.985522303 -55.842514821
979100000.0 1.013100258 -62.889530557
985000000.0 1.038376181 -69.888942916
990900000.0 1.040038189 -76.862889772
996800000.0 1.072682998 -83.901362749
1002700000.0 1.072873191 -90.991545182
1008600000.0 1.086213618 -98.099978240
1014500000.0 1.090980941 -105.316665356
1020400000.0 1.086367131 -112.476427202
1026300000.0 1.092390247 -119.675376038
1032200000.0 1.073437115 -126.845315506
1038100000.0 1.042088263 -134.165542097
1044000000.0 1.033871476 -141.389072718
1049900000.0 1.031469111 -148.629150612
1055800000.0 0.994297159 -155.782802291
1061700000.0 0.982740695 -163.048140407
1067600000.0 0.960082413 -170.228440692
1073500000.0 0.936242993 -177.369505337
1079400000.0 0.897715987 175.548391519
1085300000.0 0.869584704 168.358896872
1091200000.0 0.834485222 161.244738649
1097100000.0 0.796520985 154.296434395
1103000000.0 0.757150995 147.257142623
1108900000.0 0.737947810 140.230157673
1114800000.0 0.715127655 133.196391099
1120700000.0 0.683271587 126.297264542
1126600000.0 0.683723196 119.261881114
1132500000.0 0.644967531 112.303687624
1138400000.0 0.625238470 105.375984880
1144300000.0 0.617318278 98.356551605
1150200000.0 0.606024419 91.385052232
1156100000.0 0.627201541 84.551845307
1162000000.0 0.630924185 77.590434796
1167900000.0 0.624039926 70.684200855
1173800000.0 0.632112029 63.730035954
1179700000.0 0.663850062 56.647136343
1185600000.0 0.674553242 49.804684345
1191500000.0 0.705034246 42.723348765
1197400000.0 0.707624633 35.813146129
1203300000.0 0.714530752 28.759817809
1209200000.0 0.720382274 21.856788181
1215100000.0 0.748455945 14.832371152
1221000000.0 0.762434394 7.878531719
1226900000.0 0.776103213 0.916199656
1232800000.0 0.734604905 -6.364664442
1238700000.0 0.759011016 -13.197901843
1244600000.0 0.755672511 -20.276743901
1250500000.0 0.766361872 -27.127721159
1256400000.0 0.767057957 -34.049495888
1262300000.0 0.766506391 -40.892930765
1268200000.0 0.774541086 -47.930485526
1274100000.0 0.752842883 -54.762589157
1280000000.0 0.753892752 -61.557028565
1285900000.0 0.773647855 -68.414540995
1291800000.0 0.751815733 -75.234007166
1297700000.0 0.761137046 -81.950212092
1303600000.0 0.749036828 -88.671094093
1309500000.0 0.761934981 -95.449921044
1315400000.0 0.749695516 -102.243007549
1321300000.0 0.753019862 -108.957974806
1327200000.0 0.767649625 -115.724242894
1333100000.0 0.778727678 -122.309327974
1339000000.0 0.801079084 -129.011699486
1344900000.0 0.803610079 -135.802555373
1350800000.0 0.811558798 -142.478115022
1356700000.0 0.852471676 -149.119647979
1362600000.0 0.855553746 -155.912395253
1368500000.0 0.881734824 -162.655102046
1374400000.0 0.886078879 -169.406135761
1380300000.0 0.902705975 -176.150548666
1386200000.0 0.911581876 177.088008866
1392100000.0 0.879374064 170.387760977
1398000000.0 0.891040704 163.818477676
1403900000.0 0.895451410 156.959492689
1409800000.0 0.903742624 150.094229146
1415700000.0 0.899524472 143.271804658
1421600000.0 0.901257220 136.489553770
1427500000.0 0.883722045 129.593911246
1433400000.0 0.867971592 122.858244162
1439300000.0 0.833311381 115.887833386
1445200000.0 0.777876705 109.073654128
1451100000.0 0.763399102 102.340825621
1457000000.0 0.718358368 95.603525495
1462900000.0 0.693788854 88.749360682
1468800000.0 0.659885369 82.131902154
1474700000.0 0.616405377 75.450950074
1480600000.0 0.572655809 68.763317201
1486500000.0 0.548232855 62.216734198
1492400000.0 0.488134875 55.425462840
1498300000.0 0.446558278 48.961576581
1504200000.0 0.407588010 42.374750676
1510100000.0 0.383914937 35.784817733
1516000000.0 0.346567227 29.341596456
1521900000.0 0.334303856 22.797997470
1527800000.0 0.333109900 16.323474091
1533700000.0 0.317143954 9.918429053
1539600000.0 0.300210844 3.384811313
1545500000.0 0.325213427 -3.147854374
1551400000.0 0.340361158 -9.712239338
1557300000.0 0.351530977 -16.193568543
1563200000.0 0.395826764 -22.756944674
1569100000.0 0.404412978 -29.345690611
1575000000.0 0.442000607 -35.943224359
1580900000.0 0.481442333 -42.619407370
1586800000.0 0.534958772 -49.417013801
1592700000.0 0.581680026 -56.196878752
1598600000.0 0.629242843 -63.007721863
1604500000.0 0.692832337 -70.056755477
1610400000.0 0.736799592 -77.011353369
1616300000.0 0.787736272 -84.124318067
1622200000.0 0.826389111 -91.405712468
1628100000.0 0.885600530 -98.565856948
1634000000.0 0.906666077 -105.806669013
1639900000.0 0.934856219 -113.318334439
1645800000.0 0.986106684 -120.625108142
1651700000.0 0.960846817 -128.201688894
1657600000.0 0.975116311 -135.609558558
1663500000.0 0.965821603 -142.978541568
1669400000.0 0.931877001 -150.465127105
1675300000.0 0.902751079 -157.990492277
1681200000.0 0.873568042 -165.410115276
1687100000.0 0.824709729 -172.796542751
1693000000.0 0.756731271 179.802327535
1698900000.0 0.688513505 172.577206281
1704800000.0 0.619792006 165.330220803
1710700000.0 0.488426743 158.092455633
1716600000.0 0.370836449 151.012761526
1722500000.0 0.324610530 144.129998192
1728400000.0 0.234165465 137.226753459
1734300000.0 0.203908877 130.434763561
1740200000.0 0.127969407 123.506289568
1746100000.0 0.074237441 116.508773597
1752000000.0 0.011052933 109.883786205
1757900000.0 -0.013151511 102.985894344
1763800000.0 -0.023186436 96.529544251
1769700000.0 -0.029535863 89.607784463
1775600000.0 -0.068032712 83.323176699
1781500000.0 -0.031735071 76.539184072
1787400000.0 -0.046675087 69.915031643
1793300000.0 -0.034181638 63.367499012
1799200000.0 0.005095412 56.499343401
1805100000.0 -0.003536353 49.845405569
1811000000.0 0.069683153 43.372568254
1816900000.0 0.117929466 36.389696848
1822800000.0 0.178891211 29.480846313
1828700000.0 0.197672455 22.691026848
1834600000.0 0.288681779 15.837625396
1840500000.0 0.345226503 8.795242322
1846400000.0 0.405572247 1.848200184
1852300000.0 0.484950076 -5.446828568
1858200000.0 0.528824043 -12.563978432
1864100000.0 0.574549721 -19.737006715
1870000000.0 0.642160219 -27.052245770
1875900000.0 0.669867828 -34.312016539
1881800000.0 0.687296584 -41.743507772
1887700000.0 0.708709410 -48.939092475
1893600000.0 0.717163452 -56.319617352
1899500000.0 0.711015698 -63.667099901
1905400000.0 0.675961312 -70.953337751
1911300000.0 0.639826709 -78.244821325
1917200000.0 0.619817640 -85.302814883
1923100000.0 0.568682814 -92.522121191
1929000000.0 0.519377383 -99.681306975
1934900000.0 0.456446131 -106.659161141
1940800000.0 0.363440855 -113.613805427
1946700000.0 0.318636615 -120.547950481
1952600000.0 0.257925042 -127.180634564
1958500000.0 0.196844601 -133.964309409
1964400000.0 0.121156111 -140.542769962
1970300000.0 0.067934495 -147.149769502
1976200000.0 0.004161720 -153.535577112
1982100000.0 -0.040678392 -159.982737440
1988000000.0 -0.071991903 -166.350500800
1993900000.0 -0.085614480 -172.665501288
1999800000.0 -0.115736723 -179.030064886
2005700000.0 -0.113176186 174.624210410
2011600000.0 -0.120987767 168.360885809
2017500000.0 -0.124333646 162.059740497
2023400000.0 -0.091763138 155.741821210
2029300000.0 -0.081191769 149.460506195
2035200000.0 -0.004588828 143.117334725
2041100000.0 0.049134530 136.647925948
2047000000.0 0.068040102 130.308834285
2052900000.0 0.149140944 123.772213998
2058800000.0 0.199600771 117.219442851
2064700000.0 0.277734086 110.696562902
2070600000.0 0.351447367 104.057458872
2076500000.0 0.401190599 97.406372939
2082400000.0 0.443036355 90.399165739
2088300000.0 0.518585075 83.577596905
2094200000.0 0.585452675 76.590327911
2100100000.0 0.631172318 69.664155109
2106000000.0 0.668777338 62.579183325
2111900000.0 0.699891597 55.544637805
2117800000.0 0.727020038 48.387413168
2123700000.0 0.723879977 41.163320529
2129600000.0 0.722982954 34.004063509
2135500000.0 0.723499108 27.006626066
2141400000.0 0.681073133 19.864083165
2147300000.0 0.655748683 12.754101317
2153200000.0 0.618668606 5.679993727
2159100000.0 0.561619240 -1.281790214
2165000000.0 0.519227127 -8.278717770
2170900000.0 0.465105839 -15.083050434
2176800000.0 0.386795663 -21.956220592
2182700000.0 0.333030347 -28.745046114
2188600000.0 0.286755642 -35.396736945
2194500000.0 0.219966684 -42.062960391
2200400000.0 0.181328976 -48.651726628
2206300000.0 0.141234657 -55.188713284
2212200000.0 0.108142908 -61.656091049
2218100000.0 0.058468661 -68.136391770
2224000000.0 0.064170870 -74.637933372
2229900000.0 0.032444572 -81.008411985
2235800000.0 0.031567530 -87.592768509
2241700000.0 0.046093385 -94.053490774
2247600000.0 0.065951999 -100.472841860
2253500000.0 0.065908323 -107.031690493
2259400000.0 0.131602086 -113.523709750
2265300000.0 0.159362618 -120.180564681
2271200000.0 0.207233812 -126.772613137
2277100000.0 0.262671285 -133.611383639
2283000000.0 0.337763105 -140.203788419
2288900000.0 0.394655125 -147.166583812
2294800000.0 0.477723592 -154.109731295
2300700000.0 0.536472969 -161.231679088
2306600000.0 0.623697323 -168.279401754
2312500000.0 0.686277388 -175.596853929
2318400000.0 0.765244924 177.097368872
2324300000.0 0.823791633 169.687588142
2330200000.0 0.877464375 162.085159577
2336100000.0 0.911944274 154.591612534
2342000000.0 0.952524217 146.946606822
2347900000.0 0.944154945 139.220307885
2353800000.0 0.932264475 131.691007650
2359700000.0 0.934717667 123.952657106
2365600000.0 0.886512863 116.374829759
2371500000.0 0.851073823 108.593055737
2377400000.0 0.785438421 100.976896385
2383300000.0 0.708719917 93.330956565
2389200000.0 0.644694003 85.821690963
2395100000.0 0.541516661 78.340293190
2401000000.0 0.443793458 70.920458596
2406900000.0 0.344069298 63.785565846
2412800000.0 0.235830171 56.540076517
2418700000.0 0.141087141 49.379837672
2424600000.0 0.051842357 42.379139340
2430500000.0 -0.047384410 35.325705270
2436400000.0 -0.130412774 28.487900933
2442300000.0 -0.232863663 21.750925919
2448200000.0 -0.291185330 14.887817527
2454100000.0 -0.358064009 8.267351786
2460000000.0 -0.423777079 1.545075281
2465900000.0 -0.486256372 -5.137940335
2471800000.0 -0.520061245 -11.753514606
2477700000.0 -0.544413613 -18.278819672
2483600000.0 -0.559604704 -24.881860823
2489500000.0 -0.576968878 -31.475572526
2495400000.0 -0.567076576 -38.049786211
2501300000.0 -0.570846479 -44.665496654
2507200000.0 -0.556721653 -51.294101445
2513100000.0 -0.514109508 -58.248405002
2519000000.0 -0.462175723 -64.827405384
2524900000.0 -0.439710982 -71.680762022
2530800000.0 -0.388379135 -78.369856835
2536700000.0 -0.363408479 -85.221974758
2542600000.0 -0.334673061 -92.011500942
2548500000.0 -0.289658082 -98.930671498
2554400000.0 -0.248134720 -105.777197026
2560300000.0 -0.212738138 -112.696809394
2566200000.0 -0.199291063 -119.569040584
2572100000.0 -0.134638314 -126.681112701
2578000000.0 -0.130433869 -133.637529297
2583900000.0 -0.095179035 -140.616845739
2589800000.0 -0.079726875 -147.587125436
2595700000.0 -0.078877334 -154.546040641
2601600000.0 -0.074248030 -161.552228460
2607500000.0 -0.068828917 -168.574317301
2613400000.0 -0.057874207 -175.354252520
2619300000.0 -0.075450462 177.682304419
2625200000.0 -0.068822558 170.875689377
2631100000.0 -0.074255256 164.117674979
2637000000.0 -0.083853256 157.355926314
2642900000.0 -0.088051837 150.600553420
2648800000.0 -0.109457503 143.951322721
2654700000.0 -0.108598973 137.285000929
2660600000.0 -0.110480194 130.643302872
2666500000.0 -0.121601878 123.908426579
2672400000.0 -0.157033111 117.555614080
2678300000.0 -0.126888910 110.972618529
2684200000.0 -0.102145945 104.443997027
2690100000.0 -0.088682381 97.848627043
2696000000.0 -0.074365057 91.374481383
2701900000.0 -0.034162692 84.865564328
2707800000.0 -0.016446278 78.457659853
2713700000.0 0.006157014 71.788464467
2719600000.0 0.040715134 65.240272943
2725500000.0 0.078299134 58.713087595
2731400000.0 0.128813526 52.141270126
2737300000.0 0.148796987 45.496705809
2743200000.0 0.208233367 38.882082240
2749100000.0 0.255027063 32.236399851
2755000000.0 0.307690985 25.491894676
2760900000.0 0.358343023 18.792106834
2766800000.0 0.422037035 12.005161663
2772700000.0 0.454722653 5.271163535
2778600000.0 0.512431507 -1.660751099
2784500000.0 0.558810027 -8.513304161
2790400000.0 0.589596648 -15.472785954
2796300000.0 0.619620774 -22.415702455
2802200000.0 0.618543795 -29.406489412
2808100000.0 0.660688510 -36.483853821
2814000000.0 0.674837965 -43.458021011
2819900000.0 0.675455823 -50.451288968
2825800000.0 0.681493070 -57.514792332
2831700000.0 0.708050443 -64.485403310
2837600000.0 0.700847651 -71.554714665
2843500000.0 0.695176825 -78.646475426
2849400000.0 0.645260201 -85.608823552
2855300000.0 0.627651991 -92.823337743
2861200000.0 0.604238271 -99.837212771
2867100000.0 0.580066353 -106.894592482
2873000000.0 0.528721046 -113.950923414
2878900000.0 0.486451455 -121.011568280
2884800000.0 0.448979895 -128.000013407
2890700000.0 0.417796565 -135.148787687
2896600000.0 0.375229003 -142.137943278
2902500000.0 0.320425641 -149.132448950
2908400000.0 0.270539155 -156.084841191
2914300000.0 0.203491242 -162.978174122
2920200000.0 0.154602240 -170.095600341
2926100000.0 0.088190753 -177.041604570
2932000000.0 0.040370258 175.972096978
2937900000.0 -0.014193335 168.890991546
2943800000.0 -0.075163738 162.044406913
2949700000.0 -0.132244161 155.116279897
2955600000.0 -0.228666178 148.211262604
2961500000.0 -0.277624534 141.187132035
2967400000.0 -0.329137366 134.346221716
2973300000.0 -0.392827906 127.390219484
2979200000.0 -0.458101924 120.454692493
2985100000.0 -0.524330796 113.485440375
2991000000.0 -0.602676391 106.403323335
2996900000.0 -0.641748341 99.530184920
3002800000.0 -0.699317990 92.593820010
3008700000.0 -0.775122227 85.755753584
3014600000.0 -0.828239264 78.969253230
3020500000.0 -0.897181842 72.077310989
3026400000.0 -0.953307954 65.251401901
3032300000.0 -1.007612884 58.428281458
3038200000.0 -1.060220691 51.594359473
3044100000.0 -1.098722290 44.952638872
3050000000.0 -1.141750710 38.199474026
3055900000.0 -1.180721444 31.369358959
3061800000.0 -1.208844876 24.810503370
3067700000.0 -1.260298203 18.041527002
3073600000.0 -1.277755838 11.338935747
3079500000.0 -1.291229110 4.643537551
3085400000.0 -1.308236291 -1.968570577
3091300000.0 -1.314910553 -8.539481680
3097200000.0 -1.311270573 -15.245595093
3103100000.0 -1.299181640 -21.838736917
3109000000.0 -1.304085848 -28.536263670
3114900000.0 -1.278308305 -35.103059464
3120800000.0 -1.243101947 -41.840864834
3126700000.0 -1.210508245 -48.539600097
3132600000.0 -1.159397276 -55.136538179
