# Hz S DB R 50
!freq S11 S21 S12 S22
100000000.0 -44.638096741 110.915571204 1.203864653 -99.238032255 1.236411882 -100.539991479 -54.717810553 -27.360606605
105900000.0 -44.094873901 87.933719228 1.201233787 -106.219065909 1.236915124 -107.527473047 -50.566002615 34.714419868
111800000.0 -24.399766131 53.050497448 1.132396629 -133.138715696 1.145790818 -130.621085362 -25.140315443 57.804937410
117700000.0 -24.745137920 46.947878717 1.140803917 -140.304926430 1.129485577 -137.572082530 -25.449153108 53.294774732
123600000.0 -25.192470388 41.216013491 1.137722147 -147.293214255 1.150198998 -144.552659341 -26.202099161 48.491087049
129500000.0 -25.746561299 36.089889796 1.143768105 -154.263256258 1.154520331 -151.529431867 -26.700442361 43.586868892
135400000.0 -26.549284967 27.673520476 1.136133521 -161.288751598 1.159654984 -158.477220850 -27.405995390 39.703963081
141300000.0 -26.973437881 20.762586945 1.138671104 -168.349020416 1.150164945 -165.318679234 -27.676247380 33.982568817
147200000.0 -27.721481484 13.654872696 1.140118738 -175.328849636 1.167254010 -172.345561908 -28.108885780 29.300489399
153100000.0 -28.498525247 7.548559288 1.147855696 177.628905413 1.163199188 -179.278731831 -28.779142336 22.781893346
159000000.0 -29.821672308 -0.495402608 1.142923717 170.600595700 1.177609160 173.601100407 -29.482211263 18.119534950
164900000.0 -30.512142941 -8.728720188 1.146395405 163.594393987 1.173805872 166.717819492 -30.124658162 11.489738328
170800000.0 -31.379905548 -19.369159109 1.153440688 156.541054463 1.187646980 159.731099847 -31.294405532 -2.034888911
176700000.0 -32.618400456 -30.047299403 1.174540111 149.496947812 1.186904551 152.834355282 -32.331341961 -11.943094466
182600000.0 -33.845613475 -41.074746517 1.168032792 142.489737468 1.197053257 145.864665278 -34.098296284 -28.999063426
188500000.0 -35.579845597 -52.145528206 1.169492416 135.486882375 1.205428625 138.926306697 -36.700621276 -34.440750846
194400000.0 -37.391176082 -64.636356555 1.179984360 128.442029668 1.211776252 131.936318029 -39.577405812 -40.886549375
200300000.0 -40.021945163 -69.933256676 1.183374036 121.455053989 1.205174548 125.012698965 -43.171524372 -38.495818118
206200000.0 -40.824204744 -73.521193404 1.168027761 114.375251858 1.211155354 118.070751291 -44.551563234 -25.831717702
212100000.0 -43.139954940 -80.716157847 1.186502554 107.434094052 1.224467141 111.107080536 -48.266751158 -9.369477359
218000000.0 -44.934612587 -102.230663698 1.182494641 100.407150310 1.224771709 104.118576681 -54.224988210 -20.129826628
223900000.0 -45.344163593 -126.653278997 1.179564324 93.443302000 1.229042229 97.172651686 -50.761986927 79.439578679
229800000.0 -44.472105564 -168.645423099 1.177472868 86.388642341 1.239247999 90.193879245 -46.297406558 102.939217051
235700000.0 -43.213217589 171.755359071 1.191166297 79.218543685 1.250119666 83.070709495 -43.568606744 115.934440410
241600000.0 -40.303597871 152.641729915 1.191386972 72.167838360 1.245861243 76.195400220 -39.017126555 112.024989681
247500000.0 -36.867369568 127.014832698 1.198007387 65.167078613 1.275810072 69.111342619 -35.677555745 102.902403478
253400000.0 -35.992168477 109.323689643 1.195372255 58.112989222 1.272569559 62.205197243 -33.907139601 97.016302995
259300000.0 -34.061502254 96.683725081 1.213892148 50.996144338 1.275091422 55.265519885 -32.069571143 84.206179262
265200000.0 -32.636319105 82.340421965 1.206132825 44.074019354 1.296089883 48.233003015 -30.369327238 72.591670086
271100000.0 -31.838849898 73.290869094 1.231869095 36.784891424 1.260756126 41.315825971 -29.783419932 65.845273525
277000000.0 -31.682190686 56.057844115 1.219210322 29.770088091 1.275268593 34.132873413 -28.876264102 51.658495939
282900000.0 -31.176187494 42.360260280 1.229493599 22.698163011 1.294057512 27.200077849 -28.365839046 43.111949106
288800000.0 -30.420682945 36.511617195 1.246728684 15.717528137 1.294971607 20.220715672 -27.504296761 36.761726013
294700000.0 -29.308698786 26.604867068 1.255846697 8.555954392 1.291392736 13.250579694 -26.578064662 27.867600123
300600000.0 -28.307525281 17.835280541 1.252759715 1.543970309 1.299139747 6.219775254 -26.411192233 18.344997281
306500000.0 -27.979794804 9.944863227 1.247513371 -5.464613114 1.312184461 -0.749411492 -25.737148657 10.350481558
312400000.0 -27.498272531 -0.053740927 1.250447635 -12.634563812 1.298895169 -7.693181034 -25.466483894 -0.083580633
318300000.0 -27.108180597 -10.876060193 1.249449912 -19.761279610 1.309234541 -14.752201029 -25.412587439 -10.100818534
324200000.0 -27.242176222 -18.818030526 1.244014242 -26.735823023 1.312585810 -21.786028340 -25.238070755 -19.843027634
330100000.0 -26.728080592 -27.335648981 1.238384232 -33.820931184 1.312384457 -28.819029098 -25.287315091 -30.405586296
336000000.0 -26.987071734 -35.543424485 1.248705385 -40.888622907 1.327164492 -35.769275230 -25.278387333 -38.308905044
341900000.0 -26.713357310 -44.128860405 1.232350400 -47.942806994 1.316360429 -42.865653494 -25.464638524 -46.595904231
347800000.0 -26.269718833 -53.520472612 1.236461072 -55.082252310 1.322247444 -49.873209129 -25.616044543 -56.050675879
353700000.0 -26.413021396 -63.417063940 1.236154638 -62.072133904 1.322703788 -56.844932143 -25.789705140 -65.320706973
359600000.0 -26.842369748 -70.889149013 1.233112082 -69.226433358 1.319332945 -63.797226040 -25.859170107 -70.939566910
365500000.0 -26.316492399 -79.369176324 1.239082623 -76.189140047 1.320175413 -70.838084793 -26.261673893 -79.546834958
371400000.0 -26.481950184 -87.912586960 1.215695333 -83.293335554 1.314681225 -77.920472746 -26.312433190 -88.658819172
377300000.0 -26.783134863 -97.820191427 1.218083594 -90.427552783 1.300631601 -84.873009099 -26.541111872 -96.094126872
383200000.0 -27.187300380 -106.714736431 1.189877820 -97.471480317 1.302975248 -91.810384250 -27.586658652 -106.117506796
389100000.0 -27.768800477 -117.229229291 1.183916417 -104.434557825 1.289776054 -98.856476916 -28.570415816 -117.217686046
395000000.0 -28.634223120 -124.609959120 1.176365386 -111.590274380 1.282381552 -105.862590419 -30.309512414 -123.463105681
400900000.0 -28.942107485 -135.649068628 1.172347591 -118.525506218 1.268938433 -112.837370900 -32.199569150 -134.919946683
406800000.0 -30.451427896 -143.457677116 1.146897679 -125.695548476 1.259502852 -119.799993933 -34.434071393 -142.277269099
412700000.0 -30.661507914 -155.376837574 1.149562379 -132.733505167 1.262266571 -126.728793362 -35.193873367 -152.636807862
418600000.0 -31.452026621 -166.721152438 1.140062032 -139.769202657 1.266472118 -133.669267505 -36.947439760 -159.042284539
424500000.0 -32.456648307 -179.962881900 1.135525272 -146.874389847 1.250879430 -140.726861547 -38.715858089 -177.107082824
430400000.0 -33.324472053 165.418848676 1.077593987 -153.826262278 1.212437401 -147.716865354 -40.436427491 168.203141944
436300000.0 -33.674723500 151.235224710 1.063186039 -160.948050471 1.197046146 -154.719212178 -40.468914676 135.678513295
442200000.0 -34.047182090 137.286938555 1.058459497 -168.008997518 1.177311995 -161.613913185 -40.786474591 111.351611272
448100000.0 -33.408844877 115.706854160 1.045188112 -175.033527280 1.188274461 -168.625056348 -38.752952605 84.026231785
454000000.0 -33.324021403 104.377138047 1.029788458 177.977930690 1.181678831 -175.579403015 -36.127500674 68.401159752
459900000.0 -32.808505503 83.079143725 1.025967443 170.868602280 1.160199121 177.489898638 -34.378299014 52.357444467
465800000.0 -31.800217270 67.066068643 1.020547741 163.900773458 1.156826560 170.508296606 -32.345023243 43.934919764
471700000.0 -31.499135013 57.679278546 1.012054958 156.713314268 1.152339118 163.586854986 -30.802163042 32.580243688
477600000.0 -30.232222941 46.180760926 1.003517322 149.790369694 1.154951441 156.569582794 -29.844938947 29.059647221
483500000.0 -28.799115665 39.380521885 1.002399216 142.744229204 1.129719418 149.606931447 -28.705520015 20.744222260
489400000.0 -28.016376448 28.385527890 1.002752798 135.711394841 1.146360321 142.684337881 -28.063346698 15.135536868
495300000.0 -26.838213080 21.445843653 0.990621312 128.750779331 1.139686629 135.690590212 -26.917104660 9.629923845
501200000.0 -25.965704618 13.856814394 0.985762000 121.701612420 1.134594009 128.783287383 -26.112948839 2.535073223
507100000.0 -25.502134892 4.676297269 0.974950376 114.600558729 1.129231877 121.818222715 -25.676795207 -4.645020751
513000000.0 -24.858339786 -3.879865079 0.952334477 107.642950619 1.126366365 114.882816649 -24.892985633 -10.505385793
518900000.0 -24.398803957 -10.198956891 0.950067141 100.652444636 1.116110956 108.038657827 -24.465290644 -14.764666558
524800000.0 -24.161559085 -18.082725103 0.952468107 93.566084566 1.121128665 101.185323970 -24.101404527 -21.172745783
530700000.0 -23.752900358 -25.368730942 0.928554653 86.636020864 1.102888758 94.267274523 -23.364445252 -24.881708670
536600000.0 -23.199202985 -30.513128792 0.921957793 79.710436610 1.108062714 87.254527807 -22.966744206 -29.991706717
542500000.0 -22.850597503 -37.019958457 0.932991518 72.571227135 1.127777990 80.329026447 -22.228372113 -34.988416658
548400000.0 -22.405349712 -42.992257170 0.931472057 65.635397806 1.124571048 73.427329308 -21.685358449 -41.465639988
554300000.0 -21.731173070 -48.426438351 0.914435566 58.764302511 1.124358636 66.457203349 -21.175156137 -46.500132776
560200000.0 -21.404296608 -54.248503721 0.897811015 51.783331376 1.134326749 59.631398696 -20.322308913 -53.653984730
566100000.0 -20.775986207 -61.564608326 0.908100277 44.753325545 1.136636919 52.750089420 -19.933654947 -59.991001498
572000000.0 -20.651934558 -69.788132175 0.892911174 37.835896432 1.144331592 45.748371656 -19.628639947 -67.025881553
577900000.0 -20.356226951 -76.609680638 0.910617966 30.793057986 1.152180969 38.914830390 -19.341227026 -74.855627332
583800000.0 -20.189793275 -84.235919571 0.905769702 23.864786381 1.159766301 32.006642260 -19.284102386 -82.547867888
589700000.0 -20.082842012 -90.867515358 0.902401747 16.787986715 1.158009521 25.039961495 -19.237683402 -89.567973674
595600000.0 -19.967632351 -97.957924540 0.918675806 10.086024804 1.089799581 18.398997584 -19.047733719 -97.852084554
601500000.0 -19.760802750 -105.752105041 0.954329788 3.120421120 1.099386169 11.515239526 -18.989393553 -106.190006081
607400000.0 -19.772991981 -114.088806692 0.938290072 -3.764221669 1.105839574 4.671019560 -19.018211792 -113.676044206
613300000.0 -19.722423622 -122.094428626 0.967515357 -10.808479487 1.118523728 -2.310892026 -19.032809362 -121.816634060
619200000.0 -19.755708134 -130.513615178 0.966665767 -17.729701304 1.120594926 -9.255486015 -19.142360334 -130.415363462
625100000.0 -19.819279095 -138.877369340 0.965923201 -24.806845311 1.122428140 -16.068125825 -19.328573520 -139.031077127
631000000.0 -20.031333150 -146.033887448 0.980528786 -31.760866943 1.128954289 -23.027407570 -19.571162868 -146.634276648
636900000.0 -20.245492229 -154.981407694 0.975771323 -38.828556749 1.141626180 -29.971533802 -19.815763046 -154.696665342
642800000.0 -20.658428587 -163.887164493 0.991737107 -45.787926191 1.134526660 -36.924124291 -20.178239451 -162.984492884
648700000.0 -21.192695411 -172.120456566 1.006241880 -52.897027363 1.153268339 -43.930671651 -20.635587258 -171.287798426
654600000.0 -21.388955964 179.771726988 1.027293000 -59.876270723 1.162849177 -50.879307838 -21.140921323 -179.641735872
660500000.0 -21.838576676 171.021667840 1.033671512 -67.025545972 1.183823266 -57.817518896 -21.718447779 172.893507380
666400000.0 -22.633071954 161.419843893 1.064955584 -74.050781005 1.188869872 -64.866923920 -22.302744648 163.799242024
672300000.0 -22.984800141 153.893917766 1.066808379 -81.147808338 1.191855805 -71.827794748 -22.790703406 154.438179580
678200000.0 -23.673712132 143.791930632 1.084152225 -88.152177147 1.195768348 -78.917782432 -23.411754259 145.373166616
684100000.0 -24.393424942 134.672568597 1.091270216 -95.311819388 1.204602204 -85.846427897 -24.187102374 136.457166966
690000000.0 -25.351920752 124.215971629 1.096477411 -102.328218715 1.217264583 -92.814310013 -25.267344332 127.787716704
695900000.0 -26.107014712 115.838709400 1.122013506 -109.379561918 1.229806953 -99.863406256 -26.564096014 117.300893110
701800000.0 -27.871401530 105.806639023 1.121573722 -116.539342961 1.210439069 -106.870432613 -27.575361522 108.717820005
707700000.0 -28.930014915 98.220047534 1.137564539 -123.682739439 1.231221730 -113.871834269 -29.645456986 100.475815580
713600000.0 -30.260530361 87.923068163 1.142308170 -130.749328843 1.227221457 -120.829839031 -32.455100367 92.624250865
719500000.0 -32.609904102 82.356351422 1.143002368 -137.851626568 1.237358823 -127.863251782 -36.040795434 87.441590551
725400000.0 -34.575596209 77.342909736 1.129151447 -144.897925863 1.242734583 -134.951590646 -41.932475670 106.615494972
731300000.0 -37.253223604 66.475660809 1.154966618 -152.061813104 1.248994865 -142.038699627 -43.701622039 162.722119860
737200000.0 -40.826462821 71.695246427 1.148964992 -159.080457860 1.263164076 -148.976596331 -39.229201861 -175.702118083
743100000.0 -45.103571233 65.710313528 1.136701928 -166.243536468 1.277631715 -155.951499135 -35.838069012 -178.663396651
749000000.0 -47.997304130 90.987308390 1.158514503 -173.289137710 1.280407400 -162.906063396 -33.431137909 178.828279138
754900000.0 -46.991829471 151.467434441 1.181506446 179.414143639 1.260256505 -170.045469428 -31.985162878 170.154050091
760800000.0 -42.406788220 154.143776075 1.187783354 172.349531178 1.250066497 -177.073034857 -30.966398989 163.543383388
766700000.0 -39.012248774 158.933954606 1.187415687 165.222819254 1.241777421 175.965977556 -29.841918898 155.545460537
772600000.0 -38.007637957 150.501260150 1.203601100 158.099608302 1.257535513 168.975918092 -28.905109945 147.963598044
778500000.0 -37.181302445 141.503057828 1.198386715 151.102572166 1.257379783 161.875577027 -28.203728784 140.019030345
784400000.0 -34.619899645 134.671333969 1.208595609 143.857292925 1.255936796 154.910130394 -27.688271159 131.265106723
790300000.0 -34.558230996 129.179717381 1.201941606 136.726183510 1.253861088 147.833093990 -27.561497833 120.811244465
796200000.0 -33.383956748 119.186738943 1.191425739 129.655162425 1.241777212 140.757738045 -27.515455826 114.000645855
802100000.0 -33.608301450 110.597503522 1.203978371 122.456529506 1.231455776 133.659810311 -27.618621865 105.267005465
808000000.0 -33.438921141 107.304168469 1.201461292 115.262256518 1.223965580 126.739240950 -27.828980935 96.214391199
813900000.0 -34.569795134 96.857500355 1.207341537 108.140073566 1.232045226 119.688502439 -28.362719763 87.697885830
819800000.0 -34.486005785 96.257830833 1.194199647 101.058731366 1.235341179 112.740430437 -29.177828922 81.139577345
825700000.0 -34.475614353 94.427777240 1.199864159 93.938595423 1.207606806 105.632957381 -30.159621362 76.073410277
831600000.0 -35.761617987 78.361801536 1.190927012 86.839667568 1.207034504 98.577547467 -31.516242071 70.163073855
837500000.0 -36.763729281 74.897221633 1.179825089 79.808255501 1.191367426 91.693678482 -33.142213225 67.935413258
843400000.0 -38.379229765 69.957405296 1.179255981 72.608467146 1.174384719 84.670991258 -34.373020622 73.640762076
849300000.0 -40.073123067 72.045407127 1.165874998 65.620024925 1.174780683 77.569222656 -35.825573595 82.332884597
855200000.0 -41.311483193 96.404207386 1.157045774 58.589442632 1.149713932 70.667248941 -36.112851895 95.521564666
861100000.0 -41.508219506 115.072400041 1.146591681 51.420942880 1.147229091 63.626023859 -35.495634086 112.100272877
867000000.0 -37.404009819 129.318291194 1.119664947 44.344199842 1.138425215 56.775663213 -33.780850358 118.063341562
872900000.0 -34.487971302 134.984873769 1.117844118 37.296846805 1.122681081 49.734678475 -31.690423602 123.430440328
878800000.0 -32.237742939 134.467897392 1.098837979 30.125821186 1.109749955 42.677908412 -30.030344205 123.083508521
884700000.0 -30.137985270 128.042962658 1.098240247 23.009985773 1.108775476 35.704024649 -28.424182279 121.524022838
890600000.0 -28.781020245 122.391992617 1.077901205 15.906195057 1.107622893 28.650139429 -27.121231045 116.684886888
896500000.0 -27.544351033 116.070423941 1.059127712 8.873239768 1.113420648 21.749685869 -25.856561264 111.585594687
902400000.0 -26.312614607 106.354164011 1.054284906 1.791840924 1.092249226 14.757356013 -24.865681584 104.570732196
908300000.0 -25.393576769 100.366950836 1.037336362 -5.152205484 1.087043719 7.816533435 -23.994246771 97.087273229
914200000.0 -24.518964243 90.901003207 0.981465110 -12.296549178 0.982322081 0.727428855 -22.863021836 86.650267709
920100000.0 -23.829929469 80.380404856 0.958616956 -19.196883053 0.960314269 -6.240292799 -22.387242310 77.892175520
926000000.0 -23.407299453 74.476435376 0.925165389 -26.335713248 0.961258036 -13.093711621 -21.923444692 70.618788786
931900000.0 -22.719522595 64.106056144 0.920003292 -33.291187724 0.942970131 -20.095203059 -21.330809737 62.415309651
937800000.0 -22.409172208 55.799662114 0.886652517 -40.216560585 0.912438742 -27.036216159 -21.294410260 53.606204247
943700000.0 -22.141803843 45.599675939 0.872858469 -47.209520110 0.884482664 -33.839768837 -21.148752518 44.628389450
949600000.0 -22.074083847 35.343240656 0.856725652 -54.217993777 0.862230263 -40.709672118 -21.067925724 36.659465452
955500000.0 -21.977337389 28.247360300 0.852642662 -61.110117041 0.863587363 -47.628716927 -21.083672558 27.841196433
961400000.0 -22.021273536 19.915446972 0.815742615 -68.189975917 0.850074177 -54.537655978 -21.372770105 22.228403924
967300000.0 -22.273688286 9.434821740 0.809138052 -75.044808350 0.841302846 -61.462613282 -21.657239260 15.631697925
973200000.0 -22.474965171 0.261281097 0.790029474 -82.057465902 0.823099363 -68.181309729 -21.998893107 8.739202071
979100000.0 -22.921467904 -8.799276556 0.802914113 -88.950035432 0.813243316 -75.115568823 -22.407795074 -1.746861035
985000000.0 -23.364721814 -18.344791100 0.799669881 -95.875433011 0.813282005 -81.952850861 -22.996920899 -10.764170889
990900000.0 -23.836625572 -29.981710192 0.773797981 -102.897092224 0.805031552 -88.902285883 -23.688210561 -20.208318118
996800000.0 -24.303485531 -41.710506444 0.782154272 -109.849146174 0.806355810 -95.694538362 -24.352691641 -31.051407654
1002700000.0 -25.178390794 -54.677675445 0.762294520 -116.773862351 0.787310468 -102.613707963 -25.455211432 -42.206146057
1008600000.0 -26.053265957 -67.174650667 0.767606302 -123.661145571 0.801018756 -109.493073392 -26.742107197 -54.405202160
1014500000.0 -26.848564822 -85.667236490 0.773452207 -130.519464708 0.805044639 -116.354607884 -28.192951313 -68.761030943
1020400000.0 -27.991243140 -103.481138586 0.769816056 -137.596267637 0.777974780 -123.228323317 -29.888653615 -85.572085235
1026300000.0 -28.917738184 -123.764645925 0.742754478 -144.550335343 0.775839814 -130.138663396 -32.393423574 -108.025143685
1032200000.0 -29.717760822 -144.078666635 0.771627701 -151.532905259 0.770713429 -137.049486165 -33.634231164 -142.311124231
1038100000.0 -29.366393182 -171.485698661 0.749036325 -158.481719735 0.757637854 -143.927097885 -33.561303785 -178.048743059
1044000000.0 -28.960539193 166.373723231 0.740215675 -165.408638784 0.754903108 -150.792256091 -31.353042047 153.305954229
1049900000.0 -27.748121399 146.806512413 0.726828918 -172.397726370 0.762863697 -157.823842544 -29.332708009 131.510277946
1055800000.0 -26.480910901 129.839393858 0.726776068 -179.366690773 0.743865429 -164.671145251 -27.440497727 116.004206442
1061700000.0 -25.317633784 117.455382757 0.724375769 173.747796055 0.746416460 -171.486082546 -25.887768766 101.206921446
1067600000.0 -24.315853411 102.774326544 0.720968374 166.852212524 0.738991543 -178.241450755 -24.781269541 88.950233451
1073500000.0 -23.320151259 91.936101106 0.738420886 160.118187084 0.710383256 175.134393392 -23.518581969 78.288893077
1079400000.0 -22.589779700 80.445189563 0.745414835 153.208778367 0.706215736 168.259275095 -22.810108944 66.718899887
