!Created with skrf (http://scikit-rf.org).
# MHz S RI R 50.0 
!freq ReS11 ImS11 ReS21 ImS21 ReS12 ImS12 ReS22 ImS22
100.0 -0.0020929241692051862 0.005476360346788367 -0.18440247980965865 -1.1337663173524988 -0.21090457659919534 -1.1335232317747257 0.0016314989053949332 -0.0008442660914758166
105.89999999999999 0.0002250240124463549 0.006236972493541062 -0.32073707950663977 -1.102614629519468 -0.3472541689000597 -1.099510913467902 0.0024354099657090474 0.0016872647752997816
111.8 0.036221489650646706 0.048155786349122355 -0.7789829795625379 -0.8313127130953984 -0.7428588131629758 -0.8660630142888242 0.0294816087273572 0.04682494834394056
117.69999999999999 0.039532084192560206 0.042315728366909805 -0.8774515098804506 -0.7283468410440431 -0.8406305961196194 -0.7683526726504412 0.031917167273974256 0.04281201601113347
123.6 0.041374006919333926 0.036240635710044225 -0.9592079445471435 -0.6159609917692385 -0.9299945811123861 -0.6620699142551086 0.03245158872136895 0.036668353021389065
129.5 0.041699776818105355 0.03039673080020477 -1.027581249158996 -0.49535332928501496 -1.004027423920223 -0.5444748026554352 0.03348993380291857 0.03187740057283596
135.4 0.041665582644536125 0.02185036227842607 -1.0795038835804815 -0.3656281320917373 -1.0631452370233514 -0.41927238307097797 0.03279647895447831 0.02723199371598798
141.29999999999998 0.0418954014880002 0.015883273444200888 -1.1165851796964648 -0.2302375666667746 -1.1043127243890989 -0.28932625271011353 0.034265015723007726 0.023096880800126684
147.2 0.03994605824082062 0.009704473744574652 -1.136478004546822 -0.0928594153845421 -1.1336410043951994 -0.15235641907915512 0.034285036294777464 0.019240250129606683
153.1 0.03726436177006667 0.004938079558831138 -1.1403043870742564 0.04721663830927449 -1.1432087690465882 -0.014392048785572247 0.03355575435257513 0.014093063812816392
159.0 0.032277519369371684 -0.00027909151259175276 -1.1253193587007417 0.18628339127924431 -1.1380631629582623 0.12763210480240625 0.031900707903153136 0.010438798367067565
164.9 0.02946683375110312 -0.004524176811225674 -1.0946317294348689 0.32228402116194477 -1.1140761384901592 0.26299061702638715 0.030547495978154857 0.006209260987989845
170.79999999999998 0.02545078604586904 -0.008947241048931721 -1.047622931595684 0.45462711276870865 -1.0755259377903676 0.39718558589849173 0.0272273746171898 -0.0009674009123812963
176.7 0.020248992428822426 -0.011713060072244909 -0.9863561700583269 0.5810789638924488 -1.0199622089387284 0.5234164953409471 0.023655316085331078 -0.005003542154435843
182.6 0.015311087172655261 -0.013344833148416143 -0.9074205154748565 0.6965465167573522 -0.9500209616407571 0.6440673570227026 0.017254738409534915 -0.00956408897050322
188.5 0.010207846034126179 -0.013134073292817244 -0.8158662026074173 0.8021167371975604 -0.8660941236923763 0.7548420639810504 0.012057880294313343 -0.008268805811363257
194.39999999999998 0.005784315520127829 -0.012201716243107417 -0.7121898830414681 0.8972071912720465 -0.7683569331703641 0.8552565546261535 0.007936986004252721 -0.006871972239713132
200.29999999999998 0.0034224875516518593 -0.009369234089804885 -0.5979947435740948 0.9775592209132544 -0.6591548696477769 0.9409267846250184 0.005432420299753206 -0.004320494886627093
206.2 0.00257981685822207 -0.008721160507670234 -0.47211463996499026 1.0419670304788642 -0.5409712250064921 1.0143950508399526 0.005329688657007458 -0.002580113029466495
212.1 0.0011238421335986988 -0.006875051446212016 -0.34346251818525014 1.0937090950845023 -0.4146303320358215 1.0741443747755788 0.0038091628181968237 -0.0006285181658084739
218.0 -0.0012003100880066573 -0.0055373050588005375 -0.20698706226983923 1.1269916660452748 -0.28086836808411375 1.116651415610333 0.001825479544934968 -0.0006691084113216689
223.89999999999998 -0.0032266002659501057 -0.004336191186451254 -0.06879695993938952 1.1433876187131926 -0.1438382122988255 1.1429839551971033 0.0005308814159053287 0.002847617439090467
229.79999999999998 -0.005858821077140196 -0.001176512710246215 0.07213298667975464 1.1429056797134571 -0.0039027457488441594 1.1533467961993655 -0.0010844692296416234 0.004720192546005606
235.7 -0.006836396543817205 0.0009905774586847227 0.2145591862085002 1.1267397386789724 0.1393198255304087 1.1463630153611468 -0.002899955133310451 0.0059630969237893005
241.6 -0.008576430748503876 0.004437677675590923 0.35125027654901103 1.0919103330168418 0.27541290668769575 1.1208920303222023 -0.0041994036599831185 0.01038085093066735
247.5 -0.008634629470200885 0.01145237059694058 0.4820836146322037 1.0417520954079786 0.41296634631437784 1.082094694538444 -0.0036727675484531097 0.016033054586850348
253.39999999999998 -0.005249215084535025 0.01496956094726203 0.606184337490578 0.9743681700254513 0.5398832494060808 1.0242048798319006 -0.002463444279223535 0.02001605745179857
259.3 -0.0023058731439486793 0.01967719719274498 0.7237732019941368 0.8936624991183618 0.6598684066704669 0.9517467390146462 0.002515495038273049 0.024791180518459285
265.2 0.0031115149599915673 0.02313617989961976 0.8254641639589265 0.7992049325453837 0.7732961640301591 0.8658879545330843 0.009067039345212743 0.0289182237205883
271.09999999999997 0.007357245220154677 0.024508784161829267 0.9229240165526293 0.690055880194059 0.8684104602903023 0.7633423324527088 0.013266823025731872 0.029582515442299277
277.0 0.014547935886608378 0.02161524169898258 0.9988324482936841 0.5713444601975597 0.9586423307636748 0.6498521128863436 0.02232655541645421 0.028228257826007068
282.9 0.020407496133329418 0.018608664794964102 1.0628324618050489 0.444552411361012 1.0323041955987668 0.5305340660105009 0.02786394891420938 0.02608552410418442
288.8 0.024214717291259746 0.01792554740144878 1.1111848592850455 0.312706805416571 1.0892355906836788 0.4012078567202747 0.03376672071425194 0.02522557201287502
294.7 0.030616745449868175 0.015334977147233798 1.1426993871327138 0.17191860683689894 1.1294075583776413 0.26595223911708504 0.04145374936025989 0.02191862638868556
300.59999999999997 0.03657916248255976 0.011769135047176743 1.1547295584534598 0.031124453542755202 1.1544975494982204 0.12582175397072207 0.04537204166626897 0.015044908706179102
306.5 0.03930385995715521 0.006891338782748989 1.1492046910451226 -0.10993951857686864 1.1629795357046193 -0.015212288604281836 0.050817958136670054 0.009281448471930197
312.4 0.04217801941675002 -3.956114311714293e-05 1.126876999244016 -0.2526007049496666 1.1508481807709021 -0.15546131095404278 0.05329363500451169 -7.774253044316433e-05
318.3 0.043323057840136 -0.008323934608760573 1.0867074398650853 -0.390409369609094 1.1243575480959793 -0.2960648253047188 0.05279425261186202 -0.009404866865065914
324.2 0.041118166307140866 -0.014012206289822226 1.0306140951951328 -0.519152511295989 1.0800575883286436 -0.43168673727326445 0.05146518008658234 -0.018572275293007406
330.09999999999997 0.04094219542003661 -0.021164113322022688 0.9580890265427392 -0.6418916879734367 1.019051232112154 -0.560668973006578 0.04692187805775667 -0.027535052269333227
336.0 0.03639967252494507 -0.02600527999791139 0.8728659770204091 -0.7557969038954522 0.9453249563113588 -0.6810195447054135 0.042733969462968924 -0.03376004116900533
341.9 0.03313758594910399 -0.032144937380012936 0.771985956497397 -0.8556580628122153 0.8528896879369958 -0.7916017700847436 0.03662797891262986 -0.03872745584536693
347.8 0.028886296450416505 -0.03906677533949867 0.6599675728520832 -0.9454171128697243 0.7504515246735612 -0.890344542286609 0.02925427935804918 -0.043454106976015115
353.7 0.02138626541829373 -0.04273917303739415 0.5399917719860932 -1.0186686432579901 0.6368667195247772 -0.9749021268986341 0.021439343632467772 -0.04665688510496469
359.59999999999997 0.014892102364585607 -0.04297949932296569 0.40877748714994433 -1.0776116895368377 0.5139795511496431 -1.0444167266895976 0.016634566358417733 -0.04814526283266991
365.5 0.008915073917512515 -0.04749594624259526 0.27532042568563203 -1.119987532932364 0.3821190971963438 -1.0996495558324078 0.008823269468198544 -0.04782423964172228
371.4 0.0017269993437870352 -0.04738208918881416 0.13433108162070084 -1.1423592591674674 0.2434665576919872 -1.1376531862627532 0.0011316272142451057 -0.04833473556419177
377.29999999999995 -0.006231444887388 -0.045371736241502085 -0.008585532861558448 -1.1505144771812421 0.1037986631742543 -1.1568858699658129 -0.004999356353116016 -0.0468255809404636
383.2 -0.012572864178035109 -0.0418684117070855 -0.14912359958601712 -1.137079585398479 -0.03670494901137652 -1.161266587908562 -0.011590425225260546 -0.040109967997742024
389.09999999999997 -0.01870682379202491 -0.03635391282383492 -0.28567541995105467 -1.1098528342570964 -0.17860611698041334 -1.1462507627105376 -0.017050974717828907 -0.03315243305536022
395.0 -0.021019728258100633 -0.030458502584625926 -0.42133429921000426 -1.0646969454804018 -0.31681688324183893 -1.114956752995449 -0.01682639460005206 -0.02545751092372602
400.9 -0.025541368624919174 -0.02496914165820255 -0.5465578908272897 -1.0055666404231771 -0.4491685567752699 -1.0665818633676412 -0.01733400439948792 -0.01738251013513662
406.79999999999995 -0.024119581247913757 -0.017875138141538002 -0.6658393470862328 -0.9267654373909985 -0.5745246895520001 -1.003176905040966 -0.015012824409241069 -0.011612746100419218
412.7 -0.026639180148183235 -0.012209397862844064 -0.7746136313957144 -0.8384564344154485 -0.6915679263807071 -0.92683713102946 -0.015444487585543721 -0.007993078463543081
418.59999999999997 -0.026039294341724244 -0.006145278866948032 -0.8705287486779394 -0.7364562761203016 -0.7988842236348282 -0.8368828316332112 -0.013270969368023975 -0.005083013830106497
424.5 -0.023832384312327766 -1.5439408426112926e-05 -0.9544383344858604 -0.6227986122344334 -0.894050055885397 -0.7310718090831706 -0.011578526109838175 -0.0005851078441843103
430.4 -0.020871729800058508 0.005429346943234702 -1.0160032864543422 -0.49935727062248547 -0.9720618935143082 -0.6141116113470202 -0.009309094954088493 0.0019442385005014296
436.29999999999995 -0.01815794198574682 0.009967880843958003 -1.068300868620703 -0.3689292859071867 -1.0378371228647718 -0.49015766583998605 -0.006778317067353464 0.006619647059748758
442.2 -0.01458096906938802 0.013461086633878164 -1.1049480494866668 -0.2346826077680163 -1.0867011706016405 -0.3612043026604736 -0.0033257180265841143 0.008507374451822574
448.09999999999997 -0.009264332636365896 0.019243969657703103 -1.1236363760083197 -0.09764293724825791 -1.1240825535864616 -0.22614328090702535 0.001201409282885017 0.011481207630974962
454.0 -0.005355272483676295 0.020892013655354993 -1.1251719785928656 0.039725801797489156 -1.1423259350639612 -0.0883102823685514 0.005749069344931579 0.014521350409737567
459.9 0.002757752600600313 0.022719494929767804 -1.1111159474515935 0.17859650064134017 -1.1418079364656328 0.05005409946362301 0.01166639725838493 0.015125872266995603
465.79999999999995 0.010015795815724718 0.023671591193030514 -1.0805693652675226 0.31187451888342704 -1.1268199827897167 0.18839726368309023 0.017384362157437185 0.016749764424028608
471.7 0.014227196400780096 0.022487189310075664 -1.032048256692116 0.44418592128875484 -1.095338592369235 0.3226487619505714 0.024295897746615006 0.015526073541326301
477.59999999999997 0.021317526509500747 0.02221477440887948 -0.970030130302272 0.5647893113714371 -1.0480314368211878 0.45418442131102954 0.02813982488338274 0.01563647750360116
483.5 0.02806695062499622 0.023038478237722093 -0.8933072435160772 0.6794286226615838 -0.9823873870300495 0.5762035138467082 0.03432535190366327 0.013000754421625694
489.4 0.034958249281286366 0.018890444991290705 -0.8034308753310377 0.7837234650394402 -0.9075138429523669 0.6917324047554128 0.0381504673245762 0.010319175306777551
495.29999999999995 0.04235734433433454 0.01663877013964504 -0.701551671478475 0.8740909102750619 -0.8159082506027481 0.7964731586533024 0.04446123397702129 0.007543941987549934
501.2 0.04885264139752251 0.01205073690668744 -0.5886500420988903 0.9530456499311425 -0.7137812379103504 0.8882952832505695 0.04942279704198605 0.002188158236713943
507.09999999999997 0.05289872004757133 0.0043270355780456685 -0.4657395737492913 1.0172372487603965 -0.6004245954844818 0.9676983871542889 0.05184793632439 -0.00421259229101425
513.0 0.057027786780784434 -0.0038676310700942436 -0.33820516019079594 1.0633912868995155 -0.479023315441919 1.0327783258419454 0.055976955335463374 -0.010380158105687322
518.9 0.05931201073964686 -0.010670800379486726 -0.20621731436987437 1.096361378029813 -0.35211838786235267 1.0812261870703619 0.05783001291299893 -0.015241202258394895
524.8 0.05887407967974528 -0.019223370252202474 -0.06940839133471888 1.1137345055739796 -0.22070912015682423 1.1161629410725553 0.058153601614356565 -0.022524477435075352
530.6999999999999 0.05865653767473731 -0.027812952699561983 0.06529934896972443 1.1109097057650463 -0.08448328860898066 1.1322408331629221 0.06158435957427854 -0.02856261487455209
536.6 0.05960759579031367 -0.03512995740141265 0.19862561505308132 1.0940989842615194 0.05441659251180627 1.134760879564922 0.06155023405475758 -0.03552416639964036
542.5 0.05750487986938993 -0.04336444931332823 0.3334842589823159 1.0622798314666064 0.1912812111914203 1.1224648120602383 0.06338804811473131 -0.044365693750452656
548.4 0.05545167891010577 -0.051695518941664714 0.45924187468233685 1.0140579140153687 0.32465763766600203 1.0909427791789201 0.06171894623795607 -0.054538362287052576
554.3 0.05436699661180405 -0.06129196409142032 0.5761302157497794 0.949967817450262 0.4546350405750286 1.0434569206420856 0.060124757288369544 -0.06335856832085077
560.1999999999999 0.04970492194541106 -0.06904068954004478 0.6860036660539496 0.8712334944025126 0.5760894475107734 0.9831547208785297 0.05710713193377934 -0.07761122240109129
566.1 0.04354721844853562 -0.08042012338233108 0.788409319258454 0.7816497314398604 0.68991774443502 0.9072908303670324 0.05039708001463017 -0.08725865159961535
572.0 0.032051030830634424 -0.08705650185873284 0.8752793181807237 0.6798149765729999 0.7960755339341156 0.8171479303127948 0.04073648528498588 -0.09608980366784005
577.9 0.0222277929385057 -0.09337248558213901 0.9539709491390588 0.5685241725850272 0.8884512955846846 0.7172695945605531 0.028183732300625937 -0.10413284279576825
583.8 0.009826184645961172 -0.09734393892398123 1.0150174651579889 0.4490477065285 0.9691195036617525 0.6057293049737044 0.01408405234519666 -0.10767405291697472
589.6999999999999 -0.0014996704894508865 -0.09903942642995343 1.0621955399189804 0.3204527431728401 1.035225146787747 0.48361272752046147 0.0008231884980595542 -0.10917004358745623
595.6 -0.01389627307567994 -0.09940674667083237 1.0943840864123933 0.19466410421907232 1.0757267640353847 0.35782576299437563 -0.015244576514094903 -0.11054069366459905
601.5 -0.027905576589824087 -0.09893179795424094 1.1144795329691428 0.06075644485219065 1.1120863178822618 0.22656457151142878 -0.03132274781517669 -0.10788384007100735
607.4 -0.04189599016287002 -0.09370876958430431 1.1116717513882586 -0.07313993956390488 1.1320019046144656 0.09249108036934692 -0.044961951331159725 -0.10254265236164672
613.3 -0.054856978096993414 -0.08746840907411632 1.0979991639581073 -0.20962295889190133 1.1365089282296152 -0.04586331637713941 -0.05893007637669943 -0.0949829002907673
619.1999999999999 -0.06681589857473337 -0.07819373267934741 1.0646331407007446 -0.3403759773399275 1.1228933914572592 -0.1829851709008344 -0.07156062665067546 -0.08403778585618016
625.1 -0.07691413079786893 -0.06714998966403297 1.014498911174477 -0.4689113987280174 1.0934895593807223 -0.3149606516628603 -0.0815747674639198 -0.07083421918029612
631.0 -0.08263817193009768 -0.05566906621423664 0.9518627001074258 -0.5892802081136262 1.0480585750137743 -0.44546626358070573 -0.08774460027395366 -0.05778161847960184
636.9 -0.08809177416682441 -0.041112675410460445 0.8716462679978477 -0.701537157101631 0.9879533635544065 -0.5697408696559251 -0.09234385175179965 -0.043657314302589414
642.8 -0.08905822781947759 -0.025726951125846224 0.7816576550596048 -0.8034573827604795 0.9109776934763225 -0.6845813833795149 -0.09368032517571905 -0.02866867647859796
648.6999999999999 -0.08634662088985467 -0.01195016301148865 0.6773435025719651 -0.8955120757125493 0.8224402610823037 -0.7923003719356734 -0.09187142706257688 -0.0140783273451003
654.6 -0.0852214177732548 0.00033953378063522025 0.5648784679617178 -0.9735369992048233 0.7213425584516626 -0.886957153599764 -0.08768906586603832 -0.0005483171080057618
660.5 -0.07993133644217593 0.01262889550683274 0.43964802704291495 -1.0370311471407134 0.6103888742942206 -0.969938663680421 -0.081419503103155 0.010150704742082052
666.4 -0.0700001905838741 0.023530680219552947 0.3106284661443702 -1.0869250646866662 0.4870217742320913 -1.0381196550688074 -0.07366567481609593 0.02140291375025461
672.3 -0.0636835224895094 0.031206618967828437 0.17399606805860243 -1.1172138574079906 0.35774371918820225 -1.0898653122015052 -0.06542282021310064 0.03129177787738949
678.1999999999999 -0.05285934736828126 0.03869862749323707 0.03653171199761753 -1.132352692451604 0.2205876118519094 -1.1261944746919497 -0.05555762799065049 0.03836505466884113
684.1 -0.042395291949021655 0.0428826398321366 -0.10496919810611664 -1.1290013731230228 0.08320487512329296 -1.1457449017930728 -0.04476089465729781 0.04254014427403725
690.0 -0.030365664542022698 0.04465493732300868 -0.24223967416850625 -1.1083884736411689 -0.05648561784379284 -1.1490504916291526 -0.033412374851183244 0.04309404760606675
695.9 -0.021576232540312157 0.044555734387145655 -0.3775802963678306 -1.073419360910108 -0.19735468597965208 -1.135071179913814 -0.021542162172402082 0.0417355783641167
701.8 -0.011005856794429112 0.03887667861242669 -0.5083978852859827 -1.0179373680080577 -0.33360451648804407 -1.1000623843915607 -0.01341565531986291 0.039594292078652484
707.6999999999999 -0.005113992634293306 0.03540090379875794 -0.6321981432389419 -0.9485600527064671 -0.4663219066347743 -1.0537133405251127 -0.005989215634744196 0.032391212760572746
713.6 0.001112187418237665 0.030668185779107595 -0.7444968651472536 -0.8640516119722316 -0.5902643863527924 -0.9890062886788986 -0.0010913796291529602 0.02381163898142849
719.5 0.003114539847976189 0.02320751415615792 -0.8456843529477215 -0.7654323603650681 -0.7077501129839453 -0.9103490105015181 0.0007041469723403233 0.015758944388788918
725.4 0.004091602046433837 0.01821948145486099 -0.9317068903019461 -0.6548649592854815 -0.8151818180965108 -0.8165604817620613 -0.0022890883599433563 0.007671016281408909
731.3 0.005475988766967637 0.012579296152985846 -1.0090950093874478 -0.5351497009087718 -0.910355266003928 -0.7102577885861664 -0.006235419316534922 0.0019394763604463335
737.1999999999999 0.0028556501916437694 0.008632286040897361 -1.0661875317575462 -0.4075541590683036 -0.9910992761304517 -0.5960636543960957 -0.010897249864879789 -0.0008189632125596845
743.1 0.002285773803990073 0.005064858455755255 -1.1071215489151938 -0.2710432957656494 -1.0579079536158242 -0.47208440848121846 -0.016142781439895365 -0.0003766492183467539
749.0 -6.86188595013505e-05 0.003981716289366816 -1.134853814637058 -0.13353280632971531 -1.1076393055069453 -0.3406260370274449 -0.021298660123048704 0.00043562657190344555
754.9 -0.003928012996590409 0.002135628695956367 -1.1456517385058351 0.011714837583313263 -1.1387408876868985 -0.1998590809629753 -0.024791202365592627 0.004302662217110797
760.8 -0.006821040332397567 0.003305681305825443 -1.1363341425638795 0.15263822236932204 -1.1532843269010078 -0.05896704036543008 -0.02713402909937152 0.008015122468792447
766.6999999999999 -0.010455547987038315 0.004027343089211069 -1.1085712092365354 0.2924248644865904 -1.1508309969194115 0.08116068045906176 -0.02931459071389093 0.013331348922191748
772.5999999999999 -0.010947634310324783 0.006193555629148036 -1.0657373819005753 0.4284321438516068 -1.1344564549451406 0.2210108747549678 -0.030408321556099 0.01902810179763599
