!Created with skrf (http://scikit-rf.org).
# MHz S RI R 50.0 
!freq ReS11 ImS11 ReS21 ImS21 ReS12 ImS12 ReS22 ImS22
100.0 0.011684440573216427 -0.005730979160968311 0.8537578655548338 0.49237257421856245 0.8683263666642199 0.474371784885078 0.014595568944794723 -0.008696176659111064
105.9 0.011343696658299733 -0.007333041943323335 0.8513479768643423 0.4948533375438601 0.8589137211827281 0.49016762959758015 0.012464059461015548 -0.010728017708071648
111.8 0.06135957789125216 -0.004859198312269428 0.915847392963035 -0.36420087994787176 0.9229523671793112 -0.35455165732415755 0.06887008156483436 0.004407151090765184
117.7 0.06521083974048296 -0.020052021651779574 0.9111784907494804 -0.3773335360283432 0.9255831412854088 -0.34853159136033307 0.06326719345263755 -0.012853274189915451
123.6 0.048109744882546025 -0.029342493197979325 0.9154144931932399 -0.3666724770560518 0.9111033827589161 -0.3874482445638955 0.050348635205079206 -0.03501553954887281
129.5 0.03771527489506201 -0.038994601287516716 0.9140523719291499 -0.3705473121701958 0.9020487643559449 -0.4048188643411508 0.04190029658382412 -0.0450158240501156
135.4 0.0256597650994153 -0.05265011079731328 0.9043033758993199 -0.39851518076910175 0.8901991849666452 -0.42549978526575427 0.033767637935012945 -0.054717659486049605
141.3 0.013210650950843955 -0.05121545304696286 0.8915972502439192 -0.43022607758632064 0.892165749251705 -0.4297031196667932 0.015541003711613398 -0.05834226012670878
147.2 0.0035212114002429198 -0.04885164047497884 0.8614371333767645 -0.48057926685096053 0.8912644845015711 -0.4214857512215999 -0.005686944439217328 -0.058596189983081894
153.1 -0.011585107334226909 -0.05219704237596997 0.8677396433840896 -0.46546272129947963 0.8719490231147091 -0.46009340075339655 -0.013156158802000984 -0.057848660376286845
159.0 -0.011628881683150337 -0.036853784961303114 0.8734382438920109 -0.4609871972061534 0.8521979326148001 -0.49272248903138144 -0.01753192558459818 -0.04683678121174037
164.9 -0.01931945834147216 -0.03371256950968938 0.8509221488511218 -0.49895274850958243 0.8636332363173341 -0.47428696554424055 -0.02892873961610303 -0.04063899334319692
170.8 -0.02278350964822248 -0.025682108171462086 0.8443365414084948 -0.5073706829271296 0.8536153594261229 -0.4880168218158331 -0.03595364289111562 -0.02900251276377015
176.7 -0.027753033457575654 -0.021195311384192107 0.8312688272841772 -0.5201204630765072 0.8285650660423123 -0.5323364207592859 -0.032245419515458874 -0.016504542368623455
182.60000000000002 -0.02402515416543192 -0.009394906426782269 0.8339942882080763 -0.520098025619262 0.8336519771271296 -0.5182091006033375 -0.02598628921822517 -0.010036630776164887
188.5 -0.02753737682859251 -0.00301912472848044 0.7944174492584767 -0.5805922584255935 0.8091251028640857 -0.5552530560617036 -0.030590171432680908 0.00558742633020093
194.4 -0.012237789202060612 -0.002437897959995391 0.8067556830589108 -0.5585726538318149 0.8066800291520081 -0.559346771157508 -0.01749165979221908 0.004154982876750692
200.3 -0.00983394275256914 0.00550784949597361 0.779863484847482 -0.5993364216850471 0.7948357388349634 -0.580106308563982 -0.009476867897584472 0.003591268177381563
206.2 -0.0011413006393215823 0.0030559618801171144 0.7959630831715291 -0.5793710762560216 0.7950664536724006 -0.5781452885451166 -0.003147122295148419 0.002752168997630318
212.10000000000002 0.0019171263325828615 0.008085403155468076 0.8028611419996887 -0.5680079000884033 0.7809486254985669 -0.5906880657148111 -0.008397754537772651 0.007104059500563839
218.0 0.009362751105722045 0.002947448750160767 0.7606573806381918 -0.6222268420611069 0.7540181975471347 -0.6303541223426361 0.012402043742803064 0.007890759789362642
223.9 0.012826981662009263 -0.00048183084234953164 0.7525061989617053 -0.634811429309967 0.7621877407476433 -0.6205313846465869 0.015395531651611867 -0.0019392791012789571
229.8 0.010936888244188982 -0.004333659800282748 0.724390744953746 -0.6666554363531803 0.7375492889416019 -0.6468539751712348 0.026502251668982162 -0.005057397028078206
235.70000000000002 0.01801417797334481 -0.015286562715196024 0.7249112684532065 -0.6596914417577442 0.7409435343217974 -0.6486418104966655 0.01666693815639525 -0.008964619769213247
241.60000000000002 0.01662289674876118 -0.005272979948840448 0.7185362508835418 -0.670364234974704 0.7073097488833819 -0.6842667567232628 0.021629445824984935 -0.009024185322390509
247.5 0.014631223932853727 -0.008397287401130226 0.7035925085745488 -0.6868312915384072 0.6911765804741246 -0.6967437435199576 0.024998959388318993 -0.016237401630503415
253.4 0.017924676134242628 -0.013444719435200331 0.6950692450055117 -0.6928352987883767 0.6741049813292167 -0.7116901865268543 0.02258695006507634 -0.024032193431622644
259.3 0.01323426827056087 -0.020232849742057534 0.6695959701215903 -0.7184881309607779 0.6903864533761195 -0.6989259342341777 0.01976456656491941 -0.028961780041034117
265.20000000000005 0.0050459103888890605 -0.014042700643723222 0.6778192501155818 -0.7095577058086124 0.6540179238950272 -0.7290501195336203 0.014921803031435367 -0.03144849608267129
271.1 0.0053855646818016896 -0.01979778688613953 0.6451112301243398 -0.746486504112706 0.6725622069665512 -0.7205280868797105 0.006308584106948501 -0.027938657590494978
277.0 -0.002108974420965705 -0.012595478646258621 0.6304116885926117 -0.7615190150129377 0.6431108804183382 -0.7443470718478241 -0.0008998221723763434 -0.03410596421207691
282.9 -0.0026972923119859154 -0.006967128875595442 0.5990699679903856 -0.783604596068499 0.6380991294672445 -0.7474688374267899 -0.008004587387220853 -0.016746589054723815
288.8 -0.010091992829741613 -0.00757983578935518 0.6034068171012641 -0.7760136284233193 0.6160366121816512 -0.7641470822828476 -0.008208052490479923 -0.024439291325149222
294.70000000000005 -0.007640577102061735 -0.008695026645088927 0.5740496947212881 -0.7944930100835679 0.595205749000282 -0.7821049493727409 -0.0011460216138429648 -0.01765350991819771
300.6 -0.012343800461598862 -0.012950874138594134 0.5904197809976355 -0.7825708394272272 0.5564051577968592 -0.8081633799042922 -0.00779359776388503 -0.026586477871513782
306.5 -0.014278680240012673 -0.0032932723884593414 0.5560064379960054 -0.804266082440613 0.5609046784975701 -0.7985547954046931 -0.010304894986357812 -0.01793064167816288
312.4 -0.011394646497335277 -0.004694440931929272 0.5332729808566508 -0.819628098744948 0.5328395595643821 -0.8234779850602411 -0.00574772569510554 -0.023801360411172704
318.3 -0.0015614490597239958 -0.013717889537500345 0.5520818764570996 -0.8090425399417038 0.5218987285527392 -0.8294963177301122 0.003263787292286052 -0.022890639775867746
324.20000000000005 -0.008291347640916843 -0.004183125821002142 0.5277014018207707 -0.8268039504550101 0.5296422982315729 -0.8236516662160913 -0.0064394200191454296 -0.02475618990405893
330.1 -0.007390863986184269 -0.01072856736950426 0.513223920773187 -0.8360302515474201 0.5287546704959111 -0.8269567094106984 0.00019173526437726008 -0.02253870522020293
336.0 -0.01140968240131962 -0.011586551464884166 0.4788629644303006 -0.849971073377281 0.49777065349662597 -0.84053094158181 -0.006697124456979084 -0.03095331631678188
341.9 -0.006938300288568751 -0.011161964168953344 0.4736805593184132 -0.8615120075404424 0.47141440395860046 -0.8578206652912774 0.005421876114970934 -0.03609890828903201
347.8 -0.024639085359091324 -0.021734097752285898 0.46276965654236585 -0.8617633963350678 0.4555389104611583 -0.862546841174293 -0.011436191898959544 -0.040153200307924644
353.70000000000005 -0.019260124789195122 -0.015553859573746855 0.4319609447523402 -0.8743507351009824 0.46526959571749615 -0.8575182762379465 -0.0037085451165260325 -0.03806124535856524
359.6 -0.01727676284800505 -0.020901023712689953 0.4166153833968301 -0.885776436803271 0.4451037654791383 -0.871447456778517 0.004052122546290629 -0.05127221179655028
365.5 -0.033697599333430604 -0.024776493518623256 0.41444031079233623 -0.8827640626101838 0.41913296834016356 -0.8800790834883877 -0.005445301985131743 -0.050012275543403685
371.40000000000003 -0.047621905363556004 -0.023391404911769213 0.36515677968693677 -0.9066914315057697 0.3777225732693773 -0.8965296229990172 -0.02149161920451309 -0.04860081698231531
377.3 -0.04599969518960621 -0.03172683778298295 0.36466449364349635 -0.9035470298214785 0.38702562310908367 -0.8914090435725401 -0.023287898890907918 -0.062339109051214946
383.20000000000005 -0.04579808723102281 -0.028067693125912927 0.37762255236617787 -0.9000613156465994 0.3740796902168618 -0.8971714581280237 -0.025150665599389735 -0.062397886936374214
389.1 -0.05369635526397463 -0.016456046917215906 0.34575039893164977 -0.910133047955868 0.3398004098922818 -0.9117407872822576 -0.03826392331117419 -0.052299879076731205
395.0 -0.050634545822401546 -0.014321380350053639 0.34888614293786274 -0.9088742234896926 0.3170763693855059 -0.919760130996275 -0.032170918639923135 -0.059666104858262174
400.90000000000003 -0.058314622275814805 -0.006810621543932886 0.32553783395858094 -0.9161751379732879 0.3230914423492191 -0.9181710116483552 -0.03226044563009762 -0.04675188952293436
406.8 -0.05208190107810466 -0.006173613839642703 0.30114022296476217 -0.9266246534084528 0.2636550699841882 -0.9388557142461023 -0.03013749417396526 -0.04791161529486356
412.70000000000005 -0.04437078579210009 -0.005197898758086547 0.29115677562795655 -0.9322153544067489 0.27563814515167073 -0.9357849584453777 -0.027936801041770598 -0.042374597802266566
418.6 -0.04678725420369511 -0.008794677188557849 0.2505438328874378 -0.9432040206189549 0.26898435290081785 -0.9367327006433895 -0.031813761784758345 -0.04630619003520429
424.5 -0.053667357184119704 0.010626919380067188 0.23412529754531394 -0.944370297594744 0.21934736825016168 -0.9501039363937827 -0.030564589557701742 -0.03136246239976174
430.40000000000003 -0.04353322185463777 0.01365039130696496 0.2605810721231034 -0.9446531317861221 0.23028283448261214 -0.9521524562875302 -0.021571815352019144 -0.02266327386208473
436.3 -0.036879983299358016 0.01203967154816782 0.21230196059752054 -0.9553192990487204 0.22072568302333076 -0.9544036390449789 -0.021487243236786156 -0.026081517844157086
442.20000000000005 -0.031029035911901627 -0.004062249120770308 0.20019046532840315 -0.9592539063818062 0.1944755470740818 -0.960886896149037 -0.02122372864491716 -0.03657624938526856
448.1 -0.026691480157858546 -0.0007227464283734713 0.1470462928534719 -0.9716491020250716 0.18138652487498483 -0.9634708873109318 -0.009355672194983206 -0.037165776615427845
454.0 -0.021139884971536668 -0.006532574791517977 0.1296601373022985 -0.9744968690483508 0.1319556663734067 -0.9709563205715752 -0.00508898051823256 -0.039216962655353745
459.90000000000003 -0.023706766496923482 -0.005580925580948838 0.09451108323361564 -0.9760248513916778 0.12746820373188453 -0.9746867612167581 -0.009369288128744822 -0.04120511641589535
465.8 -0.009540835855371816 -0.008939472219454868 0.1011794153388353 -0.9790495011551062 0.09507062395670851 -0.978692464044848 0.005238239746320249 -0.04072480183701431
471.70000000000005 -0.011770353126510771 -0.022684687682656742 0.0996553971409633 -0.9793384138397103 0.08108309844541348 -0.9770608423093212 0.006346869557557322 -0.050207592374397855
477.6 -0.024828290709724397 -0.018091798242096873 0.0784821718941336 -0.980282286547011 0.08243342658721375 -0.977658140122349 0.0009207962246058579 -0.0478217500140864
483.5 -0.03712094683739058 -0.019738690962148666 0.048223432007748895 -0.9778030807664285 0.046043174925292016 -0.9852107416400825 -0.012696321213020454 -0.053852269842723025
489.40000000000003 -0.025802461850805685 -0.019245345545520938 0.02668524214855669 -0.9818897731098085 0.02065975697255943 -0.9811887654103 -0.004773838970449342 -0.04827139268923712
495.3 -0.03683623719380221 -0.019433553627151025 -0.0071131754402457845 -0.9828587254688487 0.016370208979878106 -0.9797878992578696 -0.008077076133692187 -0.04728058493546429
501.20000000000005 -0.036511152581457054 -0.011979520059660137 -0.025488991864747457 -0.9820273561865315 -0.018893868908926522 -0.9827044624817901 -0.009303537122064458 -0.04667092742803781
507.1 -0.056126080928698675 -0.002280613097091287 -0.00643618006954376 -0.9797566104231503 -0.00963565778599456 -0.9811048578327308 -0.025765336078267084 -0.05515375320724705
513.0 -0.03989200189583192 0.002366495984074622 -0.054526337076939206 -0.9827531033994582 -0.03331794537116162 -0.9823056362036231 -0.021223353902680007 -0.04451071161192014
518.9000000000001 -0.06106363986877727 0.01271459970156121 -0.05846239219840253 -0.978013000094867 -0.06438792728800763 -0.97938091566341 -0.03348600193915185 -0.03845205979197104
524.8 -0.05410233704014756 0.020665849219122255 -0.06123066109088162 -0.9784977626875667 -0.05249938826220143 -0.9803301171932439 -0.029853942103083026 -0.03369790478266641
530.7 -0.05497815155466592 0.032579641833280666 -0.08788748856582164 -0.9824522792372906 -0.07974099364302027 -0.983288610710682 -0.03836102553757288 -0.01813768586177487
536.6 -0.044479463194725836 0.036035499147653575 -0.11140265792415863 -0.9804153400787174 -0.10982281683940759 -0.9800464631194409 -0.03727075141547471 -0.016420717368967566
542.5 -0.041899321173558046 0.06126656408222868 -0.12958469263663513 -0.9765568974143694 -0.14978015343386192 -0.9731413320123558 -0.03255687776321184 0.004285530735691767
548.4000000000001 -0.029674357022628592 0.04763428116885988 -0.12803870840553241 -0.9767561353370967 -0.14457860490951147 -0.9789251171696225 -0.029461458422888626 -0.005133214725097847
554.3 -0.03838773351335548 0.055829304094761736 -0.18263978209486054 -0.9672294062006354 -0.17805046974034394 -0.9686558324210645 -0.03873131448998265 -0.005498422274608548
560.2 -0.02259285360026928 0.07231962241119824 -0.1641160372562322 -0.9720114783918886 -0.21377612352792785 -0.9661956120337333 -0.020914091389616824 0.024012842238372026
566.1 -0.008892240896814348 0.060429715020676296 -0.22860316048617038 -0.958592603566843 -0.177516519433206 -0.9731675528808316 -0.010105755937049897 0.011392001278886031
572.0 -0.0018610387975759122 0.06502376708887245 -0.2428308634158239 -0.9586001778625818 -0.22784555485003577 -0.9654008722438034 -0.003786241859278987 0.01679646917509443
577.9000000000001 0.004398244107764818 0.059509844266554784 -0.24805321126524146 -0.9527687352803501 -0.23586232207835411 -0.9596082317054968 -0.0028573330110295407 0.010384259509374641
583.8 0.009321295236928191 0.05170945986654341 -0.24995216470463022 -0.9512296401252622 -0.24770489458397477 -0.9553934007243764 0.0025813248732864287 0.005252775170326828
589.7 0.004339225531154181 0.04654293258258656 -0.2519472869938895 -0.9500032250926723 -0.30306975861281943 -0.9394812680994135 0.0063256895435996685 -0.010865429529082192
595.6 0.010510772558498457 0.04218672801521595 -0.3031384082298276 -0.934437727887468 -0.30971458199193513 -0.9324515048306451 0.0021102135382426476 -0.003436367335963602
601.5 -0.0036611398268798293 0.02866856710424542 -0.32244887166260344 -0.9208052482896049 -0.3380729886686164 -0.9202407249484715 -0.012086616197426259 -0.024822175115904604
607.4000000000001 -0.003117614278234528 0.022040586578417763 -0.3298556899591814 -0.9218503680451712 -0.35242258165716805 -0.9125576906794336 -0.015113658201519328 -0.03286977270030581
613.3000000000001 -0.018327965581377267 0.015063191073061083 -0.3639759383313513 -0.9033554014420695 -0.36524352033013674 -0.9015782716754427 -0.023979832758138052 -0.04007472881311843
619.2 -0.019159636791357446 0.00876892120158454 -0.35757685110863285 -0.9070763543963003 -0.3848493538710229 -0.8984810564815572 -0.036122532558530485 -0.04647703776407465
625.1 -0.03845710986021249 0.005351843559649468 -0.40305775848428566 -0.886862571861744 -0.4119883063641632 -0.8822147766484432 -0.0450613526100784 -0.051100278776908745
631.0 -0.044740827303414915 0.01898309220708608 -0.41798918969434756 -0.881312067860274 -0.41722724510895265 -0.878081537516346 -0.05082777933801467 -0.04243917107938253
636.9 -0.06542223271269455 0.01726037811829507 -0.40933204554223884 -0.8826396344111612 -0.41764594521655024 -0.8759494358457786 -0.08409788725540457 -0.042782576654701816
642.8000000000001 -0.07888393807231316 0.03539264645392419 -0.4665428447548696 -0.854350878981648 -0.44570797910427895 -0.8662236602304583 -0.09032177952659942 -0.029456269489923588
648.7 -0.08845483827241944 0.037746865574350384 -0.4548382196843183 -0.8560655809232351 -0.47174484739532085 -0.846412996675121 -0.10628475529734263 -0.03539498257348585
654.6 -0.07667620777730977 0.04987445930650944 -0.4647696334511725 -0.852498845901898 -0.4649573861236868 -0.8498874575067512 -0.10537021083665613 -0.022474243865240755
660.5 -0.09053887567917202 0.06614167282893911 -0.5020141190759771 -0.8309866528100351 -0.4882923750996191 -0.8363718543299855 -0.11672696268541435 -0.00683889457565154
666.4000000000001 -0.09620843043999364 0.07077117355636178 -0.5166165203858877 -0.8200297517131055 -0.49652036211423095 -0.8278352014557703 -0.12722864142305304 -0.0029059986363346143
672.3000000000001 -0.08227855149109022 0.08768360177377617 -0.5165873494927473 -0.8199753630961056 -0.5186868874470731 -0.8157768650461981 -0.1236370903200094 0.011072594002409867
678.2 -0.07700941541394914 0.08868795235938037 -0.5326430914748552 -0.8085759551491091 -0.5342700967202755 -0.8071537839430212 -0.12483173939688007 0.011439289754943616
684.1 -0.05362035026659814 0.11719495334406738 -0.5284736645073395 -0.8012362239573201 -0.5600223343760409 -0.7859541001803673 -0.10099356835425985 0.03594824635421458
690.0 -0.04283720288017628 0.11333466687736782 -0.5584033379814276 -0.7859790150072222 -0.5560123391875387 -0.7944617067714225 -0.0933003479875859 0.03604225739352213
695.9000000000001 -0.00920802182858974 0.12099809113702407 -0.5715888473212294 -0.7754354285909086 -0.5790523082830448 -0.777434641823829 -0.07356887698777453 0.04550937302064752
701.8000000000001 -0.0068308473082830355 0.11608061555586838 -0.6069757905198753 -0.744766324325111 -0.5808130407730474 -0.7749056405157672 -0.07046397708965448 0.04390742300266104
707.7 0.008603228675876247 0.11087842135958417 -0.6146954353756254 -0.7437075565116955 -0.6143238597892522 -0.751442432644893 -0.05995577576882032 0.03506590376251953
713.6 0.01686765534878212 0.10418129798997014 -0.6143858389803452 -0.7447850039082435 -0.6311374872896736 -0.7410854077074969 -0.049105129237278645 0.031874395899493736
719.5 0.0319323292206526 0.09183337743569663 -0.6450417863733825 -0.7199430535015522 -0.6435586548069323 -0.7313096268502823 -0.037069378047267176 0.027581459460134263
725.4000000000001 0.03086474312817429 0.07532571882636942 -0.6381416908286942 -0.7303080796345542 -0.6413974008144305 -0.7354490854626816 -0.04039908990487248 0.012625385938516536
731.3000000000001 0.0394693063138685 0.06454748188421486 -0.6399870683725991 -0.733270750329416 -0.6683334272742648 -0.7109907693627275 -0.04089100338376222 0.00851951685776026
737.2 0.04527091514639411 0.053285197613818065 -0.6796198708565876 -0.6921333097401187 -0.6765857792142207 -0.7035338762231036 -0.030428822577055776 -0.00609192553145199
743.1 0.03358039898565092 0.04295366456429504 -0.6932667627541466 -0.6851065836540027 -0.7041921905739069 -0.6713890425238065 -0.0444808064770704 -0.011160865910692671
749.0 0.01826253605484607 0.03312422084918154 -0.6983331045120287 -0.6759191378937964 -0.6904533306085753 -0.6845944796669796 -0.06343691227031477 -0.025198572785773716
754.9000000000001 0.02284811445325365 0.026556089234311877 -0.7125130165514642 -0.6546618599182252 -0.7118319691119533 -0.6631711027448887 -0.05526771652002029 -0.032965308635696515
760.8000000000001 0.008821052344654155 0.019186544155559784 -0.7283993781236276 -0.6428069012982205 -0.7321098117336721 -0.6287793279489738 -0.07072909492002624 -0.043957906648056884
766.7 -0.008718109051222365 0.020638674616545123 -0.7454412874855755 -0.6250662130742256 -0.7486103810903125 -0.6090540635378443 -0.08746649930933856 -0.05296778827375455
