!Created with skrf (http://scikit-rf.org).
# MHz S RI R 50.0 
!freq ReS11 ImS11 ReS21 ImS21 ReS12 ImS12 ReS22 ImS22
100.0 -0.0002833123231381986 0.007154984551935684 0.7636322860064215 0.6155585037910956 0.7807693697941156 0.6001108220512879 0.0028602417779423164 0.0009567282457258762
105.9 -0.03536214085739374 0.013322248894441367 0.7854808050629317 0.593866351263877 0.7933005646817803 0.5898773247608885 -0.03218931192211628 0.006792770889759118
111.8 0.055155994823056234 -0.014356462439074612 0.9150494789608755 -0.35677078132520484 0.921903246687688 -0.3473151949734389 0.057315664930889826 -0.007280591919639798
117.7 0.07586842602155747 -0.0011892578594869408 0.9134446754059894 -0.371692649854879 0.9280413268136574 -0.34327640767830964 0.07907705536630992 0.0056994834348179525
123.6 0.05917815429081458 -0.032647201818678855 0.9229400887330793 -0.35252504325038064 0.9194770978525199 -0.3730545272326543 0.06309010660900854 -0.02723553655390467
129.5 0.04237564284284427 -0.041208287767418146 0.9189959397354439 -0.3557575216524438 0.9080634741888627 -0.3896774369162807 0.046342112669312145 -0.03609578204104846
135.4 0.030876171931180897 -0.05466010806764634 0.9093627641049555 -0.38015242722626974 0.8961032281437226 -0.40698688517164605 0.035902704216501255 -0.050569902781353517
141.3 0.03366363318539736 -0.0439436728088565 0.8851199296851252 -0.41982007775091856 0.8864672800543191 -0.4194950127223001 0.0386949568062966 -0.042656837815112106
147.2 -0.0182354041833829 -0.07160700323599334 0.8583674430386911 -0.4832894757841265 0.888691935044365 -0.4248589949002749 -0.014503576819783018 -0.07129436673525354
153.1 -0.03761290674860521 -0.07044087040755091 0.8859278600997145 -0.42573090469135844 0.8901372736034651 -0.42033661540808065 -0.03388580589675242 -0.07056765726851558
159.0 -0.009774803632927785 -0.0419154017242413 0.8824576815654553 -0.43619894240795093 0.8628642901179389 -0.4689421253415264 -0.007972151889477553 -0.04330059455179845
164.9 -0.035834995831768794 -0.04137181815271996 0.861108601487811 -0.47177496045369466 0.8733235061339744 -0.4474673558371548 -0.035998766370843364 -0.041838238842081384
170.8 -0.01870918688743133 -0.025013172734869832 0.826648336966536 -0.5334308938961796 0.8366612900249094 -0.515475826073923 -0.02074362430180353 -0.02436729425959477
176.7 -0.025783394119620245 -0.018358827594427314 0.8262629092902601 -0.5243398590894799 0.8233579883718203 -0.5364956331010267 -0.02965988749251887 -0.01503379400229743
182.60000000000002 -0.04082045587710285 -0.020071901189891904 0.8347567333164896 -0.5163145019034271 0.8346025031971923 -0.5147616081955187 -0.04418654241842446 -0.01382984246345459
188.5 -0.03201190355513352 -0.007181109800932749 0.8029349796852715 -0.5606937777129273 0.8169135624371879 -0.5351481703242699 -0.034245833422340825 1.2636503307721549e-05
194.4 -0.011471477231093503 0.006721304526552332 0.792042665163207 -0.5737362959768834 0.7919413349659858 -0.5747926887003729 -0.01202895524046517 0.014230701125768385
200.3 0.004290061349303905 0.0046673974092876595 0.8009069494270278 -0.5692416909755919 0.8157788649142897 -0.5496830718578212 0.004203219543279625 0.011165691310888001
206.2 -0.01891209092604617 -0.004102679185827155 0.7730573011400219 -0.5907315464067984 0.7721568677510199 -0.5897636792846206 -0.017670702207800922 0.00290891694536633
212.10000000000002 -0.02125722336204499 -0.0012909158312885255 0.7804292971180129 -0.5877679889248855 0.7573229381929101 -0.609686150601436 -0.01930964413963835 0.006015066916346162
218.0 0.0020932219247293813 -0.0027538732859276917 0.7444825311250619 -0.633172295290415 0.737733000566279 -0.641117588798958 0.005831776435098209 0.003433970364511987
223.9 0.024648660637588582 -0.007726959825980701 0.7442341156923802 -0.6462312047267439 0.7545188194452999 -0.6324156254917941 0.029635544008447718 -0.0011509143369917653
229.8 0.025223910686087633 -0.011168168282050403 0.7215065269829497 -0.662881382620243 0.7348425682828821 -0.6427269278371465 0.03224952576107933 -0.00690675736596864
235.70000000000002 0.00012081882793943352 -0.02360673128867255 0.7223384317635458 -0.6554582875680198 0.7378352571872433 -0.6443333623509875 0.007567954131665212 -0.021117275182183544
241.60000000000002 0.017386139061565564 -0.016586353465599522 0.7299483400176353 -0.6519348293470915 0.7191762913121315 -0.6661653500188242 0.025171077339053383 -0.013776181011178957
247.5 0.0030484380717960956 -0.02245708700350659 0.710609324573552 -0.6749377251363244 0.6986990728490482 -0.6849944021673797 0.010351564938665906 -0.022564966699652515
253.4 -0.026669604470884786 -0.028161960551098476 0.6991523404305352 -0.6843956625126912 0.6784972449514887 -0.703615959231727 -0.02125503121079389 -0.030464232690568
259.3 -0.023769480142736544 -0.02607931666678423 0.6759180431934761 -0.7114470535520759 0.6969522608700429 -0.6917482592697649 -0.01781637186638723 -0.03074800869789117
265.20000000000005 0.006846433977304669 -0.018736145927952225 0.6856264677564267 -0.6984054140128287 0.6626463117034781 -0.7181205444012074 0.011350060298543409 -0.025365115804239776
271.1 0.008799083235126506 -0.029912345768201277 0.6278038497178238 -0.7567601305053212 0.6555741491846431 -0.7315420171278629 0.012216529285403914 -0.03724365803893893
277.0 -0.0030913078782111884 -0.021912306170404166 0.6299886872205959 -0.7563289066914274 0.6433679248021551 -0.7397662852824397 -0.0004702958361250255 -0.02729011484034685
282.9 0.008153287098924348 -0.014110016643770668 0.6182342470028728 -0.7656095187427999 0.656099337402337 -0.7290261652152613 0.010509345037516597 -0.020601107307360735
288.8 -0.028162095763498665 -0.010633077657596484 0.630015390876374 -0.7524220645481222 0.6425671464205316 -0.740697781300092 -0.026275166171528728 -0.016975646420430323
294.70000000000005 -0.0011162913159352085 -0.005613771291734408 0.5968940712271491 -0.7751100240356303 0.6179178053851455 -0.7620234430612373 -0.0009274804367985933 -0.011734859820786911
300.6 -0.017288849766009078 -0.012130559575950573 0.6106581581132084 -0.7628347518756308 0.5779153217969645 -0.7897617844485607 -0.014610340751608511 -0.017449203779437858
306.5 -0.0015719886021438175 -0.004180294785212762 0.5590750980636361 -0.8045990205017386 0.5642038744625286 -0.7992865488626689 0.0011830052227832515 -0.010193524934327673
312.4 0.006549999903680522 -0.007953778622351552 0.5559146021930544 -0.8048843142570907 0.5560021873691823 -0.8091993087810482 0.011437485466311882 -0.013883766677493902
318.3 0.004755109935752953 -0.008698476603107292 0.5555992117691102 -0.8057609705512649 0.5255439734099285 -0.8265410552613027 0.009772419162631652 -0.015565263203001998
324.20000000000005 -0.01867950571305723 -0.0007125256772657582 0.5204162466886438 -0.8319105440464767 0.5221697782707567 -0.8295621486971032 -0.010613781516637383 -0.00904867152347189
330.1 0.010119877908255233 -0.012636248820002182 0.49215302565388896 -0.8505722564334746 0.5075437445373396 -0.842162080442438 0.02093785190596592 -0.0222115231783357
336.0 0.009715894513543592 -0.020532320119597422 0.4607902600611792 -0.8678526712073371 0.4797717276600972 -0.8593216071499374 0.02168175383713298 -0.03216329863081802
341.9 -0.061593269542743405 0.005714143416077016 0.523300999559605 -0.8229807138924655 0.5211874383699944 -0.8206691921358166 -0.044552813781550585 -0.007209442548644792
347.8 -0.015469487129614618 -0.020528154736388894 0.4747305891878837 -0.8598673201504506 0.4671205502361986 -0.8610710794858316 0.002209801352071803 -0.03735239960269501
353.70000000000005 -0.0164438604817456 -0.013386445745901972 0.4327929311457914 -0.8757010406905625 0.4659277810159201 -0.8591567398979837 0.00357885357516601 -0.031931155647194266
359.6 -0.0310378237644608 -0.012396134466922814 0.41794002323565055 -0.8793396206611223 0.44681591310372 -0.8655659228829354 -0.010693683854208004 -0.035758013116685465
365.5 -0.010149106721120876 -0.025979258076913564 0.3974982319625805 -0.8948046835878006 0.4013860274272623 -0.8920452885275553 0.010310492360950612 -0.05291095708653596
371.40000000000003 -0.03507215808270437 -0.01258064997488174 0.3698627676612481 -0.9043134361823466 0.38224520008868285 -0.8942573622468236 -0.015466441558056293 -0.04296309151658043
377.3 -0.042885265447098336 -0.01964614742483833 0.34815448932356824 -0.912247332844239 0.3708220979845116 -0.9007945733678994 -0.023626894012161045 -0.052048442168838464
383.20000000000005 -0.036952361701216976 -0.0215980466704955 0.36585412380536986 -0.9042975388155834 0.3619537626646723 -0.9015282053820324 -0.017499721861815153 -0.05782942282607893
389.1 -0.03550711702381856 -0.015800969210829595 0.37899670138405933 -0.8952080735209005 0.3723350812960218 -0.8972260908189211 -0.017047728215860036 -0.05368077247033493
395.0 -0.03603173840749026 -0.019228404422727274 0.3335188765807552 -0.9124580043926066 0.3013123197287139 -0.9225195856128412 -0.02067605922019368 -0.05902800706552454
400.90000000000003 -0.03996845007875838 -0.00826578759565668 0.2975304765003328 -0.9305486076768207 0.2945756769045766 -0.9316104540231483 -0.027529652758120342 -0.05091952384927096
406.8 -0.042461384017996824 -0.006507583897759253 0.29677907865842384 -0.9218443804199832 0.25952565456389254 -0.9333594776540706 -0.03167711944394358 -0.05005373823962893
412.70000000000005 -0.047512867810365934 0.017737300671572302 0.28790288877771025 -0.9247536401441998 0.273008906564156 -0.9288069245055076 -0.037728294357959845 -0.02507251316477958
418.6 -0.03223808192796407 -0.004025260087784367 0.25487638262977735 -0.9381559346309846 0.27279257988905653 -0.931399497092495 -0.024454467024601752 -0.046059148696600265
424.5 -0.040818059134199634 0.016939507103960475 0.27513835974388695 -0.9293292319380718 0.2610808483344874 -0.9359616394592537 -0.03309819581812467 -0.02427091156841275
430.40000000000003 -0.04078822356161625 0.03821229180326188 0.24746517973687304 -0.9399313348229452 0.21860754393088874 -0.9478308968317672 -0.03551019029084413 -0.0033224777535294397
436.3 -0.012553843913215866 -0.005233802651175603 0.2302381433014083 -0.9473449140588288 0.2380288383530388 -0.9453804729221807 -0.007798306766002185 -0.04381704863187364
442.20000000000005 -0.02244163787027258 0.005361697735995378 0.18211322475402839 -0.9549676998625568 0.17630839683574043 -0.956510846738759 -0.018222603359810685 -0.03195829333246333
448.1 -0.01788923774268384 -0.00777920855741181 0.13444370701790972 -0.9641183908743793 0.16856535278285054 -0.9559859461978766 -0.013956916123276078 -0.04382723294596995
454.0 -0.0074970327078996875 -0.011967486222999334 0.17085450153105525 -0.9605334141441649 0.17271422772930453 -0.9567929882997309 -0.0020017361184876134 -0.04506341323680282
459.90000000000003 -0.014543363913026497 -0.005931858836505816 0.1282432430939205 -0.9622939003606771 0.16073419772416486 -0.9599475866432069 -0.009405208468788591 -0.03794403053852173
465.8 -0.014604939169299376 -0.0017595315715669998 0.07830005803959471 -0.9703808269749506 0.07267861663719534 -0.970200773736019 -0.009658564326687458 -0.03158008053801249
471.70000000000005 -0.027020126401343963 0.007785760707745152 0.11785328379729966 -0.9637723842796401 0.10041959063473962 -0.9628427012050302 -0.01807157226606739 -0.02153320408913557
477.6 -0.028955022106282875 0.0010104006281765417 0.091469700575626 -0.9689508712019944 0.09616016360383949 -0.9669496274586428 -0.017032362670544525 -0.028711369971887953
483.5 -0.037747756851645206 -0.03980956503446827 0.08284469569309455 -0.9645219120298456 0.08084990349598156 -0.9710136652292886 -0.02279074766429579 -0.07065534979114671
489.40000000000003 -0.03270142705496009 -0.03437557894735654 0.058265004657684194 -0.971847966262931 0.052149082648305714 -0.9708022441361979 -0.016865374660223777 -0.06567895111265483
495.3 -0.04470365175778215 -0.024445385866917753 0.03974881787044208 -0.9736540678682198 0.0628126174704082 -0.9689697167367792 -0.026791410734864917 -0.05850791106753414
501.20000000000005 -0.042949735036651886 -0.040657510352591006 0.01644630902549669 -0.9774061302484358 0.022305861495119796 -0.9766411845381673 -0.022690362533347275 -0.07897393002321833
507.1 -0.06398649106532017 -0.01717893139910385 -0.00983410410482593 -0.973277701150909 -0.012058115655190126 -0.9732206430397283 -0.04395385752031677 -0.057565210048541676
513.0 -0.05908986751752583 -0.002300366959861226 -0.04296288652475266 -0.9706151152980855 -0.02114327010123395 -0.969519746506194 -0.04088176382517889 -0.046054879810198575
518.9000000000001 -0.06632188014926085 0.02494763340566284 -0.04472909629781323 -0.9700450172885086 -0.049288962375330383 -0.9716651653548308 -0.04945697234623465 -0.02183181528864121
524.8 -0.0667280257764667 0.012357952095325581 -0.04643418257721962 -0.9731617482906432 -0.036862779051035355 -0.9738610969600143 -0.04927597903433895 -0.038512359760841906
530.7 -0.06635837307378874 0.031461680227507116 -0.06204996101793612 -0.971244777526072 -0.053604299305527355 -0.9714220417946444 -0.051552116694524065 -0.023350868776348174
536.6 -0.05612994758913677 0.05371673250990865 -0.09735731184407441 -0.9687005156873504 -0.09533924284382793 -0.9690234016445558 -0.046076503273220694 -0.0035546069218736487
542.5 -0.05045867695184188 0.05230375454949983 -0.1312453674887377 -0.9655010822952008 -0.1507426956907344 -0.9610371653370956 -0.044475461136922106 -0.007812220145679657
548.4000000000001 -0.04528484970762039 0.041320612522604425 -0.09545908390426935 -0.9691826531890092 -0.11164573444408396 -0.9712699083650667 -0.039464369212756145 -0.020090673710006186
554.3 -0.044383926949358755 0.0630982710707431 -0.16444118191029777 -0.9605542281950132 -0.15956118585590662 -0.962467575825738 -0.04338862678344811 0.001617501128267524
560.2 -0.03707097176570803 0.05743150583901093 -0.16828523882704247 -0.9592235742663093 -0.21693617368633275 -0.9512433996732313 -0.0385437321543251 -0.004397883940683412
566.1 -0.01731119690087572 0.05762861870332489 -0.23316938166488443 -0.948560485618391 -0.18228122578930764 -0.9624476252366069 -0.021565633020055385 -0.0018929481198888226
572.0 -0.008542731445124838 0.07218253716845209 -0.20345834620722722 -0.9490748683660519 -0.1882583046596099 -0.9547308447282615 -0.013669682997461841 0.01266230733577941
577.9000000000001 -0.009690035455663555 0.03212457412592079 -0.2354754161487366 -0.9512871472349039 -0.22275325819863012 -0.9558978147714565 -0.017704039672799144 -0.026181906124075626
583.8 -0.013299387285897912 0.01249038980984869 -0.24672252469480427 -0.9413551436439478 -0.2435566775402079 -0.9429296707158011 -0.023811404754234662 -0.04451972907802211
589.7 -0.004265534194070491 0.03514144476429735 -0.2450006224878725 -0.9411314345407608 -0.2947159928054237 -0.9299025581558524 -0.015905134871305175 -0.021886187452096632
595.6 0.0046429542670006554 0.042769562273581765 -0.2790707314544532 -0.9252806150960192 -0.2852691769158554 -0.9229526948940161 -0.008768855695312782 -0.013750040085384095
601.5 0.0003721391420371733 0.03681465042933196 -0.2983930101461121 -0.9137296381321853 -0.31392374608766976 -0.9138367005073789 -0.014370605679652655 -0.019153455467045572
607.4000000000001 -0.009102470509184252 0.021228138032793498 -0.3054768784174827 -0.9183349693411499 -0.3277853707583349 -0.9095156356972065 -0.021790523896155517 -0.03481567619381323
613.3000000000001 -0.018767540508464905 0.00664207063874265 -0.37171906731053883 -0.8877521720425099 -0.3729236296853952 -0.8852429281720818 -0.033802139750806114 -0.04981554043718736
619.2 -0.03249955887058012 -0.0027813546343658695 -0.3584819188491909 -0.8960647341986008 -0.38473010198008445 -0.8867449557648006 -0.04830018743693274 -0.061777383486806545
625.1 -0.04162682398645303 0.006694469626013826 -0.3578425773720783 -0.8951922622527737 -0.3671310870934993 -0.8905537130154573 -0.0557802225549108 -0.05325415486386128
631.0 -0.046544719334823396 0.009888629157302686 -0.39735475139559817 -0.8759005823341758 -0.39681773447928437 -0.8715511822534097 -0.06173216351992884 -0.052020034571629466
636.9 -0.07460432987664385 0.011918122267822464 -0.39827373750480705 -0.8760215012296048 -0.40640594474381336 -0.8692338515753019 -0.09132555084475395 -0.05281033983831952
642.8000000000001 -0.06746074786342478 0.04518276744753015 -0.43218875528702416 -0.8547411811912898 -0.41232492287255046 -0.8657383831695732 -0.08659313938406224 -0.022920976025457344
648.7 -0.08698140565015433 0.027403805770991555 -0.4354626708640357 -0.8567069649306526 -0.45255288936310023 -0.8459671368622779 -0.11070243523456462 -0.04354612107958395
654.6 -0.05705960963211549 0.06249580993796988 -0.4521714734216614 -0.8502046827224574 -0.45419125296680674 -0.8488077798995826 -0.08469886380362456 -0.011158582689673105
660.5 -0.07600518275154415 0.0648300544658963 -0.47260384626310803 -0.8346080963206954 -0.46045861628993195 -0.8387929661729814 -0.10709134558645995 -0.012001157654870205
666.4000000000001 -0.06839467622115714 0.07902278624063576 -0.46515038858562036 -0.8401975017486076 -0.4476543747902539 -0.8467943596872011 -0.10288995814967163 7.644206089289107e-05
672.3000000000001 -0.061043557137350206 0.0965958252293152 -0.5077238707019468 -0.8158507486894534 -0.5118221378056383 -0.8122715624589494 -0.1040021215010482 0.018661744864529897
678.2 -0.07247195157478359 0.08518864648294254 -0.48788596752501956 -0.8293198364657026 -0.49060345456956256 -0.8275421249313045 -0.11624589480105811 0.00333999680797674
684.1 -0.08750590322233284 0.07875480180420182 -0.5044224970833094 -0.8123802551445287 -0.532753094831171 -0.7936728236548911 -0.13765643178196052 -0.0011966689389897025
690.0 -0.028704344642740798 0.11285503717146436 -0.5407962488349868 -0.7880615919508253 -0.5394511348984687 -0.7957471091555025 -0.0827929653837951 0.03371131124520682
695.9000000000001 -0.00828685400353459 0.11984341258291278 -0.5566735165679879 -0.7780897224133223 -0.5648528598357645 -0.7801327911587735 -0.06789650695697937 0.04280994783294508
701.8000000000001 -0.0331290941912391 0.09354345609614358 -0.5992286807410255 -0.7383593914348485 -0.5706170192361327 -0.765690653793548 -0.09619838791406418 0.01943871451074715
707.7 0.0027081456992313706 0.10445881813595297 -0.5810036826488402 -0.7566149731540166 -0.5800539930276516 -0.7641173054603271 -0.05981964664845688 0.03133134435590595
713.6 0.01084626941337544 0.10175739824932375 -0.5592128249739384 -0.7784133421789858 -0.5755901183182909 -0.7755549693776648 -0.05173977229647232 0.02773037793604936
719.5 0.002718390878684398 0.07753161012481569 -0.6189367919750467 -0.7325039295593954 -0.6143802268681616 -0.7422349324528864 -0.06450388611596228 0.0088503543470417
725.4000000000001 0.023333237130666103 0.07515683958147323 -0.6193720067037843 -0.7387743334295642 -0.6222115323820288 -0.7435596432303083 -0.04347569681861831 0.006446807147467163
731.3000000000001 0.05212852673994873 0.079585360813727 -0.6010898288708596 -0.7495313894695181 -0.6330569263482967 -0.7290918372556656 -0.014827514653425288 0.011689569312953238
737.2 0.03136479512717764 0.05163124396789336 -0.6487865401507439 -0.7114492230086512 -0.6444109155822977 -0.7220161515153635 -0.03769354292624788 -0.015182117871100962
743.1 0.050759143665831764 0.049090147487176626 -0.6634756554068512 -0.6971927318667057 -0.6770690669725834 -0.6834706379162624 -0.021613347496682117 -0.018901607526696743
749.0 -0.0015343011663808755 0.03907788885410514 -0.7087066655686576 -0.6527650952963274 -0.6991948069933808 -0.6617462113683577 -0.07720233384780728 -0.031392690847268576
754.9000000000001 -0.008680258327909997 0.027759870161521358 -0.6922016351597634 -0.669070714788529 -0.6876939572748069 -0.6772708769159492 -0.08369657210007408 -0.04944918592727262
760.8000000000001 -0.006379504624575996 0.024139262407639056 -0.6995215105830098 -0.6568813111832255 -0.7019232294036708 -0.6433285612435962 -0.08246050398923052 -0.05600134584004289
766.7 -0.0028928208115259466 0.03050725525441911 -0.712859736030875 -0.6442863901788906 -0.7173081973573128 -0.6297267259052378 -0.08185727445316571 -0.05329641832309364
