!Created with skrf (http://scikit-rf.org).
# MHz S RI R 50.0 
!freq ReS11 ImS11 ReS21 ImS21 ReS12 ImS12 ReS22 ImS22
100.0 0.030523497406538255 -0.009746518543181475 0.46302399926623466 -1.0367522148986796 0.44052319251306854 -1.0515659324608326 0.03839111268658254 -0.008062526630520346
105.9 0.029256665204786834 -0.01783540132054786 0.3158533546300231 -1.088819451578004 0.29262880820965637 -1.1035957712924138 0.03760117699877994 -0.017168765289605505
111.8 0.07724337312893664 0.09823860939684778 -0.9740456236790159 -0.5622728463414892 -0.9510261553031814 -0.6050083703941016 0.07235863275647395 0.10515591886504574
117.7 0.09241213191928371 0.07007737411134375 -1.043792100291727 -0.421669784635352 -1.0259653551939873 -0.4710517826147202 0.08950647557953946 0.07824870850662283
123.6 0.09735877390760687 0.039889312463857615 -1.0913086174391153 -0.2736482381561856 -1.0810316365346901 -0.3245748087298 0.09722262290005429 0.04748807787733495
129.5 0.09246727356374868 0.011143645802387912 -1.120568483251842 -0.11986834104453907 -1.116327217748684 -0.17424924183460438 0.09351277567016489 0.01846870927185671
135.4 0.07879255220327636 -0.014031190534396998 -1.1250187293601028 0.03707842240522687 -1.1273300668738295 -0.01941468403821403 0.08224479300901383 -0.007471729645516174
141.3 0.058499652192979625 -0.02935929939665861 -1.1096826062730412 0.18994088766502057 -1.1199672710259017 0.1351428579314422 0.06359618550766959 -0.026248373435320858
147.2 0.03694269747160017 -0.03682936468558345 -1.0720770340531829 0.34219239257459566 -1.0919277948758075 0.2875430690291289 0.04106166270051915 -0.03564615719113119
153.1 0.0158801252452364 -0.03811367884701583 -1.014015256471709 0.4888340279920728 -1.0414513444702247 0.4340274593003043 0.020152503885346555 -0.038162687344258574
159.0 -0.0012641469095199468 -0.03182726821527339 -0.9378299263838327 0.622664116969311 -0.9724619035168183 0.5720912961544087 0.0006677396962754432 -0.03357600389873604
164.9 -0.015223357177421076 -0.02100936481818595 -0.8423446799114161 0.7452210304997213 -0.8848372807226023 0.7012222137006742 -0.015518787544024786 -0.021493892190364263
170.8 -0.021742278873251003 -0.0076103826582069635 -0.7319975164031677 0.8546426820798606 -0.7802056907761066 0.8160553945369853 -0.023788981814396815 -0.006269486928389892
176.7 -0.022260355987718406 0.007421924149167166 -0.6074620591686989 0.9470661321586491 -0.6625864340779916 0.9140242762752615 -0.024872885371245306 0.012677893211890046
182.60000000000002 -0.01835821133328332 0.020083967008995403 -0.4718427736566703 1.02370901076582 -0.5322705754543458 0.9974593897976508 -0.017853371750293834 0.028228902203193303
188.5 -0.008349494382104491 0.029988544145750296 -0.3277424259966046 1.0786616648250114 -0.3929321467140412 1.0597055498670835 -0.0053689885520968724 0.03815601919709175
194.4 0.0028052425176622966 0.0327715851294598 -0.17548674538066367 1.1125200522039596 -0.24281340763839296 1.1036158258220004 0.008284449766083063 0.03950827517555857
200.3 0.014351349936743994 0.033270435210035386 -0.021575037298683958 1.1268405737252019 -0.0944038570804365 1.1278504456547598 0.02020271821118349 0.03790722617100422
206.2 0.022674542182466617 0.027860954595377765 0.13346422335209823 1.1192351256886197 0.06369305491432625 1.1302201952307456 0.030327168419490135 0.031003553235355343
212.10000000000002 0.028880203709195834 0.020173541170688127 0.2873247265203467 1.091543232352858 0.21754824112803806 1.108999628907675 0.03750758953853723 0.021704246040142875
218.0 0.03137197656445068 0.012872263732583373 0.4335504967311098 1.0408202198349887 0.3669803452476443 1.0707085687065478 0.03956855939292952 0.011246383252004662
223.9 0.029663854888130156 0.006475479980505661 0.5743807257751768 0.9724852220628514 0.5109883538902794 1.012504328330786 0.03823099803023031 0.0024113060626563937
229.8 0.028248200022980292 0.002192751108565879 0.7027726025531729 0.8824441770420813 0.6454047059381063 0.9329230929688959 0.03390280604360219 -0.005446467961649957
235.70000000000002 0.024617761293503047 -0.0007163537036165725 0.8193056005177681 0.7764058981471237 0.7690616484735869 0.836400029016671 0.027062726165274595 -0.009478978739815824
241.60000000000002 0.020821248204662926 -0.0014141242988741933 0.9187716942187287 0.6563403482900632 0.8758696798545149 0.7233262253810809 0.02243084339177556 -0.010847460347728245
247.5 0.02043176302057063 -0.001744024802918415 1.0011249282674914 0.523407449229731 0.968553799728266 0.5959733385590462 0.017922799831952132 -0.009817126264991836
253.4 0.019330486426464115 -0.0026986185610215203 1.0625645185418036 0.38136198756339196 1.0426776120623633 0.4575523401522227 0.014415110976366654 -0.0074284801441116795
259.3 0.020742432926128866 -0.001998185840822479 1.105989693101077 0.22962793264123957 1.0956596197001456 0.313037379307912 0.01259927203220091 -0.005182591932108844
265.20000000000005 0.02309808004011424 -0.0020988076517775697 1.1281325460794778 0.07497702929541739 1.130035983169379 0.15789073709423812 0.013807594029703945 -0.0015280773375973401
271.1 0.027558742912214673 -0.0026708017853411437 1.1354488046691016 -0.08223084156272703 1.1415362239160918 0.006661569567713275 0.018619594246440163 0.00017924360329992281
277.0 0.03134035225830217 -0.005425705261046204 1.1140549787967733 -0.23789655417732725 1.1325073305141553 -0.15098697078980308 0.025005401461129468 -0.0025728848151855143
282.9 0.03429948374731036 -0.011530535706766194 1.0696405828019662 -0.3898838390683534 1.1038839790309276 -0.30578334324127554 0.02799666015158622 -0.006560133386084051
288.8 0.034400691862883734 -0.01888786757485953 1.003037075600924 -0.5333888611029686 1.0499059928634422 -0.4541452601989301 0.029413663276899173 -0.013034281892597224
294.70000000000005 0.031011546023274224 -0.02712044920066013 0.9213114740551493 -0.6670127534151313 0.9790057279954795 -0.5934343296927759 0.02858535810963222 -0.02041266192117717
300.6 0.026034852866685783 -0.03364786274041543 0.8207431815261975 -0.7886755924884197 0.8865040090802784 -0.7228760148598962 0.02177909025127439 -0.028154874065484267
306.5 0.017871555857695447 -0.03951072814985218 0.7004808895207196 -0.8921985799388299 0.7772689052351242 -0.8379331636069317 0.014013583494638921 -0.032855951162607415
312.4 0.007848033839700386 -0.04162096245120527 0.571735699400256 -0.9820675376949368 0.6558828764190888 -0.9373637753101105 0.0024019646098776344 -0.034530352871082186
318.3 -0.003403062034283853 -0.040681719258909725 0.4294945350130682 -1.051889789722312 0.5214886402639047 -1.0178686700325796 -0.007945048089504924 -0.03188355731957272
324.20000000000005 -0.010772150946997414 -0.036676855620522635 0.2789132119024693 -1.1005151933143569 0.3749137840463938 -1.0820320965147918 -0.01723020975194248 -0.02483830434528313
330.1 -0.017007794114955004 -0.03153041269736577 0.12620203049291467 -1.1282333794772765 0.2247859080432029 -1.123539801532154 -0.024557725868776935 -0.016564674086895156
336.0 -0.021909811305917164 -0.025229906240984475 -0.0318290899834646 -1.1324027501531384 0.0698680191031491 -1.1416633480642342 -0.027939148027105693 -0.006878970758300188
341.9 -0.022482826629773196 -0.018104750862692597 -0.18641911985002615 -1.1183232009844435 -0.0877548141483576 -1.1405244737022198 -0.028303538202409623 0.006221474758932831
347.8 -0.0229771203236861 -0.010028667373137259 -0.3404684303566332 -1.0805650923285777 -0.243159259613328 -1.1150588931575356 -0.02437546643778568 0.018227660511882064
353.70000000000005 -0.020240590532345084 -0.0018534156368885267 -0.4846404403156153 -1.0206362324791747 -0.3934940397047128 -1.0720100651986941 -0.018597194635926087 0.02983072279547691
359.6 -0.01610716760539001 0.003561562861914867 -0.6219691077186835 -0.9444595248401748 -0.537592636413328 -1.0079207628388627 -0.00612184045610102 0.038310282732712024
365.5 -0.010800176814601756 0.005866205074405991 -0.7463347766992998 -0.8491758232314248 -0.6688473746869243 -0.9228197503135711 0.006081366210927256 0.04127703216891348
371.40000000000003 -0.006205190115157814 0.007589009163718881 -0.8556733258249413 -0.7371217261403189 -0.7896852594648551 -0.8223558107645107 0.018778362772559114 0.041465958234911886
377.3 -0.0018876257522348013 0.00653741470455557 -0.9489334379946206 -0.6074048020363246 -0.8923565421414784 -0.7043912442184264 0.029285355971119975 0.03722210079012995
383.20000000000005 -0.0006969329613886018 0.004663706998945189 -1.021676426707932 -0.4702727635530351 -0.980961728464504 -0.5753924640885131 0.03898744247666095 0.031265928883062497
389.1 -0.0014548824827113217 0.003644161650501835 -1.0758707892660433 -0.323843473996445 -1.0484964641744454 -0.4354526933468234 0.04366230718546735 0.02269473836271521
395.0 -0.0018379926898681239 0.0035195837202375265 -1.1092139063481319 -0.17108804116166587 -1.09785635762442 -0.2845279663769208 0.04632579888732825 0.015228296284795816
400.90000000000003 -0.0026606022756593497 0.007196988423971723 -1.1206371269620838 -0.01589762968243423 -1.1279838295304205 -0.1327337514962917 0.04860229412082451 0.009328461544599745
406.8 -0.001804924393797231 0.011398458325144849 -1.1107696004288876 0.13958357671767146 -1.1333222356464574 0.023605415022952235 0.04998594679363115 0.005075587611670906
412.70000000000005 0.0003320362792766157 0.01566384098928557 -1.0809272056955164 0.291292585802046 -1.1182017870517331 0.17895181178422698 0.049404003632052246 0.0015470620041143938
418.6 0.006460597654550809 0.01962228497104761 -1.0292041076772684 0.4373820275249004 -1.0828987540765591 0.32984919256840817 0.051244988633521914 -0.0015025528281042842
424.5 0.012984301780977543 0.021995819599439918 -0.9567728466155675 0.5762591508859124 -1.027900120228305 0.4759516560680819 0.053562918276089055 -0.004742490573251274
430.40000000000003 0.021891751559325816 0.024073035053249422 -0.8619613000856701 0.7042392931858437 -0.9474673303830136 0.6149133631673269 0.0573497383642975 -0.008696505990348989
436.3 0.03250427196734128 0.021110227406008864 -0.75566171956838 0.8139081059666815 -0.8536222558779255 0.7369093660106828 0.060688899165699896 -0.013489277939397314
442.20000000000005 0.041663148537264834 0.015835210952053203 -0.6349622135343764 0.9113759068746632 -0.7433474825034927 0.8477216519228818 0.06576168988219559 -0.020046610231406616
448.1 0.050313409445701666 0.008223509999508256 -0.503310409453503 0.9900591453558347 -0.6202617238723357 0.9407065626892777 0.06953679701484125 -0.028815593140453205
454.0 0.05785327738035176 -0.0031717104998116013 -0.36220058187039617 1.048266201211811 -0.484678820023179 1.0165039636520925 0.07199065125960696 -0.03897906113109817
459.90000000000003 0.06034252599601368 -0.016136718187544925 -0.21382833759573464 1.0872386323433318 -0.34074785278142816 1.0743744885761626 0.0699471967254877 -0.05215276021570538
465.8 0.05847376350598575 -0.03140947925501878 -0.061132630795467977 1.107624213652334 -0.19061530703724447 1.1102314791732237 0.06534832013466962 -0.065442335981565
471.70000000000005 0.05131433507730785 -0.04456642447250777 0.0921690165359332 1.1051047616713354 -0.03731148286935859 1.124967721871155 0.05688666115898607 -0.07944916586495096
477.6 0.038811446795578394 -0.05461625678317452 0.24387776209408957 1.0799425615084286 0.11705352133716984 1.11811011990715 0.043270179386727295 -0.09108279369130658
483.5 0.024222267007101287 -0.06047217490114648 0.3916045738173394 1.0346048336506477 0.2675548602605187 1.092482690387307 0.026823093434989172 -0.09975841097418753
489.40000000000003 0.010237753558124573 -0.062238835334101905 0.5311272508120418 0.9715789359878837 0.4152517830776461 1.0444448047969208 0.009120638868643713 -0.10244966306313923
495.3 -0.003256380055350678 -0.05749606612576069 0.659973690880823 0.8878383540966167 0.5526317610366185 0.9770655129538055 -0.00965439154152588 -0.101117988905961
501.20000000000005 -0.013058380508416815 -0.047645391066249945 0.7739647705102224 0.7881102680870864 0.6830959801585206 0.8935656099081035 -0.025192323746480956 -0.09557056030860245
507.1 -0.020378502760495285 -0.036544283138261045 0.8755188486856721 0.6723862713462508 0.7965479700908066 0.7905058718593947 -0.039540637565342616 -0.08440406645771982
513.0 -0.021534232176647225 -0.025946022305326954 0.959598801382893 0.5441659659075991 0.8988805138222131 0.6743356520167296 -0.050579456218029985 -0.07189625397502382
518.9000000000001 -0.019190948013216132 -0.015573765544199045 1.024756584120614 0.4058320885656193 0.9811159420299905 0.5460962271337275 -0.05731050559256001 -0.05783559401572653
524.8 -0.013105961760719072 -0.005727413569418738 1.071173973318524 0.2592147365757995 1.0474140982967122 0.40532523625959005 -0.06098470762498643 -0.04417438784851993
530.7 -0.0024466161084059665 0.0007618971045670403 1.0947486329395133 0.10991598760267846 1.0934262548760005 0.2568102289392052 -0.05971881998017673 -0.029688528701889386
536.6 0.008282340623246206 0.001532845584875504 1.0971641585498233 -0.042003401165718164 1.1172729312133278 0.10598774897310954 -0.05503041556894435 -0.018124711651246905
542.5 0.01934240308982698 -0.0016703047992746832 1.0803645115349712 -0.1938219704188528 1.1218522410662686 -0.04894498978532699 -0.04893008135544152 -0.010873234329651265
548.4000000000001 0.026899118107718042 -0.00914732795325903 1.0420045576716925 -0.3414219049367968 1.1078440329428645 -0.2008919970466832 -0.04326563997355245 -0.005832914167536714
554.3 0.028716297053605525 -0.018741773016933288 0.9831787058251157 -0.48130491106504897 1.0683779852221371 -0.3502938162311298 -0.03980843409020373 -0.00464199091162496
560.2 0.027098673327738677 -0.028558460846523148 0.9070560991033731 -0.6112081101837884 1.0088780071121177 -0.49401853293254083 -0.038989987160701005 -0.004507621688462335
566.1 0.021148158157209926 -0.03671331937936255 0.8146001860226214 -0.7296451040399559 0.9332705023642348 -0.6280120949312941 -0.037616821365191476 -0.0031737035422707764
572.0 0.012619726062401202 -0.0409156229220076 0.7060800794908733 -0.8344466736961109 0.8404933989811201 -0.7491283585664692 -0.04035099054885858 0.00202952451058726
577.9000000000001 0.0030551102046949535 -0.04065933021346829 0.585210732078498 -0.923781049783292 0.730785748733702 -0.8581399697270361 -0.041585413336074704 0.00879722130957969
583.8 -0.005285096784988184 -0.03609982578387038 0.4534006763163745 -0.9954006172699923 0.6058943242409246 -0.9500084389406465 -0.040947383785760856 0.019564684154393053
589.7 -0.00929142109820953 -0.028468561572077472 0.3095366399310396 -1.04695727501522 0.4688130558901679 -1.0236784013660527 -0.0373866726497262 0.03153315369742154
595.6 -0.010764860713955077 -0.017558798045481296 0.16261183288819103 -1.0790582603381096 0.32053026144540947 -1.0666956073724392 -0.02934261043043011 0.046063260406506906
601.5 -0.006098830413022902 -0.006156507976404204 0.011651814576206076 -1.0910833924405572 0.16894221068236734 -1.0983289470954145 -0.015808353400561647 0.059256724057869956
607.4000000000001 0.0068800083495552 0.0037444446828685204 -0.14175710023762864 -1.083696563187371 0.015507457319998858 -1.1138993858662543 0.003420639064118422 0.06920164072610112
613.3000000000001 0.023509079739489815 0.006430428345972554 -0.29176493909340456 -1.0520163751983838 -0.1386717191395746 -1.102311277415959 0.027553881225623907 0.07322870258931373
619.2 0.03912291863272796 0.0017605780617616416 -0.4361724599968759 -1.0027417921313297 -0.286781095118496 -1.074406246657495 0.05313257260825917 0.07006824303690101
625.1 0.05727124542899734 -0.00951316746132731 -0.5728037427378869 -0.9295637418549154 -0.4330286014480548 -1.0234439263916097 0.07958375079175942 0.05726751901183319
631.0 0.07219677676704045 -0.030211418298944605 -0.6958170522955726 -0.8412726455525555 -0.5679678244189236 -0.9528441385933132 0.10255331688216825 0.03627965538309228
636.9 0.07882480292531524 -0.056354105056689245 -0.804865904403415 -0.7356545907122889 -0.692979023783422 -0.8641188721204296 0.12033477049045187 0.007856483557590768
642.8000000000001 0.07640309980069146 -0.08756246988012936 -0.8966361780275726 -0.6159000978540196 -0.8033506406915417 -0.7611794835553851 0.1290830305232877 -0.02604784239665085
648.7 0.06372562944329369 -0.11707844660284393 -0.9732364957461302 -0.48564454534942697 -0.8960146715641376 -0.6440411128759271 0.12894561453985573 -0.06201901235679213
654.6 0.039938901048830244 -0.1449716168390552 -1.0296478374346745 -0.34635618238355553 -0.9735656010255215 -0.515667182054909 0.1167505944612095 -0.09925556210093515
660.5 0.00680713036523911 -0.16592455647957707 -1.0662740948913696 -0.20298117693047588 -1.0338017149527388 -0.3793063461022954 0.09414371997707907 -0.1296096820684863
666.4000000000001 -0.03315104494069224 -0.17551072682745603 -1.0861261359123506 -0.05556390295861928 -1.074482606837607 -0.23396395839547265 0.06278422728639267 -0.15438281243245078
672.3000000000001 -0.07609198459943108 -0.17392426728657534 -1.0828245189996264 0.09398258464258707 -1.0981701872734575 -0.08822401317359012 0.025151785467847798 -0.16860537538756976
678.2 -0.11944131252726159 -0.1605539415427168 -1.0615449882306183 0.2411620341963427 -1.101142780990758 0.06232989317881145 -0.014235402291510732 -0.1708570892414349
684.1 -0.15589170561834031 -0.13316080806281166 -1.017649620847498 0.38600074101779075 -1.0836469193042835 0.21100722761886212 -0.0514390012614616 -0.16142188654132442
690.0 -0.18401802084675004 -0.09640491559640281 -0.9560203223902457 0.5221476510593147 -1.048306772893907 0.3581665325029323 -0.08350732275774955 -0.1407470603168571
695.9000000000001 -0.19999119734725632 -0.05260179642268176 -0.8769291637197333 0.649056814602043 -0.9914959818485154 0.5016661567384395 -0.1070019546112496 -0.114528575356913
701.8000000000001 -0.20397949083880018 -0.0069288971998108795 -0.7813417828232087 0.7675449445620037 -0.9148697066032766 0.6347804647970838 -0.12036238163929308 -0.08260104365752302
707.7 -0.19393181754218938 0.03661373039530346 -0.6708715501305356 0.8730398414232237 -0.8218602081613499 0.7573062624381142 -0.12331382587071951 -0.049757288104503604
713.6 -0.17254118826945034 0.0743434449050392 -0.5447129511746163 0.9622978001801873 -0.7111694879602694 0.8684885271382518 -0.11584466443770389 -0.022536805470840797
719.5 -0.1440704395414907 0.10164122373986256 -0.4041839881085466 1.0330360418753466 -0.5858572516468419 0.9634118315789696 -0.10244196271879068 -0.0021350503465980882
725.4000000000001 -0.11093432508195855 0.11802953126138777 -0.25468832914409095 1.0808229037393122 -0.44498946706232606 1.039344825311586 -0.08411797648666586 0.010247205279519167
731.3000000000001 -0.07638264854585654 0.12237439260458427 -0.09903271598642492 1.1073623673132795 -0.29600640313685606 1.093017779734 -0.06596986435959117 0.011778811429657315
737.2 -0.04829087312861494 0.1184273163667889 0.05650065047979353 1.1108488010921083 -0.13844977013218865 1.123437344892507 -0.05186502073581331 0.0067912160527985954
743.1 -0.027106531940974368 0.10661388910877914 0.21278232202522335 1.0927611353330473 0.021173222805726977 1.131036288653105 -0.04457960769971401 -0.007870515016921006
749.0 -0.014267176253464053 0.09098297239675016 0.3658838305426281 1.0517183404340364 0.1785872497804648 1.115260801497065 -0.04382821877114494 -0.025735865258291267
754.9000000000001 -0.011116540806661298 0.07694252385713479 0.5112649897018596 0.9906129069259658 0.3325008389003705 1.0722102622319203 -0.055343269756172486 -0.03989578207661373
760.8000000000001 -0.014082361224497115 0.06716395356075812 0.6493140063716903 0.908644477443955 0.4774876428847875 1.0110792708386451 -0.07228646527926529 -0.04816810733934889
766.7 -0.021394034149976156 0.06428247978595122 0.7717082267251261 0.8072255135894478 0.6135215086872482 0.933612095117637 -0.09552013522377684 -0.04770186939509522
772.6 -0.02912686956047396 0.069766285879255 0.8796096664455988 0.6876680091226086 0.7350625340376356 0.8369469896426902 -0.12139744573436519 -0.03661176409795134
