!Created with skrf (http://scikit-rf.org).
# MHz S RI R 50.0 
!freq ReS11 ImS11 ReS21 ImS21 ReS12 ImS12 ReS22 ImS22
100.0 0.005827904900800604 -0.0023523353565996358 0.6574209244110863 0.24206789887966085 0.6641360604426425 0.22797727594980532 0.004407143673854577 -0.008800747716085088
105.9 -0.005819203947480565 0.01159500895718784 0.66630813963455 0.2291853121114403 0.6683342737838004 0.2255980832979516 -0.006698767192178881 0.0053336503362226804
111.8 0.03485195957729942 0.008707935416739025 0.6883896019511098 -0.14428270629635168 0.6899614679759152 -0.1341340540285463 0.0356754286563829 0.014444082692920893
117.7 0.043798334625786 0.016864926249665377 0.6893268718478409 -0.14958024646465465 0.6927118264943671 -0.12732085697985362 0.044872129781467915 0.02112779364758489
123.6 0.03651745194599857 -0.0004180076217576308 0.6967033490987722 -0.12812530909725128 0.694253060865603 -0.14114427206552382 0.0377598528335986 0.003515686668375016
129.5 0.03093457548574604 -0.00627071716930002 0.6942083178275421 -0.12466105364598332 0.688120656723069 -0.14915828828652175 0.033259684291084696 -0.0027030770135213823
135.4 0.026414877703067562 -0.012450895769658675 0.6937637232086067 -0.13540085680927988 0.6858095228621899 -0.15673977413156404 0.030790503685665934 -0.009673866561217553
141.3 0.027491320293538183 -0.0065635443077898935 0.6826021585152242 -0.16104411906375812 0.682365957769937 -0.15987158957531086 0.031402267398611315 -0.004027927549307507
147.2 0.010217051837390518 -0.028705699404460897 0.6780115356422559 -0.20456860133145352 0.687370465480404 -0.1594347988324471 0.01303719305043073 -0.026051324070568694
153.1 -0.0007417769075074776 -0.029926545700983364 0.6902647633863646 -0.15464436469746098 0.6890709373703556 -0.15009787777974437 0.0019887147645921708 -0.02696344968672141
159.0 0.010569510941579494 -0.015229692805996502 0.6886424714055819 -0.15480499281283816 0.6789147262666377 -0.1814974120116399 0.013959387742807285 -0.013339679195357617
164.9 -0.001313616792389893 -0.018689601009383897 0.682328375795865 -0.17928466712809848 0.6836725215344055 -0.15874586985940603 0.0022078703314076784 -0.016137790756813413
170.8 0.0016989010037149347 -0.006318126484224283 0.6708915562080419 -0.2215269250531847 0.6723515035909117 -0.20512765496909344 0.0032673181430272103 -0.004124144674169209
176.7 -0.0013084626433743436 -0.004997542888472174 0.6718867806635801 -0.20942930269900373 0.6690664250176092 -0.21756169237506395 -0.0004549097500179684 -0.0006984479824022215
182.60000000000002 -0.007552192476661017 -0.009139725008823592 0.6764191505969743 -0.197375487346879 0.6746396950004548 -0.19484233879616134 -0.00828357647995451 -0.005186163370568749
188.5 -0.009216137769913035 -0.0015834209535805315 0.6644327140762013 -0.2281297278596165 0.6677123306521398 -0.20808128051702124 -0.011480189012435261 0.0031766761181072464
194.4 -0.0037302017960733624 0.00943744416748224 0.6633491936182743 -0.23264761693176675 0.6612376087563062 -0.23303616869799354 -0.006521913605394728 0.015578349379574445
200.3 0.003197773045481963 0.010890146741482374 0.6704745032992362 -0.22131741128897578 0.6739083042365683 -0.2065345286369087 0.000610535364137467 0.016419932752810017
206.2 -0.005335539704558621 -0.0007966316440636372 0.6569417469418303 -0.2375748012091664 0.6547336039620285 -0.23555231056906767 -0.006805303620247545 0.005667182379257447
212.10000000000002 -0.0038950422855976293 0.0008689179022960065 0.6621218389642647 -0.22717835528149213 0.6523218308195262 -0.24822117301691765 -0.005954879888382972 0.008013519482570649
218.0 0.004574514923691567 0.005194939859570009 0.6506028313148515 -0.2620390310954095 0.6468644016239807 -0.2676826843470023 0.0022839840558347346 0.01170616642490512
223.9 0.014316429246172005 0.01178277079191363 0.6544875280413078 -0.2636258283312939 0.657449971978049 -0.2520506273577496 0.013866164441450673 0.017677572607282647
229.8 0.017324570969986946 0.010755291439664576 0.6469435695382925 -0.2752426036325361 0.6490775502095634 -0.258051768442965 0.016131112978379308 0.016305939153553516
235.70000000000002 0.007575480511418918 -0.0011141621288095621 0.6483766663303309 -0.26367268880178996 0.6543098534311816 -0.2522479469739847 0.008235642258179502 0.004440017079613284
241.60000000000002 0.018067070243835096 0.0056119664318973915 0.6537573386761064 -0.2530795631311394 0.649286986822307 -0.266053375849274 0.018473967868837468 0.011118651864205617
247.5 0.014836074127729604 -0.0013509310049975248 0.6495206105748409 -0.26833675951976144 0.6433627326022922 -0.27756692712381587 0.015804649398312165 0.001987830808460668
253.4 0.005781670957362066 -0.014624810425904567 0.6473813426346435 -0.27335862446808706 0.6377725832309386 -0.2900515623993828 0.005216504231781136 -0.011752343834270082
259.3 0.006772915357681002 -0.009713511372179764 0.641379472230807 -0.29151268307760536 0.6486846333436607 -0.2723787894067168 0.006114827393679127 -0.00913175076612833
265.20000000000005 0.015883829988612368 0.0036355616477172347 0.6461021480159441 -0.27341613059297926 0.6346847338948527 -0.2910754040748643 0.015724923453923855 0.003707849617180346
271.1 0.02193045244152652 0.0042867329616214245 0.6242284492332129 -0.3223967898222658 0.6360007734186789 -0.29831123684474686 0.020514440161545605 0.001716689911570104
277.0 0.015893952714641692 0.004819926374793157 0.6279935762438684 -0.31537031472777244 0.6332031650260557 -0.3007840320451292 0.013650146794930616 0.0008111751248282927
282.9 0.01969533251613152 0.00899524168355798 0.6268132314650258 -0.31976670679135333 0.6399292862129641 -0.2851567486585773 0.016941566794280667 0.004790159575085146
288.8 0.003028114340891989 -0.00017473560481925406 0.635501344072584 -0.30388038135424683 0.6375021626921499 -0.29116181581033945 -8.037761622086831e-05 -0.004869564652873689
294.70000000000005 0.013541833902256663 0.0091414784889275 0.6210023891251472 -0.3229924214789043 0.6299057803353415 -0.30788806105290184 0.009570946006790535 0.004699702895030432
300.6 0.007406504970949029 0.0016715237273199715 0.6299707553339279 -0.30586043106798966 0.6152084131683955 -0.3312663669074478 0.0029143597939190365 -0.003832450271056575
306.5 0.014264869124358346 0.013328642022205356 0.6139553059790134 -0.343510160555214 0.6137474964389749 -0.3353148228843386 0.009114063935268516 0.009059496351323632
312.4 0.01554167529013086 0.014678366212859024 0.6133421521002465 -0.33810018421450144 0.6129271415113976 -0.3381103804605017 0.011174842956327534 0.010561734201270104
318.3 0.016394865885070657 0.007125178115590194 0.6160077856214164 -0.33302927200331717 0.6019018902943768 -0.35458231759646086 0.011688223931365234 0.004476995189169175
324.20000000000005 0.006867092440734441 0.007009200005566817 0.6070954793598781 -0.35661535295851765 0.6048533901594454 -0.35165564851641273 0.0034954076145355516 0.003647621560235516
330.1 0.022147120741723918 0.012391884543846923 0.5968206497814689 -0.37251219834051774 0.6007069387063575 -0.3596738750609113 0.01900895744454155 0.009133789090617201
336.0 0.023335928735654994 0.013153917260614736 0.5868085698634731 -0.3883494274602133 0.5920939681288951 -0.37523442979554916 0.02121694661131037 0.010263528474235105
341.9 -0.006073734686844725 -0.010769118344220127 0.6128531889569058 -0.3382740677259932 0.6086283467279353 -0.3338183847041624 -0.006765878799813727 -0.014223099070668628
347.8 0.016728548712152277 0.005400886580664421 0.600621073839564 -0.3673683696976095 0.5949424860460264 -0.36978087833934287 0.0162311118838256 0.0001466085125635366
353.70000000000005 0.016946226127367774 0.003955976522239659 0.5854195776934176 -0.3889854058319664 0.5958821773386628 -0.3638922063880463 0.019584153250034403 -0.0003556760735429289
359.6 0.0102634655871012 -0.0047526847023305115 0.579666837195488 -0.39129609899741913 0.5905225842635006 -0.3694528950098283 0.013259064822843917 -0.011093869207084727
365.5 0.022406677274922692 0.005555272618006939 0.5770001602255502 -0.4017690398377494 0.5760619914353369 -0.3967781791221548 0.02771954620829709 -0.0020259534248654484
371.40000000000003 0.01146845103419003 0.0015858354905616274 0.5670126850213116 -0.41448935068568316 0.5694130131878717 -0.40026035766745816 0.017998482570008013 -0.006471369327103402
377.3 0.008099790317341588 -0.006859366533429399 0.5623786446063908 -0.42164925524541824 0.5700664302257102 -0.40643392348839086 0.015842489986441877 -0.016664564876285537
383.20000000000005 0.011509711248159422 -0.004135568356275523 0.5738173765340202 -0.40525056456597325 0.5676292441459817 -0.4040296812530962 0.020449485778395626 -0.015214038686362143
389.1 0.011003189916818815 0.000526685372132445 0.5822685762517957 -0.38942098303268646 0.5756813765027463 -0.3928183778408724 0.021657850435506717 -0.01149870189385902
395.0 0.011809939436646962 -0.005479657625514323 0.5656724462101899 -0.41277049173333613 0.5487552422570193 -0.43048668200155077 0.02189558279091619 -0.01927357092402067
400.90000000000003 0.00792845435073352 -0.001796885632569934 0.5546571124016442 -0.4336516456606639 0.5509104888132613 -0.43417469465103586 0.01806328327760303 -0.01789603896772763
406.8 0.003300913936544918 -0.004258168088238202 0.5538889970817966 -0.4234312795203497 0.5363346095105228 -0.44470241683303396 0.013831873767313145 -0.020539882731818403
412.70000000000005 -0.007881931122289914 -0.005698645329649302 0.5525100610795454 -0.425681615513494 0.5448987096168587 -0.43338377239018955 0.0022120112625902432 -0.022837448350617927
418.6 0.000978273419363712 0.00017052758464493952 0.5436243561292914 -0.44064745414781764 0.5504647925868011 -0.42974211341645346 0.012096473591016206 -0.018038073209386222
424.5 -0.007356568741299238 0.008062449417536421 0.5554599715770805 -0.4218296383866156 0.5485474583168858 -0.4313857868006562 0.0037048253705070817 -0.008722160050737374
430.40000000000003 -0.01518321761178079 0.009705238282889637 0.5443662122075893 -0.43218230832811627 0.5297758400406982 -0.44825322423496056 -0.004283353626144901 -0.00859364812783328
436.3 0.01060037034887646 0.01507699168698708 0.5433307926090649 -0.4389925050327406 0.5444296458856464 -0.4322113526886522 0.019766902938206748 -0.0019108633439110338
442.20000000000005 -8.593869992179393e-05 0.0084873221278891 0.5245879821859936 -0.4592970262001215 0.5188694659867533 -0.4616267239497236 0.007972748839998767 -0.009163507222760423
448.1 0.008455298353161824 0.007947794818174122 0.5056250722497672 -0.479785933507293 0.5187401968989612 -0.4597403891509463 0.013732617991272456 -0.008960986236288484
454.0 0.01512713058459549 0.012036200435929493 0.5282252376621376 -0.4568197072050366 0.5249674222894306 -0.4521044589692181 0.018542690718782555 -0.004398243067129069
459.90000000000003 0.010699682568806813 0.0105361491502347 0.5091470189755348 -0.47326219280835324 0.5242030033024528 -0.4544777414635282 0.013130751260590575 -0.003914810988098383
465.8 0.011768110005031111 0.007153528186441906 0.489999769743053 -0.49527919148647664 0.48599525771913366 -0.4953979987394882 0.014373603674534639 -0.006039556784633085
471.70000000000005 0.002600553284473125 0.0020613167521698283 0.5126013414114813 -0.4697213999898312 0.5036962944588013 -0.4758954869124461 0.0060013912711657045 -0.009572491462647706
477.6 0.00793398775487282 0.004161445457271898 0.5071987734957609 -0.48103765418832567 0.5080716999273892 -0.4769541438846324 0.011815320607131115 -0.006527126563270319
483.5 0.024609562076089664 -0.0026047391482145717 0.5054252054314042 -0.4749117236370442 0.5068036380037605 -0.47778452597774707 0.028838888865551825 -0.010188602856503859
489.40000000000003 0.03066258392431665 -0.0022133783808850776 0.5008797708872963 -0.48661338910737667 0.4965489008085606 -0.48848910449176547 0.03481632079196847 -0.010238526223255235
495.3 0.023863379452646417 -0.008828619707303463 0.4964905270212545 -0.49342736520168606 0.5053284992969419 -0.480980628236003 0.028792371452012206 -0.014015649165644857
501.20000000000005 0.03700708732822274 -0.009721104200276665 0.4906596494953294 -0.5014938812105112 0.49247589882903303 -0.4955199112212081 0.043313121698326684 -0.015326019185580542
507.1 0.02138142009783188 -0.016749543956525528 0.48024465562944385 -0.510382078717009 0.47835544881980496 -0.5114803654755388 0.027945922710072745 -0.020515013695155106
513.0 0.018174338418823193 -0.01784692156891619 0.46556759095135536 -0.52147615765441 0.4746904795039738 -0.5080163942263576 0.0264502221972538 -0.021551827083961642
518.9000000000001 0.004445480053451328 -0.017060209072756474 0.4677326253977405 -0.5196575244508609 0.46460451158652727 -0.521916916511766 0.01257631862797238 -0.02103098938853922
524.8 0.013978281669213399 -0.01740764094487007 0.47473311670329965 -0.5154456337625517 0.47959628047823855 -0.5103111085728023 0.02451248618450237 -0.020621203071535036
530.7 0.005423635505613501 -0.016219290749384278 0.4698934000215172 -0.5186930321774914 0.47359944986556285 -0.5136439023508548 0.015668241390450616 -0.019089043515435476
536.6 -0.003942970560581886 -0.015663325987214642 0.45450572506830567 -0.5322357668404576 0.4541689241132777 -0.530818095593686 0.007696069965322644 -0.018549413751926185
542.5 0.0034357639136650482 -0.005553422565793044 0.4422778596210645 -0.5429740572627237 0.42867256081502686 -0.5494160631094771 0.01510324249981141 -0.010060662768546471
548.4000000000001 0.0063346517995810595 -0.013181691506078183 0.4672398158719412 -0.5204519755857504 0.4579146744461687 -0.5284183524549358 0.01754745342192983 -0.018245195900376543
554.3 -0.010271551245210899 -0.008726669391494121 0.4333594030626046 -0.5493122375108919 0.43476294487050204 -0.5454425686061676 0.0011268686950662251 -0.015174566114216201
560.2 -0.0012429928784547474 -0.00010882830370528929 0.4361634491012423 -0.546854385645126 0.4086249129015491 -0.5660365684040637 0.009601980460448594 -0.007110163468641597
566.1 -0.0013814353478000623 0.004360686927931236 0.40447444918305075 -0.5711264552363149 0.43480316710749695 -0.5482514496042964 0.008430329033776824 -0.0038372761894493817
572.0 -0.010491089086168193 0.01076814289158698 0.42326200316852014 -0.5512297273769063 0.43242726942471893 -0.5433795679368478 -0.001970568382293539 0.0033841406207040245
577.9000000000001 0.013537249725274475 0.01545160666357904 0.41570772664168 -0.5649485411499768 0.4232473889832529 -0.5571275818197989 0.019566280573890336 0.007101188297443283
583.8 0.024119541309656593 0.01515328783916538 0.4101028228933194 -0.5615713528437482 0.4121705853891037 -0.5574858680007905 0.029450388542895355 0.007683677986041053
589.7 0.01141516882885997 0.020941698389569365 0.41876950203680624 -0.5582811774992945 0.39002742283629704 -0.578520876946138 0.01528249081430003 0.013473355646702203
595.6 0.010330646716886188 0.029353520070989594 0.4030136506146376 -0.567178253106097 0.3985514419143375 -0.5668700548391414 0.012355014790507695 0.02229087636471217
601.5 0.005844442797171352 0.022957008703086958 0.39486887349551036 -0.569664300025476 0.38822766658817054 -0.5762321512461952 0.006395363551966171 0.017787638581353085
607.4000000000001 0.019818523738957455 0.02524092013980202 0.3994234548180313 -0.5703751863194298 0.3844756281755888 -0.5777032422535994 0.02002685741778352 0.02108473686330173
613.3000000000001 0.028365976686103266 0.019555244645391847 0.359145608945515 -0.5928687223969099 0.35824790053821504 -0.5912584427692962 0.028127715420197954 0.015614190083886453
619.2 0.03602717784367349 0.01415335014294409 0.376155066654999 -0.5836691774008839 0.3582595472229789 -0.5945849342430685 0.035237836366783515 0.011683692775216852
625.1 0.03048065747140316 0.00840211340249147 0.38242244269578274 -0.5810370394113963 0.3740484062569371 -0.583045639643654 0.0307344167669446 0.006858078516781657
631.0 0.035784872977333404 0.0069080200136284005 0.35856080241381294 -0.5930205987014989 0.35366742283132474 -0.5893437481317229 0.03646201134261702 0.005757391081076557
636.9 0.03302875093006695 -0.00633031092080799 0.3665606400963823 -0.5895021427884903 0.3572692235096221 -0.5908902511702271 0.035415218339393935 -0.005871476502994489
642.8000000000001 0.01822241308986982 -0.0019563544115624794 0.34272801058734914 -0.6022673402640355 0.353371575092928 -0.5920772027708571 0.020632660884468676 -0.0015755702171189755
648.7 0.028432749027817186 -0.01654477959351574 0.3513239474619934 -0.5976960066728703 0.33323674404915443 -0.6044547662334183 0.03284320887964712 -0.016269154685315364
654.6 0.014857857539187112 -0.00993638081550778 0.3401259138683152 -0.6028231305955706 0.3360201274130083 -0.6052599273852515 0.019390233698021883 -0.00954462153792163
660.5 0.015558145934700071 -0.016219896791194198 0.33269922233447763 -0.606535008103215 0.3359063301850011 -0.5999367097442614 0.020005124989656137 -0.017115868779534145
666.4000000000001 0.003855656796813538 -0.01856398458997929 0.3430719911350744 -0.599200148394369 0.3511688060017038 -0.5922964292603827 0.010384026055455813 -0.020597687809643963
672.3000000000001 -0.007213361042739293 -0.02448619845940841 0.3186880969844452 -0.6151041730391014 0.31062993390900506 -0.6165066952770034 0.0004838254980988528 -0.028509509469190536
678.2 0.003563196410477364 -0.031235898188814976 0.3436506036672072 -0.6034173542639574 0.3394162712562612 -0.6040832935131434 0.00952722939888095 -0.03628493064068952
684.1 0.02100091246252084 -0.028338359615929083 0.3443175104451507 -0.6046450708668963 0.31811915277633135 -0.6158360738935708 0.025290246289090965 -0.03360349514720568
690.0 -0.013684507585754497 -0.016664991412449537 0.31138705634765196 -0.6174450358875848 0.3127889387143079 -0.617790505834198 -0.010383890273437313 -0.02322965733950644
695.9000000000001 -0.015460689570723756 -0.0038326137748191562 0.30507760681186635 -0.6229247515666142 0.301464563404381 -0.6253198816039739 -0.014388012764186418 -0.011074697745876145
701.8000000000001 0.00024939204513982984 -0.013983535943419922 0.2761585802327475 -0.636180143340317 0.3016756679092586 -0.6243359909473637 -0.004236966713096964 -0.019402706781235256
707.7 -0.013731619354281235 -0.0031484346192110434 0.29390567665189243 -0.6258720362870268 0.29784628435278565 -0.6256130382249621 -0.01980780357618032 -0.008740349566363301
713.6 -0.013200116162190374 0.0018458220136024453 0.31951931348914847 -0.6148722318939297 0.3118796594140654 -0.6218427118239817 -0.020585197333941256 -0.0037468764257563283
719.5 0.001035432391654932 0.002304047340055376 0.2784501027789247 -0.6369789841990858 0.2832490314783597 -0.6322005910906299 -0.005744519590026113 -0.004581369497935
725.4000000000001 -0.005634457245383414 0.00953308729846158 0.286268202419849 -0.6346945952108243 0.28692548971041154 -0.6323906445494227 -0.014156329135170996 0.0031871940611880828
731.3000000000001 -0.0145853676633137 0.02517315817110506 0.3050977359906481 -0.6212239074234325 0.2800699739358021 -0.6303382796785952 -0.02470081604049961 0.01954436396520747
737.2 0.009650989736088187 0.01945809977680008 0.2715913292357955 -0.6389272010463775 0.28055763253378263 -0.633706922519517 -0.0019213811050639025 0.016092492251169647
743.1 0.0008569922897500231 0.03043127376764292 0.2643494456624135 -0.6415545281869939 0.2534634401728894 -0.6404141688350595 -0.011562180681454641 0.028034054600049766
749.0 0.01577752812067229 0.01230484406090144 0.23035671416804554 -0.6543942604560943 0.24030563727186066 -0.6461608832746453 0.0035659321512396145 0.01169194229770758
754.9000000000001 0.036723365263695996 0.01928686788274439 0.25431552238604893 -0.6450366448111443 0.2654798474948162 -0.6406275267436915 0.024054774727853646 0.018536407348289406
760.8000000000001 0.0344813699303548 0.01654883068905382 0.2527565714400339 -0.6443794031669303 0.2468254888065498 -0.6412374356944651 0.022923923168552813 0.017843936884219744
766.7 0.031410150477149186 0.011748067781419465 0.24766231337024228 -0.6476874042404573 0.24029945386891316 -0.6481812164239371 0.021108772714669863 0.013030520819410672
