!Created with skrf (http://scikit-rf.org).
# MHz S RI R 50.0 
!freq ReS11 ImS11 ReS21 ImS21 ReS12 ImS12 ReS22 ImS22
100.0 0.03223836283291841 0.003037601868176548 0.07664427036841065 -0.80730080912515 0.058747608351417055 -0.8107578225644262 0.03903548871779432 -0.00045885110362360744
105.9 0.031830222309652656 -0.001961640059006078 -0.028095267181054314 -0.8104038361065725 -0.04521389620561815 -0.8130624296834219 0.03817966786898689 -0.005538975017614606
111.8 0.04363711535451433 0.09004715936913726 -0.622022455075259 -0.5113923295426709 -0.5968343568543406 -0.5387345651478925 0.039030505293056114 0.09481774278063591
117.7 0.0564759644880695 0.07736506403990195 -0.6837570630004284 -0.42712235582336633 -0.6619408277438621 -0.4573378546635314 0.05392604430980967 0.08169279546189595
123.6 0.06511366646823266 0.061826462523398136 -0.7348235146189347 -0.3359060601636036 -0.7171613423197495 -0.37029766998075087 0.06355435730522355 0.06626280949247049
129.5 0.06815878796259248 0.045680071721861414 -0.7718151202199405 -0.23726771687534548 -0.7579674203959446 -0.2738962364058801 0.06844873505962411 0.050546189827988953
135.4 0.06720180967450161 0.02963661764056115 -0.7966663845492046 -0.13616771748652845 -0.7878086318472276 -0.17440535981882468 0.07056752039578065 0.03452485256321085
141.3 0.06375774715808966 0.017064745526213947 -0.8076186729204335 -0.03261426219275416 -0.8051359321067054 -0.07303340057309936 0.06721682326273212 0.02117764509752853
147.2 0.05657253276462703 0.006653154061363574 -0.8045332917625571 0.07239162308544886 -0.806938145088305 0.03228762664144034 0.05914378892726805 0.01025437456535219
153.1 0.04632609912709864 -0.00024872539676557497 -0.7887621314802791 0.17724844572485288 -0.7953128381027994 0.13453450159057875 0.04936871863367406 0.0032102974969736107
159.0 0.03842189516090974 -0.003315122636688643 -0.7591855441831062 0.2766680635662174 -0.7729689566140991 0.23613493264075186 0.042475772644054055 -0.0014715378731021405
164.9 0.03086318385862487 -0.004174679081633973 -0.7167473436244808 0.37339681151644394 -0.7357424759772963 0.33301743220188723 0.035428342907259554 -0.002152596147848222
170.8 0.025843384638301103 -0.0019357708997114398 -0.662633432399432 0.4636648046856901 -0.6873803191605666 0.42515920716522265 0.028258051608808506 -1.2458745287026896e-06
176.7 0.022206699447584122 -0.0004094768058190282 -0.5981458846684446 0.5449928922696889 -0.6273498894283566 0.5096012607690549 0.02504391520946922 0.0037529430957315797
182.60000000000002 0.021082381804875223 0.004471760414157139 -0.5219627649365567 0.6178844766165726 -0.5582374926890376 0.5859018823629268 0.022771890596835237 0.00877652326654808
188.5 0.0220671099007246 0.007630574524573595 -0.4381887935121483 0.6793567610173363 -0.4779631916409981 0.6528615387550116 0.023323145516217617 0.013581405903555258
194.4 0.023532620339488844 0.009165832757556428 -0.348386294337223 0.7305789561099717 -0.39127846940811994 0.7086331480521733 0.026062577514120014 0.016520602755155163
200.3 0.027408490694311262 0.009166113989608026 -0.2526912415413598 0.7692749561201069 -0.2994082177351827 0.7535188671686476 0.03062962719561837 0.015394709209972891
206.2 0.02967105684891465 0.007051785229952838 -0.1500369850352831 0.7950235666003793 -0.2007670946183466 0.7851465964591103 0.03509967348597971 0.012510837367406
212.10000000000002 0.03222527621079223 0.0027661116206605684 -0.0465931213776753 0.8071445664323996 -0.0975587634451037 0.8051837568920008 0.03871924673665263 0.008425950928092027
218.0 0.03286063574509568 -0.001343641510778019 0.05903897057827606 0.8070222038977276 0.005951507041658258 0.810686956078533 0.039035557684372085 0.003708266995343936
223.9 0.03210777314052221 -0.006461210894475695 0.16198506175395683 0.7928290703677453 0.11010145270484988 0.8043122772154462 0.038637566411823844 -0.004569755000735725
229.8 0.031116243010678064 -0.010972385037294712 0.26409741821388344 0.7660900411007906 0.2129952581487668 0.7840853367405844 0.03738968844996984 -0.009007654561636495
235.70000000000002 0.02733761534160119 -0.013277715093655822 0.36148051217734084 0.72498583819937 0.31267014018806333 0.7510334664353185 0.03372568683422765 -0.01437240796306847
241.60000000000002 0.023481671000529343 -0.016010121370619003 0.45128139550624746 0.671830835544233 0.4063163024692285 0.7049082861575262 0.029668796139846212 -0.01760200974500967
247.5 0.021065000000044617 -0.01751344577364841 0.5353646478374298 0.6079192850684 0.4940294979316834 0.6473842831715327 0.02445312883804876 -0.019683897166038935
253.4 0.017648739006954395 -0.01873943420874691 0.6088111233437282 0.5338413806433537 0.5734280145806986 0.5791536355917744 0.02096484216789387 -0.019440053459670054
259.3 0.01593705727832075 -0.019350242146617125 0.6735034491355152 0.44980734775653286 0.6430726972793563 0.501277157523887 0.016901449809603206 -0.01903745931690728
265.20000000000005 0.013404488173810411 -0.01818643423146434 0.7266355451381081 0.35963126602235185 0.7023756591191892 0.414647850324042 0.01358396086360452 -0.01809193108857336
271.1 0.013145889668612264 -0.01940934810007685 0.7707301848605125 0.2614209243693218 0.7506801896939808 0.3219436725051046 0.012074166229308595 -0.016176909752696138
277.0 0.012684796881264223 -0.01914842769275868 0.7969947871407937 0.16061545689210385 0.7854773684623321 0.2236040339169888 0.011718148319781437 -0.013903293902235823
282.9 0.012500442508651153 -0.018620572617305032 0.8122154941384319 0.0560817670131507 0.8094128137649391 0.1200821343989581 0.012653603147468148 -0.01277933728102379
288.8 0.012027751279592356 -0.01851707917291704 0.8128211401668172 -0.04985485166455187 0.8163343965925189 0.015791520422105996 0.01312403926245261 -0.012075211563125542
294.70000000000005 0.011990484357784863 -0.021024043464769465 0.7984396212268461 -0.1555282933223638 0.8127527501396227 -0.09044193009636814 0.014780608934138949 -0.014673476539281962
300.6 0.010755034507368982 -0.023433429061995675 0.7730171259599459 -0.2580001730235842 0.7926265182464759 -0.19342425839582675 0.014669302634780172 -0.016135300320049284
306.5 0.008137425346039496 -0.02601118870447004 0.7323215786294718 -0.3558786752881943 0.7622166395246038 -0.293373195785722 0.01362673296641301 -0.020501402855790836
312.4 0.003898907448956582 -0.027204184965070644 0.6800329047078555 -0.4470394975766982 0.717523456648308 -0.388357904924959 0.009144851905254624 -0.022593492254366174
318.3 -0.0013984542397377936 -0.027165405542766405 0.6155117686427936 -0.5311399167983777 0.6612931043872438 -0.4776846739734996 0.004491616040019464 -0.02496357953638432
324.20000000000005 -0.007191704413298682 -0.027531124386302938 0.5421882288343832 -0.6073903329914556 0.5949404174034172 -0.5598507702150194 -0.002374802928739171 -0.024809956822385626
330.1 -0.013123511842781268 -0.02471416856259281 0.4585110097428306 -0.671810254998862 0.5169542087543353 -0.6319811077476852 -0.008336892342539894 -0.02255158513871681
336.0 -0.017379986452989094 -0.02090759248356369 0.36691515822644033 -0.7248089990821484 0.4309115186034691 -0.6926897208386193 -0.013647874655629482 -0.019083120762999627
341.9 -0.021628519735927117 -0.016257298691584966 0.2690003367817298 -0.7668930748416414 0.3392851833854809 -0.7417902488498128 -0.018451072093966746 -0.013643319125908772
347.8 -0.024927360837406386 -0.010165971621689744 0.16939199961838627 -0.7939661757572578 0.241834125296295 -0.7791497203295213 -0.020303983465723218 -0.006162138874705384
353.70000000000005 -0.025297075690267994 -0.004642875423446379 0.06532246914813063 -0.8097222655686959 0.1398016387531468 -0.803061854833255 -0.023405833838926037 0.000915650882742962
359.6 -0.025478354910475752 0.00024279755427128154 -0.04051344562970957 -0.8099159784543873 0.03608220869158376 -0.8146641599570454 -0.021166442784462374 0.007183293462194744
365.5 -0.02416233116127084 0.006180493618455962 -0.1446812577884754 -0.7988462825770042 -0.06918921905486138 -0.8120620216402702 -0.01914753795506426 0.01567526966384519
371.40000000000003 -0.02124183072505959 0.01169903392122781 -0.24725905990496763 -0.7714274039143495 -0.17192903772898366 -0.7957872499009441 -0.015160090409853848 0.02209737606137661
377.3 -0.01737931265039087 0.015785877975660452 -0.3447376365544017 -0.7317428542068588 -0.27435793549960874 -0.7673083550129502 -0.0084812417115992 0.027183172071050674
383.20000000000005 -0.012859902022206266 0.019611316977316755 -0.43621387262189826 -0.6804075088983177 -0.3700909451670867 -0.724905133723001 -0.0010652669860133077 0.031154863937214134
389.1 -0.008923524514627069 0.0210710606702416 -0.5202129795783886 -0.6182472938585383 -0.4592876164844055 -0.6707285399159216 0.005692865137778186 0.0326320265911075
395.0 -0.0056503978457162944 0.022016644078152094 -0.5956548144069831 -0.5450291686038008 -0.5420387402671474 -0.6065543078240934 0.011742924323101886 0.03150989119885647
400.90000000000003 -0.002449996663254074 0.022588713611817048 -0.6602876271522639 -0.46198597582825646 -0.6154580549690001 -0.5319973814338818 0.018368027298285572 0.029446158174391262
406.8 -0.0004277636731436399 0.022751810757144705 -0.7130675874882482 -0.37164462802442294 -0.6779648249492186 -0.4493637978495618 0.021584085263391128 0.02741352099198649
412.70000000000005 0.0018952442701310238 0.024392168669325594 -0.7558118735456021 -0.27638412422717934 -0.7300444565718364 -0.3577193795184314 0.0249730398591334 0.02505544950237312
418.6 0.003327249320984451 0.025954327086574983 -0.7842256679374741 -0.17659453651274676 -0.7705069004977317 -0.26075714397759236 0.027933247688937124 0.024063174920015095
424.5 0.007077931564978003 0.02793139781060833 -0.7990420784211884 -0.07309584125473167 -0.7961392588788525 -0.16022913702610916 0.029938467453699887 0.023647660140561962
430.40000000000003 0.010660872230215838 0.030846678983664628 -0.7943836496117856 0.0331832421218306 -0.8031144316483101 -0.05401428689745586 0.033836874897508556 0.022798269419727676
436.3 0.017816830130153363 0.03279600264481088 -0.7838130911304579 0.1357929581173287 -0.802355410453909 0.04889366134918269 0.03707472966645375 0.021848977917164707
442.20000000000005 0.02381211005300826 0.03428439840044883 -0.7600164575349166 0.235279766662805 -0.789460666970031 0.15233979105583229 0.04136418625685844 0.0205263626879782
448.1 0.03294838697510018 0.03470707649713477 -0.7222727265364542 0.33080031940726723 -0.7632085776916665 0.25194287471402715 0.0456019163427266 0.018753126797866174
454.0 0.04365894114032963 0.033269182680908095 -0.6726703662531514 0.4203681771035672 -0.7230782546427468 0.34642616503150625 0.05140496928948686 0.015652069765104703
459.90000000000003 0.05335332354772742 0.027820042032857054 -0.6111930948795118 0.5036094645251783 -0.6729460335064136 0.43615813496774714 0.057775844522552466 0.011595856196294104
465.8 0.06095097350659859 0.021537021973021243 -0.5412683429380021 0.5775658816707816 -0.6120332999929108 0.5169874836713366 0.06443551979233962 0.006535171130068693
471.70000000000005 0.06830332708175238 0.012513289304373136 -0.4615798864708523 0.6419575955911796 -0.5422832256470365 0.5912219125879141 0.07032411802863964 -0.0012467705235479569
477.6 0.07275527684109857 0.0016963889980637437 -0.3757676370169892 0.6963646825907213 -0.46139250228227535 0.656316042190331 0.07389212226610714 -0.011235028675165463
483.5 0.07504086843859943 -0.011119853877206516 -0.28151753930535645 0.7375243510238902 -0.374976207125808 0.7076717084460009 0.07622001154164455 -0.02098380053045326
489.40000000000003 0.07545784876559135 -0.023788969707203473 -0.18544261043597737 0.768712588605903 -0.2813379175452238 0.7507952365394686 0.07523635099534173 -0.03410320052253636
495.3 0.0714314773611373 -0.03583398022648555 -0.08442983314193006 0.7852730036012245 -0.18215224130529456 0.7806007344469492 0.0724778213400207 -0.043913684957125915
501.20000000000005 0.06556361085270561 -0.046068141965507015 0.017404295898498498 0.7894433196258512 -0.08272155177961642 0.7968818313341804 0.06658240927445565 -0.05559880575006394
507.1 0.05732252327243698 -0.05573295112784095 0.11900703727495815 0.7803782576729619 0.02037481400308134 0.8016953989059332 0.05909886423836786 -0.0641424516203847
513.0 0.048211352086855716 -0.06138400418016735 0.21801545892440002 0.7578928177962776 0.12126477273928989 0.7912260628731892 0.050199775525677844 -0.07152442130469956
518.9000000000001 0.039848585021572035 -0.06596094631524654 0.3140935543669235 0.7233434437941721 0.2212550102486526 0.7702520327187538 0.040277642267085446 -0.07624366542534945
524.8 0.030489942627474374 -0.0670932005272696 0.4041979452610904 0.6763038977396942 0.3172898457447578 0.7367385397061059 0.031148096989970595 -0.07957437222184167
530.7 0.023701765335802812 -0.0677241292858532 0.48645900457014424 0.6188925997916733 0.4094196056295719 0.6901509055238305 0.02317489424327917 -0.07980475998807057
536.6 0.017599272478424643 -0.06623901963435604 0.5619390601420652 0.5508608178681624 0.4944911905039699 0.632362631148493 0.016116110983570964 -0.07978811378390166
542.5 0.01442120060953629 -0.06580391015545078 0.6281074380164063 0.47308278715069185 0.5706143157111042 0.5633085144738862 0.009821555317252883 -0.079256225920699
548.4000000000001 0.010792647444917074 -0.06642852737919082 0.6827602235296024 0.3881459181412646 0.6379026603472392 0.4878742371438659 0.0033466249508301424 -0.07825109234779991
554.3 0.008310830080708324 -0.06608029323978966 0.7264219614523026 0.29627805322798634 0.6941707753716969 0.4024790312526183 -0.001595595538358259 -0.07717429964460311
560.2 0.0058950007273297364 -0.06740280737337952 0.757907774076244 0.19921989822398883 0.7393660086452747 0.31016064867244597 -0.005533006103409987 -0.07655719263739433
566.1 0.0030117734859993824 -0.0705441782136792 0.7758606912141465 0.10106853633316777 0.7737542538142623 0.21255509460397118 -0.010145976778930197 -0.07658217834758807
572.0 -0.00262811512452659 -0.07431144495497408 0.7820324222572835 0.0001943577251898078 0.794779534493899 0.11334529021914613 -0.015041533251687085 -0.07766935637053891
577.9000000000001 -0.00998435992750663 -0.07965602677767693 0.7746165582947584 -0.09978413487587465 0.8016880952473919 0.01139686818480288 -0.021587061525357526 -0.07880014847632841
583.8 -0.01964252633112966 -0.08258004659251497 0.754615249187438 -0.19784758114383313 0.7954777798554404 -0.09088775472365827 -0.02988177967887706 -0.08051568950842629
589.7 -0.031294514631236836 -0.08480133082467432 0.7239053443213578 -0.2916267124788139 0.7793786861595755 -0.18998636043362524 -0.039874956548974626 -0.08063954221945402
595.6 -0.044858043622681705 -0.08284103758886692 0.6832830596522453 -0.37955080271591124 0.743131190973234 -0.28214692599685115 -0.050839247282856694 -0.07702862859937161
601.5 -0.05923283660499007 -0.07736462816740973 0.6302049485286195 -0.4626385319432385 0.7007920778424404 -0.37316934598051404 -0.06214582189111573 -0.07223174027055543
607.4000000000001 -0.07272059321936077 -0.06840639224512601 0.5652638818498399 -0.5395363006014282 0.6480843133224631 -0.45979349022429467 -0.07425917178204008 -0.0639470463352946
613.3000000000001 -0.08330573047034 -0.05568312706111544 0.4913600311189568 -0.6087861743734082 0.5853067587605278 -0.5388273450762785 -0.0839683896455394 -0.05123252456268356
619.2 -0.0914410471952043 -0.03945889791841111 0.411081808858695 -0.6680147489170553 0.5127404750661135 -0.6091059649380399 -0.09073653083566073 -0.03659307171858642
625.1 -0.09435089575070801 -0.021425797683059716 0.32157828949588935 -0.7163171806234631 0.43182747133746113 -0.6692848893957848 -0.09450067994552043 -0.019649434237156906
631.0 -0.0925697110339768 -0.0030358314255671654 0.2265786611098987 -0.7532680947122417 0.3418113218380284 -0.7190512967713434 -0.09310574350819063 -0.0016018464286572244
636.9 -0.08474567206633454 0.013665589188063052 0.1285310153735794 -0.7770495956847713 0.2483691225381609 -0.7584954202741886 -0.08750866908640167 0.013998547332135243
642.8000000000001 -0.07413412099333319 0.027821688971539568 0.026388042308546078 -0.7893671743413385 0.14850979000008693 -0.7846741388570578 -0.07684292489178789 0.02854461101960224
648.7 -0.060323817961313364 0.03807693526925776 -0.07603628672395486 -0.787327253017275 0.045985658611658035 -0.798936056058656 -0.06484454276522487 0.040399523496539726
654.6 -0.04521116768885729 0.04510092163394345 -0.17825512195747217 -0.7704715210965698 -0.05541038968607746 -0.8004634514182788 -0.04961224103865253 0.04793594209611724
660.5 -0.029672404453879073 0.04614617644444202 -0.27699886209374985 -0.7440596526558737 -0.15733163623935464 -0.7868875379629787 -0.03258923072899433 0.050511451803575386
666.4000000000001 -0.014218633570427514 0.03989340892267254 -0.3711617685950729 -0.7025196750549056 -0.25794680857320723 -0.7607634993547575 -0.016821448920083363 0.04737627818940537
672.3000000000001 -0.0020833594583148057 0.030716910635110648 -0.4608297775729608 -0.6491609078578082 -0.3546363190530313 -0.7225092021495887 -0.0028864256055873526 0.04073791078382616
678.2 0.003951378597396403 0.02236193019039767 -0.5414198966977373 -0.5831572420734362 -0.4435322758225177 -0.6712907205146834 0.006723447442671665 0.03093899137891459
684.1 0.008308478280573255 0.009010017110989926 -0.6126664636048281 -0.5092265524927239 -0.5264042969884964 -0.6094104314869423 0.012785852253505342 0.015436580226663433
690.0 0.004030626095300958 -0.006007966514847231 -0.6734119569681878 -0.424895549136426 -0.601020599060521 -0.5372666792242564 0.01083307737968218 -0.0008992442221718262
695.9000000000001 -0.005198907616861443 -0.016631117071774594 -0.7236574422463309 -0.333939404789152 -0.6657673511954864 -0.45604157083936875 0.0030743347075658832 -0.01485743748957662
701.8000000000001 -0.015632041331230775 -0.020023920338997213 -0.7611453393560834 -0.23798904168817459 -0.7188801815353759 -0.3671626532599949 -0.009586698051548432 -0.0254745213521826
707.7 -0.026953416759984677 -0.01904247843139381 -0.7864611735392408 -0.1364264327739156 -0.7604259659951627 -0.27119892271799656 -0.021871042872348263 -0.02715970391446752
713.6 -0.0383498606263141 -0.014352374212367127 -0.7977036140574577 -0.03349139400472506 -0.7890560448615762 -0.17160220418173938 -0.035141475948423026 -0.024573976321608376
719.5 -0.04886601674436295 -0.006222374670370713 -0.7976248624653843 0.07091188124943329 -0.8044652884893787 -0.06750775582982328 -0.04477601991241344 -0.016644238348797025
725.4000000000001 -0.054669220368319255 0.0062068486117695726 -0.7808408154254746 0.17431626536089426 -0.8070293753885798 0.03652719542315597 -0.05365306728447633 -0.006035538518829961
731.3000000000001 -0.05486181199255722 0.020311624981907847 -0.7520936008270833 0.2749899524338027 -0.7965439510680359 0.1404889119808799 -0.057436042522542266 0.007075632106138995
737.2 -0.05051341377737457 0.033654622229075525 -0.7107410134483684 0.3703348578535326 -0.7731867596673901 0.24151090319971685 -0.05744363968443882 0.021491238907529044
743.1 -0.0421515683062168 0.046877301302349794 -0.6567970754704452 0.46079683959138373 -0.7351309553321647 0.3390212567930738 -0.05182022758234448 0.035744341780469244
749.0 -0.029819863540233 0.05509455569621217 -0.5914865196286255 0.5426434187399163 -0.6850661140162342 0.4317217894824743 -0.04140959768721961 0.046796975703741785
754.9000000000001 -0.015448233007494998 0.06108963397048865 -0.5180773165584632 0.6170951001469666 -0.6249124301203202 0.5143995236414025 -0.028657627502875847 0.05445921802669735
760.8000000000001 -0.0001671729869782761 0.05997309665852682 -0.43455570809380456 0.6806815673464536 -0.553255219034283 0.5901145599077433 -0.013580528929237529 0.05755355833183414
766.7 0.01386885890658694 0.0539644740189858 -0.3413664895869314 0.7300939516642154 -0.4721867390466017 0.6570564544294722 0.0017738958625978715 0.05340447894444248
772.6 0.024441273519799845 0.042802617606124437 -0.24194860133158208 0.7688653950915534 -0.38288034693604633 0.7112310516425343 0.014609095769669622 0.04569410087086079
