!Created with skrf (http://scikit-rf.org).
# MHz S RI R 50.0 
!freq ReS11 ImS11 ReS21 ImS21 ReS12 ImS12 ReS22 ImS22
100.0 0.006707707660515923 -0.011262635293255316 0.6900907643118978 0.13826800585495846 0.6945584780417645 0.123229247865312 0.006189238097780429 -0.016327502617344437
105.9 0.007209732272315021 -0.010975837063496356 0.6887851302101399 0.14680152923335443 0.6906229870153252 0.14297786595899978 0.006426920053908464 -0.01532682325311304
111.8 0.03625997751131575 0.01432880984903269 0.6896295169898361 -0.14962165136998815 0.6912357413402124 -0.13930729370482853 0.03930100717010991 0.022015390590042535
117.7 0.04195217072617842 0.0059895097398176365 0.6886679527200725 -0.1532040885992553 0.6920023670827257 -0.130756943235789 0.04050209881568429 0.009506312130507793
123.6 0.030617137271452318 -0.0008740720497231939 0.6935103279542917 -0.13920514490430744 0.6907145668533872 -0.152302267275819 0.03310411275981304 -0.0025518002007859394
129.5 0.0283058719346719 -0.006111040575273774 0.6927868684310543 -0.1358156338008658 0.6862262972798544 -0.1604739286740294 0.032861911378623196 -0.007772536972103493
135.4 0.023550175938376258 -0.012554633485894081 0.6929199865167422 -0.1491765398278005 0.6844867925095618 -0.1705434681540156 0.030622117315322495 -0.012062196038957852
141.3 0.019469033251083994 -0.014253240119972685 0.6893448386983784 -0.16741587350551437 0.6887586914506786 -0.16622513509099549 0.023886576621379725 -0.016222722052176224
147.2 0.01538922483010679 -0.013362765746429892 0.6787615113252015 -0.2015974630183233 0.6880342847831936 -0.15649392635935433 0.014371107548531435 -0.01820827165664741
153.1 0.007163126632075888 -0.015597054203875018 0.6831045443816688 -0.1844546996117836 0.682164300236039 -0.17994746445320497 0.008693750370463008 -0.01638306558825789
159.0 0.008540557160604402 -0.013350736273573862 0.6864078780590877 -0.17359334298597345 0.6755870578971536 -0.20007844143497006 0.01042128064423804 -0.017196119679949533
164.9 0.004324675395996824 -0.011224264928729862 0.6797819560719098 -0.19945824389030276 0.6815736928365694 -0.17889190408242464 0.005120989457539663 -0.013884374562234078
170.8 4.435137828677785e-05 -0.007639571691623061 0.6786415387290701 -0.20015647019488755 0.6792490858950859 -0.18333481363741122 -0.0023949154429143533 -0.010014472190960008
176.7 -0.0014523005589487888 -0.00676983677120808 0.6746491117096928 -0.20560675049702445 0.6719185567481932 -0.21374607260153267 -0.0012251451045777908 -0.0020211852172837184
182.60000000000002 -0.002986057040191079 1.30551813527299e-05 0.6764445724489973 -0.19975969978813965 0.6746111940259922 -0.1971242154667096 -0.0012778831735455341 0.0013072437061693062
188.5 -0.008394386294488985 0.0014448619852063943 0.6624567802582468 -0.24349721139781452 0.6662158249709942 -0.22341870081093365 -0.01139828826670065 0.006599922958029387
194.4 -0.0014823822314470737 0.005273458732272138 0.6704361320967045 -0.21904332165336493 0.6682378451508298 -0.21936408254748255 -0.006042183787537471 0.009698085582432531
200.3 -0.0030682774349843956 0.0071780196164683285 0.6625498151914732 -0.24627714824312588 0.6661467966348612 -0.2317187895739849 -0.00304070163555482 0.00924634948595204
206.2 2.4480709293443403e-05 0.007463973801085814 0.669990328028517 -0.22478645622929208 0.6677092740540816 -0.2226709935229391 -0.0006517272765322976 0.009891354649952853
212.10000000000002 0.0029004793880028435 0.011780523786508552 0.6729262016926958 -0.2085646745218586 0.6641184677181496 -0.2299210308969049 -0.0017490140466609756 0.011770175719061216
218.0 0.005799464243962168 0.009781529750220005 0.6590280423816872 -0.25103360527170787 0.6553775084047097 -0.2567616631462376 0.003606849545312397 0.015564554771472467
223.9 0.007263314480009487 0.010980313007788673 0.6578394498352743 -0.25394566075720043 0.660292576466805 -0.24228730931015996 0.008373511640051852 0.012869572603436435
229.8 0.00941376160296316 0.00886309616711153 0.6501929196166631 -0.2772174324373801 0.6522599862498218 -0.2602864236187224 0.013247265594776141 0.015189850887110265
235.70000000000002 0.011848246794386345 0.008066190800004772 0.6506581865316007 -0.26612683163023754 0.6569665050729319 -0.2545941259470514 0.00778532607157829 0.012216785518936618
241.60000000000002 0.01395894384990339 0.009725705543075105 0.6507868566396939 -0.26857810999152093 0.6459127280718274 -0.28141306638176944 0.01550580727527942 0.011757572666111374
247.5 0.014399455312602841 0.007987943344431267 0.6474153165724735 -0.27834106738532854 0.6409698623851875 -0.28746275235159785 0.01919696836836337 0.009432835220105225
253.4 0.017337099005280958 0.006567487331730433 0.6456831968065101 -0.279427211317902 0.6360865291824872 -0.2957437475941158 0.019389059626618927 0.006065449879225698
259.3 0.018333254917901033 0.005667861254175597 0.6379899206325492 -0.2971648465120697 0.6453815291871288 -0.278056898149522 0.019328403467272087 0.004952969555123452
265.20000000000005 0.013526572678662354 0.004675859360798412 0.6439226288985173 -0.28298564375344304 0.6320433743332066 -0.300635072356246 0.019225238009818357 0.0028093064859720995
271.1 0.017005662338009455 0.006620386180810841 0.6328269586485272 -0.3112966650058981 0.6441666598171325 -0.2868070343042016 0.015001322909045808 0.0028457787909846686
277.0 0.01275502884197518 0.008426519513149544 0.6295957975216047 -0.3186775493096614 0.6343759348671952 -0.303968546285022 0.0160430666541836 -0.0017221432519406489
282.9 0.013279106711772935 0.007311291351950825 0.6198660516919985 -0.3374218156089201 0.6338180615472871 -0.3028496911549901 0.009152936257779196 -0.0009269661258335571
288.8 0.007916421819332192 0.007853549890356536 0.6247454605508441 -0.32659476158164186 0.6269406243204793 -0.3136920187519839 0.008868375321936328 -0.00037549258592595885
294.70000000000005 0.012596277711490333 0.0055782865302316876 0.6121452149050299 -0.342389706536245 0.6214299169739685 -0.32765967629275605 0.011812935235928744 0.002663320403319561
300.6 0.009327984993341774 0.0033779722149953387 0.6228694339844503 -0.3245145817543588 0.6070249782857489 -0.3494201109915581 0.008736075514232852 -0.004063929533818778
306.5 0.009905678437642894 0.00845248907283512 0.6123224770618251 -0.34442444198202604 0.6118656360502207 -0.3361889358029954 0.008634221216998408 0.001960079848037755
312.4 0.008720466734367983 0.008336433548609771 0.6042472420232539 -0.35495127419483236 0.6033978232450701 -0.35499702631911717 0.009974873255908217 0.0004940502142680822
318.3 0.016584583944602882 0.003009660482472253 0.615169166836013 -0.3361638923004245 0.6008893159590306 -0.35763285696856645 0.012772968700983777 -0.00040501927064618613
324.20000000000005 0.01137087938446337 0.010368107452730889 0.6101860610812188 -0.3505038986259104 0.6077839111923331 -0.3450038568302131 0.01132243794081137 0.0008234707804614792
330.1 0.016346848713006876 0.005512504416834444 0.6060312117614797 -0.3566786882073745 0.6095974379267732 -0.3436352782195352 0.013236701220230782 0.0002560689118581516
336.0 0.013630268763142038 0.006568286196808941 0.5932243596027861 -0.37177529840863677 0.5978902727698032 -0.35839718210083615 0.012816042725743203 -0.001580637178814928
341.9 0.01625960142583538 0.008303852105302965 0.5955596430042356 -0.37688111650603284 0.5916896154000834 -0.3709314027225904 0.019442860063617444 -0.0004205545718461938
347.8 0.014861301241847692 0.0010232880122401332 0.5943972727020786 -0.37314744446497095 0.588781195646288 -0.37528481146414816 0.013898865885147183 -0.006612616284843205
353.70000000000005 0.017197631154572703 0.002136732036014451 0.5847411463649926 -0.3885507821497863 0.5952367630568752 -0.3632562691315703 0.020460973913802395 -0.00517584921121073
359.6 0.01751306794377664 -0.0006515205025462377 0.5812806285359213 -0.39485667651249245 0.5919436665733391 -0.37264767053528625 0.023884763095546515 -0.008266901327540637
365.5 0.016226826702029983 -0.004909946269751143 0.5839569490667496 -0.38889176216712984 0.5830974284157263 -0.3839772251393559 0.022658732086040922 -0.008535392071287009
371.40000000000003 0.013538332606586252 -0.006703620555505262 0.5659022320458116 -0.41780263319944044 0.5682638435521257 -0.40374214045615703 0.01921773493708879 -0.010559477849822647
377.3 0.013051108240645901 -0.011025380865189649 0.5698324032353334 -0.40965035300632785 0.5770851789529085 -0.39435398929842724 0.020737139736532916 -0.01880927390864433
383.20000000000005 0.012644829072253757 -0.009697834469938875 0.5800032393450214 -0.3982906706613105 0.5738363342768711 -0.39709806816141807 0.02096278547606591 -0.01980077792933953
389.1 0.007525966755735949 -0.008255092863183884 0.5689198314147713 -0.4125308794379559 0.5623459627879014 -0.4155197261417461 0.016611940019173148 -0.021293159334520903
395.0 0.00655727780220426 -0.011511863649085652 0.5739518778922202 -0.40537336364165494 0.5572619253197442 -0.4234135180936137 0.019923967216737594 -0.024927628195044526
400.90000000000003 0.003714197645887604 -0.010345955970246389 0.5659441381035808 -0.4145505297934064 0.5623656302037663 -0.4154736643353693 0.015154750355102265 -0.01940250627369493
406.8 0.0013912692650266318 -0.008857720480276563 0.5586256242281857 -0.4246877857106493 0.5409794601927808 -0.4464584175402428 0.013072097504189199 -0.019415358506038902
412.70000000000005 0.0038657606297322817 -0.008191544042982021 0.5585624354322849 -0.42797878217068686 0.5505359576217306 -0.4360484028837001 0.01238164309503001 -0.02108907196869231
418.6 0.0009141489982173861 -0.007769186586130052 0.5437814362290856 -0.4457739475047513 0.5507873946639855 -0.43495885798043504 0.011011185228033822 -0.021707068233705013
424.5 -0.00623612474794907 0.0007411129722534952 0.5387980854547955 -0.44796314414538907 0.5308412197693602 -0.45749801603442736 0.007603195605131766 -0.008584418769757239
430.40000000000003 -0.0035411800324373416 0.004803481077132724 0.5551254490617424 -0.4286978650933554 0.5394842264641728 -0.44574397351598566 0.00720963331186843 -0.004559394459363687
436.3 -0.0012157117584897879 0.005410786183157428 0.5367090771193085 -0.4524954574661965 0.5381542513972775 -0.4458917360287602 0.00916807744076485 -0.00629440374087844
442.20000000000005 0.003517325879517323 0.0030388121678142917 0.5371220672191958 -0.45369744293842384 0.5313534636446406 -0.4563533163866704 0.009897608465506736 -0.011237579840571058
448.1 0.0039177084017899926 0.004387604340512058 0.5160615323013908 -0.478526882059193 0.5289002942721479 -0.45850533644755664 0.01094400097834055 -0.005906941604200387
454.0 0.01096295571249166 0.005804604962081544 0.511878934683251 -0.48333025619835435 0.5086768236969269 -0.47864752379156034 0.015301425702033546 -0.005328023145933518
459.90000000000003 0.009632352449228266 0.005982048714336599 0.49713867012203716 -0.4961624983150514 0.5126554542460305 -0.47779450364387693 0.01477226640892682 -0.004219663220955855
465.8 0.01582114806799874 0.00907854029348619 0.5067173599193076 -0.4890147037666004 0.5020945295957755 -0.48936223372672133 0.020261387164918963 0.000656253696081048
471.70000000000005 0.01922729577953772 0.0073881242943483446 0.5107038982121841 -0.4854701329280524 0.5008048894621243 -0.4917922199386635 0.022431386249007066 0.0005586115456074749
477.6 0.017971393284232404 0.004935172933582395 0.5062789950923363 -0.4923474411812963 0.5062129449397149 -0.48856885321694593 0.02280770807018312 0.0013005976635476564
483.5 0.014436207720065163 -0.001119862564084581 0.492742768649263 -0.4990546958323869 0.4937825008867529 -0.5022694798182079 0.020857088086084195 -0.004116915312190646
489.40000000000003 0.023261541875153325 0.0020513186361262145 0.4883085931868494 -0.5073743179987006 0.4838066893084557 -0.5092971642324202 0.02649418723552338 -0.0032357628871932586
495.3 0.021620208264237602 -0.004566236313253268 0.4758905884335867 -0.520485685704966 0.48518337331641037 -0.508868621038889 0.023789978391666217 -0.003965819075715688
501.20000000000005 0.022515364934712224 -0.0055561332608489835 0.4699851924451393 -0.5254240763152502 0.4721049251803373 -0.5195580448316339 0.027161521120191788 -0.007547618351977074
507.1 0.013905926253611527 -0.012341378215687019 0.4847696603061302 -0.5121009418771427 0.4823979392038334 -0.5132796324605935 0.0270740337917898 -0.011072724105132863
513.0 0.016044737934485194 -0.007927709895868539 0.4651583608488489 -0.5328475702414525 0.47449348873086955 -0.5192913591701995 0.025894761849689387 -0.011412848253862337
518.9000000000001 0.010817290080078881 -0.014459417630525757 0.46585808829732084 -0.5298951328154212 0.4619395435432356 -0.5324034650721972 0.021248235605547092 -0.012888945092495656
524.8 0.009649840464392963 -0.010958706664038656 0.4695513869889488 -0.5251025040076893 0.4743699000160236 -0.5201827559413886 0.021881076303853213 -0.010641831317963178
530.7 0.004695402470121727 -0.010385562105637522 0.4625773712510664 -0.5367974441123496 0.46656187067509847 -0.5320469742558209 0.012780504582405131 -0.012380683403477043
536.6 0.004872287626779525 -0.009303311560876801 0.45449199119930467 -0.5446703402478031 0.45440894801240833 -0.5435118132120359 0.014133908893650408 -0.01372603421104709
542.5 -0.001410509022535881 -0.0014736501282220796 0.4484191776594651 -0.5468560920403438 0.4348201973018123 -0.5536627104191794 0.008491277177508602 -0.004367047393256799
548.4000000000001 0.0024276285509046026 -0.005501987073461128 0.45489789356596366 -0.5405860155788416 0.4456388304692725 -0.5485125465292988 0.009463995208595264 -0.01381602381581907
554.3 -0.006898113158028923 -0.005300992200912775 0.4286486219924415 -0.5619897476386485 0.430086935321182 -0.558121414456618 0.004510985695180523 -0.012415901046517283
560.2 -0.00967092108068229 0.006293325020565563 0.44414845066677566 -0.5492692171213708 0.4170454185756792 -0.5693158612740384 -0.005968638714347677 6.052312753736852e-06
566.1 -0.003393991831803908 0.008398391504778937 0.41199590797525293 -0.5725593668573316 0.44271122616939945 -0.549765436596737 0.0008657896238526224 0.0009672179693870915
572.0 -0.007446307644462058 0.014711788709495561 0.41059570058037254 -0.5766564700462844 0.42051335843893356 -0.5697799715336088 -0.004880945906161298 0.008011662789534474
577.9000000000001 -0.0014283219586748014 0.019924573146123607 0.4103960972724956 -0.5717384012064506 0.41846111497511584 -0.5644023324334128 -0.00012794478481409377 0.011094268930679697
583.8 0.0023381171841892288 0.022321463339220894 0.41384548197127724 -0.5674762790837894 0.416330243774476 -0.5637514327359502 0.0019552286995418683 0.015640896384994506
589.7 0.004757450675199359 0.023889245895814225 0.42128195217186687 -0.5656013841560952 0.39171847975750196 -0.5865212728214846 0.007177910072681239 0.02327385474857403
595.6 0.009861198105447975 0.03234298598438491 0.39785073693034484 -0.5842384223237846 0.39346649099277103 -0.584740180706079 0.005801631462108599 0.026366667317159316
601.5 0.010449634644116964 0.02211145616575125 0.38865514291055525 -0.586436594492648 0.3814313594296229 -0.5933778277167623 0.008901362292878637 0.01971748149630883
607.4000000000001 0.018513568480552144 0.02805637354416604 0.3912212580465773 -0.5859254144320871 0.37591778875241455 -0.5931316501708465 0.018053710665917926 0.024081578983718984
613.3000000000001 0.024178012366456163 0.018418180412633083 0.372087651339887 -0.5947830707178805 0.37062232691755526 -0.5935063187232433 0.02173190295113561 0.01885991729948747
619.2 0.028128954457077342 0.01866873989800764 0.3831004540863051 -0.5881655962258291 0.3651304337773655 -0.5996115551444533 0.025686799716275965 0.015023087922171706
625.1 0.030559910252497775 0.010194873592118393 0.35943317606799396 -0.6043160886337878 0.35043312951370637 -0.6063403112807796 0.02772185832089349 0.011667131130960335
631.0 0.03109357494249554 0.00607522219701745 0.35424442554686825 -0.6077133639285558 0.3486850321625498 -0.604041081102301 0.029750261392876877 0.00921606629591673
636.9 0.0286322125760542 -0.0030009824773931317 0.36576929554705956 -0.5990569440842576 0.35645790960863555 -0.6006515907123974 0.02915973430192871 -0.004410166595975684
642.8000000000001 0.025234363050120084 -0.0053996911533212965 0.32973416021808294 -0.6223920770478896 0.34035101740995305 -0.6127538747362893 0.02450570942731124 -0.002060019074430206
648.7 0.0238829371048778 -0.01948131036842202 0.3440125616454006 -0.610167961491273 0.3253446532399998 -0.6164098303848438 0.027998474354474265 -0.015914642573641724
654.6 0.02506369924709689 -0.01634126062717927 0.3372143470038193 -0.6106767121967529 0.33312941750495745 -0.6131961187335991 0.029231341199098714 -0.01686324307858112
660.5 0.018345331292646632 -0.023263354036824467 0.320533375969129 -0.623382556662445 0.32351291072433713 -0.6169479375019367 0.01978752590947632 -0.022812611862165554
666.4000000000001 0.014350256269165 -0.02934413299126233 0.31330148753803255 -0.6232192492058212 0.32143090625081666 -0.6169717855328455 0.017535137268485337 -0.031143723630512134
672.3000000000001 0.0021371369967938224 -0.031964249713548734 0.31934695910152194 -0.621940250261291 0.31098001798849534 -0.6233674685184492 0.008787877755376705 -0.035667786009548674
678.2 0.0032010279192304946 -0.034190089021520945 0.31468363094627727 -0.624291163104787 0.3103905177908788 -0.6250640548577848 0.008100663963914151 -0.04227724466538519
684.1 -0.005788501584665181 -0.024075489755172454 0.3254758589517078 -0.6204657034338134 0.29920615149824575 -0.6305589024850157 -0.001537617833184403 -0.02759280023148459
690.0 -0.009939993418875418 -0.02305252835138325 0.3045960391384056 -0.6281883352202897 0.3058096351629702 -0.6284578798029072 -0.008518073664290965 -0.02852362405704254
695.9000000000001 -0.015687019724646954 -0.004561862357094317 0.29814530853673293 -0.6314155489267557 0.2945857380061463 -0.6338740661375827 -0.013952729622770967 -0.014340261268064158
701.8000000000001 -0.017534675699220716 -0.009374051330356318 0.27617508576084276 -0.6450898930250212 0.30200684247093146 -0.6335221269006104 -0.022575587840638872 -0.0155737545115199
707.7 -0.01826040984571235 -0.0025704084383931887 0.2740219327120424 -0.6433138820649733 0.27814499405369847 -0.6434019353357776 -0.021360620001081496 -0.00992907926399093
713.6 -0.016078744791497488 0.0036189182833046567 0.2796153242635973 -0.6394344088237884 0.2714179977780132 -0.646027424812908 -0.023132750361496934 -0.0039183890100874825
719.5 -0.014165307113819428 0.009857927993866327 0.2609972381289963 -0.6511834329145844 0.2658210641588558 -0.6466868151960894 -0.022122447719022966 0.0008222221249842078
725.4000000000001 -0.008134128953576986 0.012521069685616516 0.2748141178187222 -0.6443914806954752 0.2753805844378577 -0.6421299834900617 -0.01763959392887259 0.0024416020153029475
731.3000000000001 -0.0044514388805825 0.025113970085780535 0.28239128341321024 -0.641067312706818 0.2568747914830821 -0.6487025251484604 -0.014883315195891958 0.010277085909493017
737.2 0.004286481883353152 0.024318264629422916 0.2495669181151406 -0.6539793939270344 0.25871804249948144 -0.649097590367384 -0.007912769271195904 0.015839367270869053
743.1 0.009167850635909922 0.026001840592855006 0.24763996876928462 -0.6567739876962547 0.23711568131273267 -0.6549534848453241 -0.0065858025479456975 0.016623631274517856
749.0 0.010949592312700191 0.021828214131742393 0.24741487775116175 -0.6551992602139631 0.25704787053279626 -0.6466296801347677 -0.003652752680185632 0.014598343614532066
754.9000000000001 0.025537040591065818 0.03125259958257059 0.2373398501222268 -0.6574462685561576 0.2484356493881466 -0.6535176877419863 0.007577561185903532 0.022794461386517015
760.8000000000001 0.030487982781542182 0.023868697387841482 0.23447974136429078 -0.6612572381663716 0.2286597463113075 -0.6579983532478516 0.014169138397672879 0.017458300841017682
766.7 0.03712995035027494 0.013530696339037404 0.2257010195691427 -0.6636266556013292 0.2184456467039689 -0.663884922895779 0.023161247419025022 0.010943379887451447
