!Created with skrf (http://scikit-rf.org).
# MHz S RI R 50.0 
!freq ReS11 ImS11 ReS21 ImS21 ReS12 ImS12 ReS22 ImS22
100.0 0.006037186873656478 0.002510051795782277 0.4659893233683253 0.17081199363874414 0.47029993759364525 0.16119867393201304 0.003385875959427046 -0.007290250865338306
105.9 0.0018943436751661968 0.010251600817206906 0.47121371218205216 0.16131602384889349 0.4745204217177452 0.15981763536411647 -0.001566613852385961 0.0005992463231997754
111.8 0.019817172691184572 0.0049043954391616434 0.4856554499064563 -0.1003543983418582 0.4899202340394166 -0.0947614987693206 0.022072979020864716 0.011116299422146153
117.7 0.02708617704274783 0.006965890151434086 0.48809639505102465 -0.10577910794351407 0.49266016021339065 -0.09006358531935421 0.02900288418898249 0.013248711954801254
123.6 0.018876480727146885 -0.003631391893611868 0.4919960637065297 -0.09033611619650456 0.4924962617921542 -0.10004616654941925 0.02229310551583143 0.004093321298389927
129.5 0.018093142691169115 -0.005560192144692813 0.49081595851513904 -0.08727849794406733 0.48928935978739013 -0.10566372516173486 0.020391968610908497 0.002180599117827386
135.4 0.01408738165663891 -0.007875664449885985 0.48975184662007176 -0.09472474246822218 0.48646599909965554 -0.11056794259786082 0.016420722456330555 -0.0017189657550041263
141.3 0.013941778621333108 -0.00629063244659884 0.48192190328587814 -0.11367208201336308 0.482872403837956 -0.11312296204717523 0.016368306442202774 0.0007500585114444639
147.2 0.004920572529563405 -0.015934597425543543 0.47917603697161565 -0.14393375347145143 0.4882968377952931 -0.11159950534763195 0.0072905581901489104 -0.008776879995473717
153.1 -0.0006866495083923814 -0.015078973651647103 0.48844758113874337 -0.10877553717340373 0.49120298494425524 -0.10573991891484377 0.0009394661998020488 -0.008255570015053466
159.0 0.009986157233846653 -0.011966762916763646 0.4863287258911317 -0.10935719367434753 0.48071225734432 -0.12841126822613683 0.010653924038292528 -0.003387499284296416
164.9 0.00330637028251728 -0.010508087775640142 0.4824853427798659 -0.1255902131161289 0.48464061591458585 -0.1125380133317671 0.0034617563769020776 -0.0029429280441633414
170.8 0.0017932725773471948 -0.0057581677289439805 0.4732139893591268 -0.15569273606132458 0.4780010799392439 -0.14454412065030142 0.0027618850997680024 0.002565783395471147
176.7 0.0009878179023310898 -0.003849562281342558 0.47373465331339487 -0.14838640851763932 0.4751722711818085 -0.15353487936233415 0.0008808752170700969 0.004897554901540528
182.60000000000002 -0.001622592647266682 -0.006782267889896152 0.4786971651252083 -0.1384993091578655 0.4784487779886348 -0.13738226187249836 -0.003072432051814676 0.002368706815605562
188.5 -0.00441697491873091 -0.00423826405553273 0.47061997182299126 -0.16162044146030574 0.47451476505960105 -0.14598270564469248 -0.005536050197691264 0.005368019884668753
194.4 -0.001436633505285553 0.001511875291683915 0.4691081840148632 -0.1642435886061862 0.46944581052233864 -0.16466679422533728 -0.0024613862249132086 0.011485148453829854
200.3 0.0028149080982329227 0.001198766331692886 0.47351129816652726 -0.15609458558036804 0.4781583704025229 -0.1474126822419338 0.0005931215771243195 0.011238256879662834
206.2 -0.0013046847891785881 -0.005508309949866159 0.46463449732078105 -0.1676827851325287 0.4647104166149405 -0.16654043244878713 -0.00445141231110069 0.003209085922178711
212.10000000000002 -0.00025126214687189836 -0.0010465067414085856 0.46828274015298743 -0.15996712687901665 0.4625388114397532 -0.1749218479208642 -0.003331972312411552 0.007480233910624116
218.0 0.004059298272319474 -0.001988330151918843 0.460232612876087 -0.18453000679138484 0.4595957068748598 -0.18904742450384848 0.0011891188975464379 0.008687758518582814
223.9 0.008006509613186401 0.002436480340618813 0.46302260866355127 -0.18583856996860604 0.46661220220031313 -0.17814769048409462 0.004541197822165451 0.011704905797470964
229.8 0.0098390473201883 0.00042694459131354854 0.4560800433927491 -0.194510739575928 0.4603927684987195 -0.18109292700671192 0.0070229346733363136 0.009484886629189518
235.70000000000002 0.0031182032140012962 -0.0045436945324615 0.4586020501812939 -0.18520625742406002 0.4634982104253557 -0.17659829470609148 0.00022657733633525852 0.004749096229489943
241.60000000000002 0.01261504748720187 -0.0007241239787080998 0.4626031800455632 -0.1787947469833131 0.46058582047601104 -0.18747212166764796 0.010202556709156546 0.008398350581096382
247.5 0.010934161251387789 -0.00503955986357994 0.4594106086650672 -0.1889451446660862 0.4559467675722165 -0.1957787213234141 0.00871879125803767 0.0028969664947552137
253.4 0.006066815067562957 -0.012935012994987423 0.45828331758669755 -0.193335877941981 0.4514297686432731 -0.20418945296562907 0.003090653885571687 -0.004436137967428021
259.3 0.005067504232837215 -0.010513900714691417 0.45519216812792035 -0.20568278033478343 0.4607726580338902 -0.19239336641954707 0.002191071413606037 -0.002601003757405305
265.20000000000005 0.011047588677461775 -0.0031388015704131972 0.4570377426134623 -0.19349488445549462 0.45045117481895736 -0.20570521812052564 0.0074564936929472836 0.003538416505873517
271.1 0.012505601258341416 -0.0025424060688654113 0.4394130152713617 -0.22624129697485898 0.4506354520539843 -0.2103072188518488 0.009412617122607833 0.0031286962848024206
277.0 0.01025788382535869 -0.0033730685199235893 0.44278370620353974 -0.22138252492459823 0.4479241100480974 -0.21206721785427318 0.005717713207913963 0.0031355560640318435
282.9 0.014962199555547128 -0.0007106274493119872 0.44369578051899167 -0.22573001616579547 0.4527570930564549 -0.20030244477794054 0.010365009264778988 0.0036325602605394003
288.8 0.003180997574011548 -0.004610295579475626 0.44769689049255745 -0.21279320501258658 0.45241626901163134 -0.2066132246309435 -0.001104095994487842 0.0001597205913896773
294.70000000000005 0.012080743262695249 0.00022817631990858716 0.4393364130126489 -0.22768574658051915 0.44703855500745315 -0.2167938245902757 0.006605187858103633 0.00362155752408796
300.6 0.00644593722060765 -0.006202390017797326 0.4450295200061076 -0.21507099623974296 0.43836362076873603 -0.23524155310652725 0.001655609317836733 -0.002211994555520356
306.5 0.011371819622108915 0.002486443053939394 0.4341800897666761 -0.2417178976096755 0.43618181656552496 -0.2374430061200821 0.00612259783000273 0.006072961746392574
312.4 0.009730139406920225 0.0019653612474684235 0.4338266799525278 -0.2380485750545698 0.4350638127096896 -0.2401785008613403 0.005700040215157074 0.00627170632053435
318.3 0.012189653555951382 -0.0029600263200189234 0.43509128713037476 -0.23497895670606667 0.42764755491702494 -0.2513723704327389 0.007803789684309863 -0.00011107697094012029
324.20000000000005 0.006081097711145553 -0.00228826580736493 0.4277703973593078 -0.2507123197112293 0.4295017363439883 -0.2484423565421338 0.0015962037917089864 0.0019324532616877847
330.1 0.014927175585537123 -0.00047884511974876796 0.421450844245839 -0.2630253698347925 0.42775618638734986 -0.25339348225799696 0.010440052107692773 0.004335227281963587
336.0 0.011923223300270305 -0.0001019096130634206 0.41437042154741477 -0.2734175428907911 0.42140290888139276 -0.2655032292300995 0.009440912861261499 0.0045525817375226445
341.9 -0.001036499697325768 -0.013257920547072534 0.43250321667914626 -0.2380215762130372 0.4329687226151402 -0.2358530810250731 -0.002213220251101108 -0.008642846716402171
347.8 0.008140409015658573 -0.003088004329558295 0.4243582993951339 -0.25930950493884597 0.42329000766753544 -0.2624332945166087 0.006657165904981394 -3.659572408693755e-05
353.70000000000005 0.011153260788459154 -0.004634185529236857 0.4126499803796876 -0.2735268295292403 0.4239438761139048 -0.2577581267626338 0.01108947085500981 -0.0005358755970656174
359.6 0.007987579468692996 -0.011862366434895816 0.40904202857632066 -0.27577859232493174 0.4205180830935314 -0.2623197128475624 0.009120623487781507 -0.007987342806733296
365.5 0.013136164655968242 -0.004736966944032465 0.40609938823209646 -0.2827525298734995 0.41067873340675526 -0.2815991537760071 0.015056509288222102 -0.00166905869899957
371.40000000000003 0.006887771677358979 -0.005789543513068116 0.3997972195479084 -0.29208898073621997 0.40614677695255225 -0.28532763483294227 0.009227636606717172 -0.002440456437309838
377.3 0.0037347611514915195 -0.011889049105627172 0.3988262209790087 -0.29767312171681165 0.4065674424544507 -0.2880779475234519 0.007411331685677204 -0.010774755306569567
383.20000000000005 0.004367019603046247 -0.010247727927234457 0.4058757902998567 -0.28650253519313207 0.40632839321813474 -0.28700802652721524 0.009938471280608655 -0.009488451045119738
389.1 0.0064588178353261185 -0.0065961183743384845 0.4132133748846033 -0.2760126989423862 0.41049268081044854 -0.27927391753258013 0.011962431495619145 -0.00573317129805493
395.0 0.006645587362176279 -0.012824369622972565 0.4000167218221099 -0.2915594278089525 0.3910862700832922 -0.30592071179641317 0.01229653374431416 -0.0122764070831829
400.90000000000003 0.003767435598649186 -0.007497809355686101 0.39316960374219756 -0.3057375113823453 0.3917919818768707 -0.3077625857366127 0.011015109786125682 -0.008787681951617266
406.8 0.0008025187662824845 -0.010142296919825926 0.3936195206966357 -0.29963228864013114 0.3815859678424547 -0.31557836758261754 0.008741807484666573 -0.011388411343017843
412.70000000000005 -0.002946396022543423 -0.012594683920744656 0.3926592188775152 -0.30144580305757535 0.38808396084079877 -0.307282426474208 0.0032668383903678784 -0.013428354505947673
418.6 0.00041133689927977694 -0.009379328301922485 0.38532724387646516 -0.3121875426155077 0.3922214251389406 -0.3044092193765332 0.00687002132189993 -0.01066782182487642
424.5 -0.004467641862385291 -0.0007634021613048677 0.39514763127433544 -0.2982206400853522 0.3907300455482727 -0.30529976882676707 0.0033013123557483555 -0.0014557852691543124
430.40000000000003 -0.0075800932613603175 -0.0003254438828223999 0.38445445154341235 -0.3049643614355791 0.3783010093797563 -0.31855039620850045 -0.0008217416662793894 -0.0017879447638494029
436.3 0.00582880446022751 0.002409535839558104 0.38428749810877655 -0.3102098560308122 0.38819922556368186 -0.3074600911047392 0.01312647953183068 0.001400753456537223
442.20000000000005 -0.0005530687942524842 -0.004193086953344954 0.37136848347293583 -0.32475966068751017 0.37016214768045175 -0.3279687924002671 0.005339571165748909 -0.004307335121723382
448.1 0.0033853583647664074 -0.004880354383565387 0.3575890517880114 -0.3393562890101067 0.37057062824343023 -0.3255549343611763 0.00943041187705155 -0.004892885692920849
454.0 0.006813717640742688 -0.0032290669554224227 0.37488639142491825 -0.32389860310195756 0.3748326096488362 -0.3223147165479098 0.012776993920725826 -0.002505586973649406
459.90000000000003 0.0027129080940961614 -0.003628124182251353 0.3620017133724634 -0.3347363578002418 0.3741089002451446 -0.3232357211043348 0.008695508237211548 -0.00021843806848294192
465.8 0.0057334151664391615 -0.006097879482335504 0.3472113684445555 -0.35068087812420773 0.3464271892874593 -0.3531234460911184 0.011638245306565063 -0.002576263654620393
471.70000000000005 -0.00040796845865548255 -0.008477364324845558 0.3631332845823287 -0.33217166080872956 0.35873529963163747 -0.3384989079285012 0.0057222246717183066 -0.004471833612949642
477.6 0.002761837092841184 -0.0062915582442506736 0.3591236076370255 -0.3399326662786148 0.3608660500619965 -0.3376369366314803 0.008786569945155987 -0.00032359567120493623
483.5 0.009397233109207504 -0.010368003620294617 0.3578622196448224 -0.3360494054179924 0.35975933131505006 -0.34021540212026585 0.015686684589579267 -0.004102517671792717
489.40000000000003 0.015719389813363398 -0.009707125951049219 0.3550793395937298 -0.3443211768604514 0.3528702916872653 -0.3469040538760531 0.022236840208895915 -0.0027576630824720973
495.3 0.01150086812887326 -0.0142299070064804 0.3512528349364081 -0.3492992597132672 0.36044290592594874 -0.3410168127242617 0.01861549910122041 -0.005602824436127786
501.20000000000005 0.02003760988436032 -0.015002501693449072 0.34801836983063905 -0.3545550789262641 0.3496453659932817 -0.3524293446319127 0.027173557843783783 -0.006290520492991804
507.1 0.008210188879710973 -0.017738949884051843 0.34047916647845067 -0.36086265756852204 0.34020825072173494 -0.36276382584977207 0.017810097856396534 -0.007755962454444142
513.0 0.00994246642323084 -0.018442760990784898 0.33073427641479575 -0.3679332911847649 0.33775632908938635 -0.36207418179873746 0.018515893669665214 -0.008473271647016533
518.9000000000001 0.0010425937558657121 -0.017489068119274236 0.33196455041825806 -0.36793702536655165 0.33004484678858026 -0.37111375177865263 0.011207150635741531 -0.006129647864692424
524.8 0.007945651492710357 -0.017396390035331725 0.33677935664713143 -0.36390998057047663 0.3413309760203996 -0.36259079615803097 0.01762538606077369 -0.005054236648755776
530.7 0.0019456380676641843 -0.016591911660479623 0.3334984973046994 -0.3671433660770248 0.33609454163411534 -0.36537468274102725 0.013624510456538372 -0.005531490848004941
536.6 -0.0012034816973820017 -0.018492698622860355 0.32236776756760444 -0.37719341174194815 0.32245201499759557 -0.3773714942182386 0.009900880319971973 -0.006762765665301166
542.5 0.0023971273789469404 -0.011028991386698925 0.3130997277885671 -0.38434354684113237 0.3052800650342459 -0.3897211050020745 0.014108830659117118 0.0008030443220549169
548.4000000000001 0.004573341851676975 -0.019444640855702484 0.3317551241699219 -0.36974883310436213 0.3236633557584383 -0.3739360040848738 0.016244578110207266 -0.007331023482079243
554.3 -0.007232150930816498 -0.01749669578651589 0.30748968104420316 -0.38936224020870824 0.30833363459229846 -0.38779526551570087 0.004170048771301422 -0.004585328050763175
560.2 -0.0015112884860379067 -0.009646722634822988 0.30925476840450816 -0.3879355610826351 0.29047129363836316 -0.4027303345615521 0.009307702343963357 0.002894903311788141
566.1 -0.00024078505905697497 -0.009841271311894918 0.28712793380063273 -0.4055131679404833 0.30905132277889946 -0.3890444388819058 0.01075674158759772 0.002812044261868034
572.0 -0.004873332423591177 -0.00541271067946234 0.30007209156963205 -0.3906028030178009 0.30681663521762453 -0.38545136906560584 0.004690097058332297 0.007659822313085634
577.9000000000001 0.0063713232986353655 -0.0032074515836848557 0.295363555069035 -0.4006779979232665 0.30101982195884364 -0.39569151879150555 0.01574747982369746 0.010726783088867773
583.8 0.011735454218583682 -0.0034671869896720675 0.29071035103116893 -0.39859775073215276 0.29365525247522467 -0.3965758848909026 0.020490142830802454 0.010756729183448126
589.7 0.004308622234039168 0.0003628288407435969 0.2964185849248515 -0.39686711202857716 0.2773432866050224 -0.4111449838697647 0.012104546861360619 0.014164233417016819
595.6 0.004456736403795618 0.0075525356098566365 0.28467120503131405 -0.4018593548570507 0.28395606764073117 -0.402485132447756 0.011539153485835583 0.022027742422124682
601.5 -0.0005908165522364215 0.0015930905865325538 0.27855507587453315 -0.4033128961199212 0.2763765511007242 -0.41005471232066565 0.006495275926740452 0.016625747341652165
607.4000000000001 0.0074236365889821685 0.003936899898333979 0.2807215752105429 -0.40404161417117995 0.2746744562976119 -0.4108881946831045 0.013782698249918898 0.02114825921863473
613.3000000000001 0.012229230640027157 -0.0003643775663079512 0.25282668893342725 -0.4192284857412389 0.2551615029872988 -0.4203880485371924 0.01907516277605038 0.01643192538968722
619.2 0.015771103094000146 -0.0029936363896602464 0.2662189136454212 -0.41265020312403505 0.25518750215382857 -0.4224605122366282 0.022316768848794334 0.015198256631903037
625.1 0.012561347677730098 -0.00540956836392828 0.2703125674251079 -0.41116153492254054 0.26650776727827924 -0.41435040540262863 0.019077917186708534 0.013195560292560055
631.0 0.01681001063622253 -0.005297731524422057 0.2549523829064866 -0.4191260945319934 0.25203782380715195 -0.4197226872746941 0.023690532769216927 0.014249321356855261
636.9 0.013585110791169487 -0.012702368674699177 0.26014432940498355 -0.4174963345637459 0.25340888146784224 -0.4203593240618782 0.02038452820859967 0.007603290499617459
642.8000000000001 0.006365438989988088 -0.007530661704715479 0.24276103706800464 -0.42545944374503347 0.25230181585799766 -0.42099812624153077 0.013176577530346137 0.013522721934618372
648.7 0.011103362439530605 -0.01871681273446207 0.2482168832915614 -0.4220059565974336 0.23754789138282453 -0.4301846828487123 0.019097037047470452 0.0020045955748421917
654.6 0.00665029840961999 -0.014212872353698353 0.2422561131277704 -0.42744623516720187 0.2394692767515738 -0.42978767857376315 0.014217806626555782 0.006857816423828115
660.5 0.004885310100606441 -0.017177059589720673 0.2356196934531824 -0.42961680233087185 0.239136603971305 -0.42729931961216705 0.012904781468435893 0.003383050971779448
666.4000000000001 -0.0005432684427370361 -0.01983273947661425 0.2432230578275997 -0.4240953669818356 0.2500447289319957 -0.4205602772068186 0.007182872189718461 0.0018034324621023395
672.3000000000001 -0.007388487948630836 -0.023693761605327768 0.22538888181108713 -0.4352896244445613 0.22040131974096194 -0.43703509442518906 0.0006095878016429878 -0.003783546803369382
678.2 -0.0025491832864353043 -0.02908326691093304 0.24465340454580997 -0.42726408296584695 0.24092936947370097 -0.42889300109478046 0.0038932419001389902 -0.007319577372494606
684.1 0.00856388695597168 -0.021859977094668488 0.24191522836418544 -0.42712581803340466 0.22461456690489068 -0.4365033992823704 0.015375435131853056 -5.062465696915865e-05
690.0 -0.008527285498028295 -0.01943450105546461 0.22022496008200093 -0.4369574995067824 0.2207417230387256 -0.43755420442194026 -0.003086840922026845 0.001242022883453658
695.9000000000001 -0.006567314489654383 -0.01082773917930311 0.2165433214448394 -0.4403427358011922 0.21273264525371635 -0.44322100797782304 -0.0030081416086976047 0.009748669977702825
701.8000000000001 -0.0023285802582402007 -0.016716220735383657 0.19554358534812302 -0.44962185001405897 0.21362303615881725 -0.4426460569107402 0.00021132109897445948 0.0016528625789768957
707.7 -0.009488581871944032 -0.01361823010277804 0.2078306427188754 -0.4431814718960903 0.21150287163903325 -0.44397861842972713 -0.009076622008167412 0.007165192444222412
713.6 -0.008787294075430331 -0.009815182261502702 0.2270599593298485 -0.43669876111575556 0.22067039062632016 -0.4412737329251238 -0.009801715637378836 0.008978976497466509
719.5 -0.0014640448015054751 -0.011600177955637914 0.19783339897429042 -0.45064247388150985 0.2013830610928756 -0.44797752465411794 -0.0022807084679091734 0.008833791246834597
725.4000000000001 -0.0056893293316084975 -0.008928893070557182 0.2029008663396109 -0.4500156105199806 0.20442396463712417 -0.4490412959353574 -0.007938599726153957 0.011958608986337025
731.3000000000001 -0.010244957605696148 0.0014113955787573558 0.21612067677008898 -0.4401883265870812 0.19962873243744325 -0.44724448244563547 -0.014031527020942748 0.02128185419492133
737.2 0.00355646505712973 -0.0024597162354076927 0.19259647714504982 -0.45260913700729527 0.20021174367364053 -0.4500555624785325 -3.1328570692987656e-06 0.018478349527009632
743.1 -0.0033117304905763193 0.004123329367707193 0.18695183123344167 -0.4542665198922451 0.1805066021256629 -0.4547392315610533 -0.007708245098999057 0.024297537831940264
749.0 0.000684127373883348 -0.0057101145753259835 0.16319468554327032 -0.46402125761908 0.17179942093522885 -0.4584559666614607 -0.003263955093292299 0.01566041055212734
754.9000000000001 0.015417478250426896 -0.0009778168122100462 0.17874869658160236 -0.45661695342753716 0.18932569372143931 -0.4566427960981607 0.010152497276366024 0.021321226440964482
760.8000000000001 0.014076514310206715 -0.003622599564018641 0.17632063868898087 -0.45764467074977494 0.17603448452813772 -0.4565958627182701 0.008914844889654078 0.019595442996360034
