!Created with skrf (http://scikit-rf.org).
# Hz S RI R 50.0 
!freq ReS11 ImS11 ReS21 ImS21 ReS12 ImS12 ReS22 ImS22
100000000.0 0.03307905961815997 0.019562478807218526 0.018953530395988325 -0.20228868650946483 0.014975583312086514 -0.2033108519008508 0.03809112788485191 0.018084441473068195
105900000.0 0.036295487392726096 0.015971964620127174 -0.007233709611448983 -0.20329848330147166 -0.011318551360513395 -0.20386780127513499 0.04125832964597439 0.01413680724140635
111800000.0 0.03529093074814797 0.06154647949537213 -0.15653606910079565 -0.12856519748856293 -0.14906420178462196 -0.13466403705039892 0.034351002695929944 0.06887174803403606
117700000.0 0.037951556372314135 0.05742624033838553 -0.1709908858839824 -0.10720810571659464 -0.16518429073498012 -0.1143390937327645 0.038330181987565354 0.06448952135623526
123600000.0 0.0417460330990248 0.05193766672849488 -0.18386518067249183 -0.08443218044284087 -0.17844569006169173 -0.09232245323279341 0.04241876007898474 0.05948183392138065
129500000.0 0.04556091461875643 0.04801725068756089 -0.1942408182237036 -0.06001182060925224 -0.1890078500608378 -0.06791176547741251 0.04486240285597137 0.054863581818223484
135400000.0 0.046933723778317636 0.041935016207704255 -0.19961253761459094 -0.03426440338134737 -0.19694302375348283 -0.044532225103371355 0.04830553040320398 0.04924537582320609
141300000.0 0.048790894406330304 0.0364287382637193 -0.202552063187484 -0.008090729548650914 -0.20132129722324887 -0.01831234536222224 0.050472302024409936 0.043431627964998894
147200000.0 0.050384058166866516 0.03079090974195719 -0.20208537511399433 0.017829656465814928 -0.20186887861271424 0.007540499127779512 0.051810783461096216 0.03750821261405566
153100000.0 0.05022535898857031 0.025566326129394263 -0.19824337626915148 0.04413609889273222 -0.1987805369672092 0.033826072934242724 0.052903026177357024 0.03170582989146638
159000000.0 0.050302775767730845 0.02105476458133714 -0.1906088402232141 0.06979146381866587 -0.19338766091007958 0.05837911257994003 0.053710942447308174 0.027072406981173268
164900000.0 0.04947559256039211 0.017063162433285498 -0.17984661838193786 0.09299103918611179 -0.18386016088685633 0.08323015031361147 0.05343334358749189 0.021964828035049982
170800000.0 0.049130769933439136 0.01196452402844422 -0.16565271988103364 0.1162413598646382 -0.17209545574689045 0.10586968816011587 0.05284815724827087 0.0163710102514486
176700000.0 0.04761985526459326 0.007273102333429928 -0.14969885342849829 0.1365873770831268 -0.1570937679365205 0.12733157942124956 0.05219511715165323 0.011520609851307304
182600000.00000003 0.046734587444696926 0.002842431635263712 -0.13121441412508247 0.15443857926391943 -0.13961495867818827 0.14665024955898243 0.051348027099913464 0.006936618976082829
188500000.0 0.04554280080113697 -0.0006783277449649977 -0.10985195357369253 0.1700453438560821 -0.11944386683003122 0.16206983126211477 0.04960093330420794 0.003247856669414837
194400000.0 0.0440349593793547 -0.004249328624218643 -0.08743990888304894 0.18255152964757476 -0.09816951645034584 0.17649986345044297 0.04866293152710476 -0.001599593137368615
200300000.0 0.042920106801478376 -0.007992286550173273 -0.06291259232350808 0.19214192110844217 -0.07489414785108522 0.18817800940217747 0.04737244436526971 -0.005772418612211593
206200000.0 0.04022224783070808 -0.011551614605102376 -0.03750637376944641 0.19880467389068887 -0.05009260321885908 0.19601360848691768 0.04437416587422182 -0.00967851422629695
212100000.00000003 0.037881474470675906 -0.014933492678777477 -0.011748814528518853 0.2021172050463114 -0.025582325255203254 0.2009876827163722 0.04255073107950879 -0.013222337818840638
218000000.0 0.033609059024983665 -0.017460179085091492 0.014244376354526654 0.20113615795490342 0.001277230670518333 0.20346737641973853 0.039115348527388696 -0.01710549756875646
223900000.0 0.031192707729045876 -0.02049277371891688 0.04036119768239297 0.19844518301616532 0.027007297916968365 0.200799957696021 0.03539212232334919 -0.02051714075594344
229800000.0 0.02749318801933185 -0.02270115458232 0.06544916762499138 0.19119454408124478 0.05270752646657417 0.19598083416288392 0.031408919678134736 -0.0229837468289154
235700000.00000003 0.02419881559708967 -0.02507374720770552 0.09017917891613651 0.1811882099350146 0.07733547244256772 0.18818117277821136 0.02788621045610458 -0.0254185838425378
241600000.00000003 0.019842550479226305 -0.026249960674979304 0.11286852338757489 0.16877673998147713 0.10074293277895088 0.17633541478290418 0.023913285424576814 -0.026987458349806672
247500000.0 0.016165750168282096 -0.026764721597513558 0.13366434127190988 0.1525868769716021 0.12325366116647166 0.1614120482168159 0.018382464988881016 -0.027894746223741978
253400000.0 0.011898386658843147 -0.026965389408632405 0.15281901845361207 0.13400906753906663 0.14301495757006 0.145342727817034 0.01413152561841174 -0.027554683505576112
259300000.0 0.007753614516298334 -0.026789733020766867 0.16902094186973504 0.11338743426684707 0.16041664029761152 0.12655331224498237 0.009221314371051819 -0.028117204666080548
265200000.00000006 0.004313575357759503 -0.026341530547192155 0.1825895986418561 0.09033603602399662 0.17604096230833374 0.1049900793738567 0.004567344970007817 -0.02626075521131599
271100000.0 0.0007109425766409191 -0.024279300848888158 0.19352109624919572 0.06730561773427515 0.18544186336243004 0.08011716645929286 0.002430548954817985 -0.025804159396471255
277000000.0 -0.0017438537148537693 -0.023122552885945894 0.2003118693369933 0.04112888484824114 0.1956984370060841 0.055434117096634254 -0.0023131402446861186 -0.02162919644437701
282900000.0 -0.004203902387153062 -0.020610463047588796 0.20481341061795624 0.014686702263507838 0.20016995914277322 0.031345285887760574 -0.0055879904769915115 -0.02011855538907208
288800000.0 -0.007805509984017855 -0.01957167857582613 0.20495715482876944 -0.012402106149106612 0.20225690971602045 0.003276421682324962 -0.008274335471107707 -0.016931693511017
294700000.00000006 -0.009827826925687042 -0.016691791648765046 0.20177332678833773 -0.03890096528680534 0.20173127218485845 -0.022080593390179707 -0.011582786065081658 -0.013165541746186235
300600000.0 -0.01199431325802118 -0.01343188588108243 0.19449185224135918 -0.06456482643409711 0.19688767463316717 -0.04737013165477126 -0.012292986260314984 -0.009971169746173479
306500000.0 -0.012832926115044123 -0.011472060969386189 0.18494759020813373 -0.08869283628508817 0.19058033995030194 -0.07274666085310619 -0.01394214427442192 -0.0058714984298246405
312400000.0 -0.013979987664671885 -0.007381173435691867 0.17105570247530583 -0.11194691261063325 0.17982826044644382 -0.09654661090042135 -0.015869930415279867 -0.0020007436517898336
318300000.0 -0.01651418145858149 -0.005920006159053789 0.15501202280142545 -0.13251198557010602 0.16479854453781637 -0.11868106278506048 -0.016486727893608975 0.0013583634314468396
324200000.00000006 -0.01620389842379373 -0.0016079291403443491 0.1367154345099916 -0.1526053053002296 0.14867517899026098 -0.13897163615984715 -0.016160118639737684 0.005878006978436154
330100000.0 -0.01640475503516536 0.0014680309225277657 0.1168379517239774 -0.16917146460060764 0.12891821615455237 -0.1570035096425096 -0.014816728520963975 0.009805059238029965
336000000.0 -0.01610532939561738 0.005561961141806965 0.09294753948858778 -0.18264278573433337 0.10896358945251222 -0.17241421689404077 -0.01377849851114195 0.014445996279969925
341900000.0 -0.015990752654093842 0.008886593244949212 0.06896364696938176 -0.19281035646030922 0.08521631342435071 -0.18410969777305125 -0.012439129399265938 0.018498116174022524
347800000.0 -0.014010712184959737 0.011034471782668994 0.04262890043560672 -0.1994306471634144 0.060831208318929776 -0.1932794569417401 -0.010659788373989017 0.022495687869203064
353700000.00000006 -0.01157046917425168 0.01489212086751756 0.01758691868219927 -0.20383620704558592 0.03563848142966964 -0.19997219449914866 -0.007018900034981207 0.024748026170898926
359600000.0 -0.00926785497546737 0.01747083025951816 -0.008371590802558672 -0.20405046705466043 0.010270092291162047 -0.20342845841883217 -0.003381798803183089 0.029072457797030042
365500000.0 -0.007429428151441322 0.021333838952908198 -0.03559602626968756 -0.20113287633879307 -0.014792783439472408 -0.20237626947853382 0.0008888157386751943 0.03176713642226148
371400000.00000006 -0.0038789054466077297 0.02228290224801183 -0.06117953512019332 -0.19476599139539122 -0.04237605637248022 -0.19842777660785715 0.005227181643274745 0.03401396938729087
377300000.0 -0.0009505140056505778 0.02502629649637393 -0.08565044915056044 -0.18432600536087282 -0.06718680035103927 -0.19144895350986996 0.010381080702274236 0.03434692715327546
383200000.00000006 0.0034506438528203835 0.025998992659950884 -0.10874728709608093 -0.17117497771831233 -0.09104803823136912 -0.1804566559768074 0.014201789268446575 0.03445227224339993
389100000.0 0.006880478222867465 0.026653607745046264 -0.12883814504916707 -0.15597208994157208 -0.11394806164066522 -0.16770473642929723 0.019741514131829396 0.03392309363678928
395000000.0 0.010975856296649353 0.027106999450997607 -0.14849122184945268 -0.13765818882423148 -0.13456591108221613 -0.1518296543707607 0.024680552666512926 0.03251470343197714
400900000.00000006 0.014546953873243054 0.026520790526580726 -0.16478268368749002 -0.116136178810707 -0.1519615770162894 -0.1334366673018766 0.029274210284659572 0.03079779915781719
406800000.0 0.018947848986252784 0.025730790058219172 -0.1787364477387512 -0.09427470257361961 -0.16851254362321264 -0.11300683535371393 0.033291258736289374 0.0283752592976188
412700000.00000006 0.022285869981494223 0.023856953460194435 -0.1892562628280208 -0.07076852640515185 -0.18112455762832066 -0.09065180143241874 0.03760452851884975 0.02490378450912459
418600000.0 0.025544706963805258 0.023257369530076673 -0.19572193116527561 -0.04520545792857016 -0.19115884375384665 -0.06566331623160464 0.04062968188002155 0.022906993272917335
424500000.0 0.028671818202418504 0.021476419250750712 -0.19978497944663426 -0.01876726754156808 -0.19973292532167117 -0.04100887241387484 0.04463311140102708 0.019080968242821225
430400000.00000006 0.03220635411639302 0.0193733049332488 -0.2005488218669242 0.008122903321534482 -0.20026066089713476 -0.013370522220547819 0.04695507531928502 0.015100365570399742
436300000.0 0.035595667260124614 0.015574732438259664 -0.19708286790857654 0.03277474058556062 -0.20042455505252957 0.01103642010313271 0.04972756082985468 0.009977580683378583
442200000.00000006 0.03787732403598812 0.012497610193203694 -0.1914704094169112 0.058771945182134716 -0.1972437489841653 0.0377520223313466 0.051922472091721586 0.005938988162324346
448100000.0 0.04022375016282208 0.010016530060149664 -0.18190830775192168 0.08190644932998901 -0.19093364698819956 0.06182523659123941 0.053302456526791796 0.0016784636188337363
454000000.0 0.04278859038635552 0.005340034549027314 -0.1694883910761234 0.10461265389512131 -0.1810462401874425 0.08625007939812533 0.05537697247397178 -0.003286640383612624
459900000.00000006 0.044537320062101524 0.000771507588594221 -0.1547364925543072 0.12512010070556578 -0.16858092901526092 0.1079274680629648 0.05662379103843281 -0.009941196107945721
465800000.0 0.04608856725671698 -0.00347828958368399 -0.13698431342103903 0.14398975179202117 -0.15417652719573 0.12796530501031703 0.05627026100020539 -0.014684858892204297
471700000.00000006 0.04712313978683495 -0.00761705419503747 -0.11745013379353006 0.16013622169225095 -0.13582345979568952 0.14782500129942902 0.05700497008873358 -0.020525425804820828
477600000.0 0.04674592624741729 -0.012541392952016483 -0.09544901951929953 0.17519761653737814 -0.11701411716996876 0.16356786734565446 0.05631545206809724 -0.02670009039721753
483500000.0 0.04654981344034008 -0.018745027804211334 -0.07184131660978794 0.18470243148486426 -0.09427881065464587 0.17707882233379707 0.05387336386147019 -0.03192398769597201
489400000.00000006 0.04453111452026378 -0.02361611356715269 -0.04726631439570669 0.19244317549910242 -0.07109364697858363 0.18716255560269607 0.051957518298442376 -0.0382851203526254
495300000.0 0.04437445347312075 -0.027927380594285657 -0.022000018153170587 0.19606352218458936 -0.04678732691507605 0.19605450282711456 0.04875269667981729 -0.04310631257215497
501200000.00000006 0.04164314907100802 -0.033070738523312555 0.0029106379795929053 0.19784769983498166 -0.021752527656113792 0.1997081222369456 0.04524990425979388 -0.04878112752249998
507100000.0 0.03947487341444179 -0.03695601984707653 0.028750801933306626 0.19636204464258172 0.003747428796383555 0.20191931682668376 0.04145675874714976 -0.05301313313477555
513000000.0 0.03600092863437148 -0.041763980588227 0.05407602621511822 0.19056473381204922 0.028811499822157177 0.19874912708699816 0.036800289469086034 -0.056689250293845125
518900000.0000001 0.03239412102725879 -0.045535890182469216 0.07849486359864623 0.18126679195712211 0.054734225038471286 0.19350159554749433 0.030751115734021173 -0.060607993207792955
524799999.99999994 0.027217695438243882 -0.048733715170997054 0.09972822917331568 0.1700005117852036 0.0786660892225203 0.18399874371150943 0.024926348174994232 -0.06287097262886712
530700000.00000006 0.02336303205840161 -0.05160834075208915 0.12103897691046028 0.15589231352271807 0.10157149182615799 0.1720828961730135 0.020332669254942044 -0.06590209540041735
536600000.0 0.019914751705799486 -0.05443590630078117 0.14052657685097952 0.13847888818381185 0.12255244032664434 0.1583166237297583 0.01480107982502647 -0.06831383449969904
542500000.0 0.013313507852356566 -0.055519812550399374 0.1568316782813265 0.12008789559057086 0.1416542966630213 0.14182775787610155 0.007399197456659834 -0.06878864892642013
548400000.0000001 0.009575798420779609 -0.05721330343524769 0.1711413144581266 0.09796535656612006 0.15873786823123412 0.12199603469190584 0.00225654073081932 -0.0693736262880208
554300000.0 0.004909981767360472 -0.058092777381787794 0.18185770026059464 0.07490500865212764 0.17343760218162083 0.10120103058324964 -0.004109989356691855 -0.06928126873154633
560200000.0 -8.82968593279834e-05 -0.05837376044473098 0.189430508182257 0.05143576790621114 0.18540418073216783 0.07822823146964533 -0.009062851834077564 -0.06840834585445844
566100000.0 -0.00560001768287172 -0.05816019328288366 0.19463457130650919 0.026312207537222024 0.19348930575211695 0.05446076322545063 -0.015558446571039474 -0.0677246871511112
572000000.0 -0.010949745189453335 -0.05786123127811732 0.19642929098162767 0.0010095542420081862 0.19967302636939635 0.029647480790855493 -0.020594798677281752 -0.06579853609523403
577900000.0000001 -0.016293765975330627 -0.057734690041716705 0.19502914774308527 -0.023675854754820973 0.20191725076878864 0.003907881207121163 -0.027206039972179182 -0.06381395522697064
583800000.0 -0.021864085339246383 -0.056658098122327104 0.19005412830532137 -0.047690401078214865 0.2001745102756262 -0.02174828445426385 -0.031495758791888845 -0.061527935107725015
589700000.0 -0.026620413388852647 -0.05357948943004445 0.18142262620504696 -0.07293682746081454 0.1957432840021367 -0.04698769723138434 -0.037450128785029436 -0.05790241283078174
595600000.0 -0.031048204061094032 -0.05147732672412636 0.1716888356049145 -0.09474764459342278 0.18579340096639904 -0.06864178375128069 -0.04227764391911008 -0.05550589687156523
601500000.0 -0.03603559556214881 -0.04914617438413099 0.15821718640986274 -0.11600116610979704 0.17569869640790084 -0.09178663783756491 -0.04690776706802908 -0.050599931014607344
607400000.0000001 -0.0407321347791329 -0.04436672896888588 0.1421503811954864 -0.1355649956207043 0.16143432292856344 -0.11372697580442948 -0.0516617850767061 -0.0462367585206097
613300000.0000001 -0.04446407954387153 -0.04074789658239445 0.12441323203343661 -0.15271172720391868 0.14626643349687185 -0.1338129980691687 -0.05491722831156636 -0.042572169243297896
619200000.0 -0.04759701541830584 -0.036348259049853004 0.10394069081444782 -0.1670018116061779 0.12830281187335818 -0.15143565556617075 -0.05795856996496494 -0.036328550182897844
625100000.0 -0.050487215385316 -0.030371956035503734 0.08212969225455591 -0.17979170649978318 0.10829892384306104 -0.1670138567775904 -0.05969782880541416 -0.03012022872269573
631000000.0 -0.0520595495069892 -0.02589485408294454 0.05808521902288785 -0.18867499630822526 0.08613382825737897 -0.17813636034023925 -0.06042987087522568 -0.0236251520372629
636900000.0 -0.05330833862377143 -0.020195946137450363 0.03265783608741223 -0.19423328970328219 0.06268926218850293 -0.18811254498051258 -0.061129960887177426 -0.017481644919988156
642800000.0000001 -0.05456344471653359 -0.015596533668733412 0.007357540326884533 -0.1968789740696092 0.037559471700120195 -0.19556956787561178 -0.061542206398005866 -0.011868586987287431
648700000.0 -0.05436304091810331 -0.009820635337381674 -0.018076689953631542 -0.19693577429919837 0.013442279543509584 -0.1994035001358894 -0.060559085200542116 -0.005805153689951966
654600000.0 -0.052761596891997165 -0.005497106716302414 -0.043922400309941594 -0.19259551117854884 -0.01219961896416011 -0.20007073060809014 -0.05793682686580805 -0.00015557690503228443
660500000.0 -0.052224720294241044 -0.00037272243686973074 -0.0676570412748015 -0.18634422914653995 -0.03733724335231751 -0.19663692806966784 -0.056722165834200915 0.003556800429738725
666400000.0000001 -0.050480278685167156 0.0034774584237510014 -0.09120267304711739 -0.17655576081425367 -0.06195061419770169 -0.19014380257013958 -0.0538739647892172 0.007668098284149902
672300000.0000001 -0.048857661509500966 0.006685821246545499 -0.11312372548382912 -0.16355321207256673 -0.08756641061288811 -0.1803215938376428 -0.052289666622321415 0.011627105850107561
678200000.0 -0.046877749266453675 0.010118816551941525 -0.13445876691335076 -0.14741538098081974 -0.1100960403524603 -0.16884802514899003 -0.048936151952112455 0.014288057211104275
684100000.0 -0.044794049106901795 0.012906547534029993 -0.15218834613007493 -0.1296032123608772 -0.13038989039573423 -0.15341154356757922 -0.046338464128597656 0.01684938810814188
690000000.0 -0.04229937051404625 0.015789082397480572 -0.16820398176747844 -0.10823587942418375 -0.1492360238841744 -0.13485841917558192 -0.04358050397014714 0.018508527632611356
695900000.0000001 -0.040833197097832195 0.01760152377053037 -0.18105439995204536 -0.08584127334923788 -0.16556707541114127 -0.11493820298432837 -0.04173524860356586 0.021399584275039834
701800000.0000001 -0.038500600246040906 0.021085056319716588 -0.1904298308743311 -0.06104538024078222 -0.17906882723095746 -0.09321250429046256 -0.038777930779042555 0.02253576049267127
707700000.0 -0.03713426399053293 0.02410837050286922 -0.1965820065965699 -0.036747640011525286 -0.1900169635105074 -0.0692145454517961 -0.03602138301186465 0.024026917220841982
713600000.0 -0.03406784300993249 0.025422402999598366 -0.19953832199314295 -0.009749031384087874 -0.19675466046056714 -0.04490860003633748 -0.03419228777948033 0.026369648566669537
719500000.0 -0.03169344796115615 0.02802974434042426 -0.19996871313854797 0.016889545258496837 -0.20269595517830719 -0.018413195147941323 -0.031979871470976105 0.027230311055687725
725400000.0000001 -0.028707316453669352 0.029918820461082497 -0.19595041000714608 0.042560631622375916 -0.20292202663520859 0.007978894683230525 -0.029362103088884924 0.02856877045774624
731300000.0000001 -0.02620800251794586 0.031690261364243084 -0.18926787571479142 0.06868793653429325 -0.19976968568648057 0.03372282945334284 -0.026375701385524142 0.0303291002296518
737200000.0 -0.021733040286734683 0.03300233085972842 -0.17906469812964945 0.09138529389574038 -0.19477087240646937 0.059895395311306915 -0.024037649229226847 0.030169982694846123
743100000.0 -0.01844097956980613 0.03434297576431535 -0.16455713238366648 0.11454055886692374 -0.1855777794564747 0.08398493951547768 -0.02010705662012731 0.03113556549072841
