!Created with skrf (http://scikit-rf.org).
# MHz S RI R 50.0 
!freq ReS11 ImS11 ReS21 ImS21 ReS12 ImS12 ReS22 ImS22
100.0 0.028106420845466277 0.009810059238428917 0.05342955480035509 -0.5719285463387709 0.041297326918764546 -0.5739858253888983 0.03828963553075814 0.003945682482623696
105.9 0.029290789983386228 0.007138429485146527 -0.020841933423928538 -0.5727217956123338 -0.03263724780004625 -0.577038686630277 0.038190302610857776 -0.0006366975006257359
111.8 0.03877168655292973 0.07194347072360106 -0.4377254369818613 -0.3617823815943195 -0.4235284967293067 -0.3828468426813977 0.03474115653455234 0.07834486296047963
117.7 0.047291799258089205 0.06386191899959649 -0.4835926181245321 -0.3028766043829827 -0.46991319943098875 -0.32596408493507545 0.04380042674322804 0.07050300234950557
123.6 0.05247766418246368 0.0527948155809291 -0.518845936558339 -0.23769723722957387 -0.5086968537863363 -0.2631130172862899 0.0503003973098111 0.06217670436964834
129.5 0.055404353478064966 0.04330499683467478 -0.5452923993276639 -0.1688317346320825 -0.5387614629226029 -0.19534715434393474 0.053299243738591504 0.05230764324163016
135.4 0.05571073952054126 0.03311571408425344 -0.5623087312761914 -0.09717987817993111 -0.5587726792868686 -0.12449425993932128 0.05540769730813361 0.040653273311578676
141.3 0.05409588064178102 0.02302185771001775 -0.570585721271166 -0.023459683368461704 -0.5701361250685012 -0.05211757751727225 0.05439562254761543 0.031609532073615325
147.2 0.05053647001243984 0.015578774960305637 -0.5683356911112852 0.05069943222434014 -0.5727836414036778 0.02133160240398818 0.05160692232499954 0.024125433129494264
153.1 0.046016680231703376 0.010479370241143413 -0.5578025924049419 0.12476060518163637 -0.5665288083816721 0.09456903216594924 0.047696141590967155 0.01831671960693664
159.0 0.041955808700476334 0.005114872848453874 -0.5363360039430201 0.19551290839604044 -0.5475108529389137 0.16716284668053563 0.043524764360583744 0.014867102757601666
164.9 0.03863980377460352 0.004446590712799203 -0.5071472335671051 0.26274168237709594 -0.521575119108743 0.23610539770618982 0.0406261427271534 0.012904416120649643
170.8 0.03394036533133598 0.003014530029702773 -0.4676725343564064 0.3266571871329355 -0.48917594278533294 0.30105086513117657 0.03760379836601767 0.011906996365247346
176.7 0.03196552460427947 0.0014533522287006348 -0.4213591616761498 0.38520328692098715 -0.44592909706262995 0.36106117801833665 0.035791808498614734 0.010752606224125178
182.60000000000002 0.030459362001234103 0.0018709721194820753 -0.3700601857461387 0.4361712625392349 -0.3962838270296859 0.41475638604025966 0.03460836729500404 0.011686022400299265
188.5 0.029806356342335937 0.0012089428423191053 -0.31019514064689874 0.48126831161104067 -0.34082187490472604 0.4622563151653122 0.03550742565486541 0.01080068503564862
194.4 0.02853788506808951 0.0008418907765821438 -0.24634454466445263 0.5163835523738265 -0.27812528801444225 0.5023988818766648 0.035586672157966966 0.010000044468266628
200.3 0.030209440725670108 -0.000173873893433158 -0.17844845580153987 0.5429522350034947 -0.21144410575406983 0.5350873293623711 0.03779031150489982 0.00887542891139485
206.2 0.030005455411058674 -0.003227139594498144 -0.10642807168926785 0.5619934839184844 -0.14308245177029696 0.556754488571201 0.03660206969253394 0.005276082150080462
212.10000000000002 0.03077486394969461 -0.004623155487018522 -0.033735836228758816 0.5704988774778056 -0.07031767924300915 0.570296990027372 0.038219513967792794 0.0027850334663026637
218.0 0.02858830169474406 -0.008869105256083686 0.04082375775693723 0.570467326821511 0.00298969004413814 0.575371489424236 0.039059026561336335 -0.0015494268646323096
223.9 0.027518557455840816 -0.011992590131214486 0.11357269647182296 0.5606060362980022 0.07704598815152837 0.5704817624049635 0.03713179718675259 -0.005912915246155418
229.8 0.023811030812860238 -0.014545010163256843 0.18637703531879582 0.5399857701585067 0.14849183061763432 0.5557455464687919 0.03395010893605284 -0.010334016979141492
235.70000000000002 0.021390113481251284 -0.016176952549214967 0.2540992932333109 0.5129853102061352 0.21897216383123821 0.5321564057043537 0.03231617466063859 -0.013381704578995074
241.60000000000002 0.01771947094749937 -0.017389759302490152 0.31884249900300593 0.47551806569814664 0.2866132913985922 0.5002787039664665 0.02860057547366769 -0.016509113126148476
247.5 0.014570402852394224 -0.017955936705778962 0.37769142491603447 0.4303863587814181 0.3490118289474109 0.4591382610825212 0.024106982906310248 -0.018099259678102664
253.4 0.010741533374008539 -0.017592753640713214 0.4308129499563636 0.37797239199148447 0.40468527066036414 0.410364516771835 0.021144253733036255 -0.01827718594402125
259.3 0.008190559072011713 -0.015956346951257642 0.4768581485109383 0.3199859138892463 0.45573640062884985 0.35670642458247886 0.017744418505148057 -0.017740349736611663
265.20000000000005 0.005720222977960879 -0.01616588618061168 0.513990539184231 0.2544505765244071 0.4975506545057649 0.29498598368519796 0.01440824696101009 -0.017617036222076075
271.1 0.004678800662408038 -0.015250250374414668 0.541887701347525 0.18487569504715626 0.5308813782536974 0.22921578421124902 0.011948146271673371 -0.017085136706607995
277.0 0.001904423115154776 -0.012878615469790156 0.5611668254241339 0.11431551439366053 0.5550066708245048 0.158967051176141 0.010785907257181064 -0.015325604782547481
282.9 0.0019914248862105428 -0.012557815574792575 0.5743852741938822 0.040467308323526054 0.5715676435620263 0.08652763308253496 0.00919010053749936 -0.014040546867090319
288.8 0.001594273029711459 -0.010313646366895865 0.5719810675091485 -0.03365468156957392 0.5792358207407239 0.01130907534034639 0.008380425643198876 -0.01336431501764089
294.70000000000005 0.0009335979817261008 -0.01163921588687039 0.564423402446462 -0.1089598789510386 0.5759430565601816 -0.06216286702208598 0.008217512574779134 -0.013414541301804096
300.6 0.00051925876475434 -0.009449883574698514 0.5458276121938883 -0.18084840707352176 0.5644206768423063 -0.13666649259304806 0.006888387975986384 -0.012945510498656047
306.5 -0.0007581499514217915 -0.009516999855461132 0.517667299398426 -0.24987530020902926 0.5413900925662155 -0.20710818073807621 0.00571153003644844 -0.013082422064576724
312.4 -0.00125806252558277 -0.008865638366874352 0.48102174062542213 -0.3144126540501583 0.5091906152844028 -0.2753626148800884 0.003255245727358752 -0.014031538031137044
318.3 -0.0034356201404592427 -0.009741745645292836 0.4348712803186068 -0.37445898418756524 0.46993907849534616 -0.33832238030872824 0.0010995785270428307 -0.01380213899536577
324.20000000000005 -0.0056870724831635765 -0.006393249340330948 0.3825491603199202 -0.42704621566027684 0.423085266300922 -0.39576674312960697 -0.001966082538322713 -0.012505721766549814
330.1 -0.008006481430991285 -0.004911617919936355 0.32411592220776525 -0.473906384007425 0.36947327927306134 -0.44653364023070213 -0.00523439052535735 -0.012029433464170557
336.0 -0.007589305129030833 -0.0018645266594000318 0.26013633736953645 -0.5104609007621496 0.30800737625850216 -0.4907679103242332 -0.0075417866221424035 -0.007976414805449496
341.9 -0.007638647256920867 0.0009265583193426456 0.19095107059119482 -0.5407087891153048 0.24307941282627016 -0.5262258047892558 -0.009979522263553683 -0.004122964674803443
347.8 -0.009659225911941897 0.003669451850925861 0.12046060839184206 -0.5608394617636542 0.17314543940040628 -0.553791281358282 -0.01085638313956514 -7.693406483476877e-05
353.70000000000005 -0.007635181459112359 0.00707187942519393 0.04709183430223039 -0.5705216023370703 0.10093166426602224 -0.5706664610854492 -0.011247342630391798 0.003966562754929962
359.6 -0.005980295976528832 0.0099340881070663 -0.02794796790787778 -0.5716468794390104 0.026777246190267015 -0.5799264156499484 -0.010490607266607704 0.00858988060375664
365.5 -0.0043777996803704 0.012823940936008773 -0.10134629572836354 -0.5625046397721538 -0.04754727869317734 -0.5784270887208041 -0.008562179894796832 0.013179543622619933
371.40000000000003 -0.00015606054995848762 0.016079497925622663 -0.17397086833698436 -0.5443093638276125 -0.122216912464595 -0.5679643096188062 -0.004758284114472452 0.0172486966162885
377.3 0.0017362744860797484 0.016969367499863035 -0.2429048885118507 -0.5190286843723323 -0.1935748870960895 -0.5470767308606822 -0.0005288294751768439 0.020798423444484453
383.20000000000005 0.005460963307567259 0.01687366707488288 -0.3083696748392383 -0.48167037821727965 -0.2623144855188739 -0.5189461171451921 0.003964273558350156 0.023222241207903095
389.1 0.009053999195868412 0.01892198677452486 -0.36876040071773375 -0.43910487678679455 -0.32648076401118425 -0.47858302840379974 0.008408127753332828 0.02535397065729205
395.0 0.012351672412538272 0.01774238684187748 -0.42085498629482865 -0.38580521470553514 -0.3852574970047897 -0.4326587358492506 0.01257999140695738 0.024324651358712066
400.90000000000003 0.013800653862075699 0.016421471107291242 -0.4663142898163147 -0.3282550770215249 -0.4366062498375055 -0.3787946784108156 0.01725674048229547 0.024170310758014662
406.8 0.01601082255192308 0.015375522657870677 -0.5054688883990288 -0.26492347025828955 -0.4814867327876488 -0.32018252645405676 0.020652506780122724 0.02346618239516714
412.70000000000005 0.018684869176559784 0.014759984612931485 -0.5361417444423849 -0.19727160986416833 -0.5185244901078399 -0.25565497028841144 0.02301152967797164 0.020612205379762914
418.6 0.020247031158321802 0.014804038764980312 -0.5557873077919694 -0.12548085706393736 -0.5472928695123306 -0.18715524855792268 0.025825635869652353 0.019994026202500365
424.5 0.022769841632400988 0.01379494802728568 -0.5670722646139005 -0.053816017939333015 -0.5654047783209667 -0.11586833145717179 0.029589295253340444 0.01970854819453682
430.40000000000003 0.024782187982611753 0.013150636314634341 -0.5611044801798887 0.022899349878790783 -0.5724691181453737 -0.04017894838567662 0.03182497199920873 0.01687793376186061
436.3 0.027914320950561053 0.012822053927943926 -0.5543571122090442 0.09548217027412768 -0.5717375839243921 0.03387699380118394 0.035627206230719854 0.016287321624181117
442.20000000000005 0.03177962802361929 0.011363503941343476 -0.538152810770253 0.16598829424127817 -0.5626828846211867 0.10712656968123903 0.03785583453988582 0.014364459358425504
448.1 0.03581746000147132 0.009535416005175391 -0.5111725188448304 0.2338088958306804 -0.5442288491096678 0.17669683046549226 0.0423080221111055 0.012026744479896113
454.0 0.03943728507786119 0.005913213697782725 -0.4777681103211101 0.2978923624346859 -0.5165521339204246 0.2466542591998649 0.04595492647227632 0.008150113129913632
459.90000000000003 0.04318497872178944 0.0011892267275642825 -0.43490866109927184 0.35621271597249815 -0.48057700867775366 0.3100878412781672 0.04963150412569625 0.005770199822433732
465.8 0.047150230747001094 -0.003398516890298165 -0.384018146547207 0.40930001945211286 -0.4367852954595954 0.36880866425993064 0.053780942223472475 0.0008627819115101651
471.70000000000005 0.049023644206984955 -0.00814651866675616 -0.32747051148667267 0.45475034835603967 -0.38667956582920887 0.42116462942471083 0.056635335708850695 -0.004562814661883057
477.6 0.05028734205224832 -0.015486988050512764 -0.26647272976266184 0.49302859662114734 -0.3282322245299011 0.4655569068967865 0.058700065807225435 -0.010673287960236276
483.5 0.05022045501373609 -0.022882019424730934 -0.19983898103791223 0.5225986531183312 -0.26627923708855594 0.5040668886232587 0.059610597552406996 -0.0189777192891739
489.40000000000003 0.04898463267870073 -0.030309732298602305 -0.13197871534366007 0.544976989246882 -0.2002545515306292 0.5339359592877829 0.059327512731380774 -0.026901446028142543
495.3 0.044863714067830164 -0.037251574944613945 -0.059400755468595884 0.5564576140795554 -0.1311341387166113 0.5555561087908515 0.05721651129782801 -0.034102395291910496
501.20000000000005 0.04072412938896662 -0.04366319385663257 0.011398734738147303 0.5596534911474405 -0.05838107016796958 0.5669404870864811 0.05339416523243121 -0.04178871297626389
507.1 0.03418175304863875 -0.04790920103430573 0.0839632820802976 0.5531541634164466 0.014079472801601505 0.569987751740504 0.04991838608064203 -0.04850028918639087
513.0 0.02925615583800818 -0.05195461064287452 0.1530706653101843 0.5371631353552344 0.08740271660362836 0.5637688169231556 0.04418290256495283 -0.05340097714630234
518.9000000000001 0.02227756318920614 -0.054453715956643486 0.22267637907009544 0.512929795950861 0.15818867755259966 0.5474358174536367 0.039144868075921636 -0.058493094963571926
524.8 0.01622644992486731 -0.05567224736359014 0.2854225272793558 0.47923324594534183 0.2257615358741109 0.5241594132669795 0.03314807648604331 -0.06122679587257424
530.7 0.011256189944364899 -0.05458403637342545 0.3446325858751284 0.43892938509720814 0.291995647750707 0.48998440359822615 0.026514791180849335 -0.064665517065113
536.6 0.005791997415059654 -0.054412898243415414 0.3985308114761233 0.39050373804489563 0.3519786079516113 0.4489363072275108 0.020687557429229425 -0.06515065408333742
542.5 0.0017089098633753447 -0.053631331537727735 0.44491557030409284 0.3348379993179718 0.4049197148048722 0.4009252496960747 0.015668489235503142 -0.06641705366718555
548.4000000000001 -0.0005929585847850593 -0.05257314898065837 0.48528462832231806 0.275451284348037 0.45167265250801497 0.3447509860587124 0.011209683150537464 -0.06760228605959705
554.3 -0.004985338960220271 -0.05177064037350399 0.5152427270799116 0.21032883856642115 0.49365661669810323 0.2852882381958958 0.00659362039757061 -0.06754891171089578
560.2 -0.006748337022618518 -0.051524939627987015 0.5378658149468224 0.141148100399392 0.5262729503256173 0.2204073832446363 0.002862630665286956 -0.06767923077514794
566.1 -0.009519842169550421 -0.051803866734697446 0.5511983456141344 0.0717106528508886 0.5496468679722719 0.15142744617916856 -0.0019367689157899605 -0.0692184277846363
572.0 -0.01344708908102123 -0.053092037572619225 0.5547754961186301 0.00033903172701501086 0.5643486624405344 0.08061931473620984 -0.007162611473754447 -0.07048259456109764
577.9000000000001 -0.017795413322269214 -0.053001280582193076 0.5501344945382176 -0.07047471657703087 0.5700394572569873 0.008391970530239944 -0.012560613425927864 -0.07124924382460801
583.8 -0.023077356138037807 -0.05314388614645185 0.5355531898806506 -0.14076280732551932 0.5665075971256233 -0.06430118500753207 -0.019293348668507442 -0.07178396446766233
589.7 -0.02937819489194923 -0.053580399464080865 0.5138825887256613 -0.20856950231348906 0.5546085132021488 -0.1353560372550759 -0.02710495645501903 -0.07143119066307249
595.6 -0.03649202452683741 -0.05172938514065436 0.48368410519073357 -0.27019263882254 0.529141952283022 -0.20048840309755336 -0.03530966976791445 -0.07001112978364583
601.5 -0.043621470855278094 -0.04778405969882231 0.4454077186703922 -0.32904021443499926 0.4992794953355636 -0.26659237315586787 -0.04422216058915401 -0.06667294396326459
607.4000000000001 -0.05031450582347052 -0.041140091085047084 0.3977840944355698 -0.38382358692726276 0.4622289797248727 -0.3277082268867795 -0.05184344269755177 -0.06190804351497163
613.3000000000001 -0.056672287906704824 -0.033417197397865556 0.3456291284410454 -0.4315803884451323 0.4162287506313818 -0.38398869197555474 -0.060389154414464116 -0.053765546863356495
619.2 -0.05989808256447406 -0.024197170249768883 0.2901391389827129 -0.47284117919696833 0.3643002803694497 -0.43334297221407103 -0.06595590352486533 -0.045355255746094954
625.1 -0.060678378641186546 -0.015229371916605663 0.2261124568205227 -0.5072713007399907 0.30662045629206974 -0.4762467306413851 -0.06979051334375412 -0.035754122832819424
631.0 -0.05965946951110292 -0.004495750624384201 0.16058304159551956 -0.5327415285400479 0.24235696478061236 -0.5122285216266396 -0.07134861971789401 -0.025162543151906795
636.9 -0.05553689667618808 0.004620050914119681 0.09068852749731925 -0.5502016044042017 0.17487922182756613 -0.539180232630568 -0.07006018515268661 -0.015112303136299078
642.8000000000001 -0.05084020066828225 0.012727446481356167 0.018258923299482827 -0.557182911728556 0.10555865318182102 -0.557721657875977 -0.06781077863610066 -0.006152500858911053
648.7 -0.04271869757691303 0.01861442490852056 -0.05383063011506395 -0.5550379257177143 0.032682491003701006 -0.5678599543226898 -0.0627874046479895 0.0028803893722728433
654.6 -0.03457736095006707 0.022693825931177785 -0.12574469615886152 -0.5456771764265084 -0.03900222470105452 -0.5675040204799949 -0.05626338346509901 0.008901617001082628
660.5 -0.025656185950613322 0.023957034275016054 -0.1958375013186073 -0.5258297223410219 -0.11195023295481354 -0.5591365410337182 -0.048968871304721946 0.01366064395910309
666.4000000000001 -0.017618446623162178 0.021664756120797924 -0.2616456916382275 -0.49662828486253685 -0.18198374538401946 -0.5396777431036144 -0.04303740398916423 0.013963154177643895
672.3000000000001 -0.011396349187923462 0.0169819139163869 -0.32516656162317165 -0.4585783804524649 -0.2503479406511951 -0.5115254103523462 -0.03577971416124317 0.012534359365215244
678.2 -0.007164654918708142 0.011553207693225254 -0.3818643967888192 -0.4144230276134905 -0.3138769941512056 -0.4764423184966378 -0.03317537740763617 0.00885038347871915
684.1 -0.005724414087256373 0.00516464470784084 -0.43251227222836036 -0.3596842843353311 -0.3727048175399209 -0.43236702899255647 -0.03209360492064066 0.0057306606828683715
690.0 -0.006262326295234776 -0.0011030142173913255 -0.4759664289689846 -0.3011760353898335 -0.425194926191508 -0.3801705691355098 -0.030934550951789288 0.0008121321607560818
695.9000000000001 -0.00981391139767701 -0.00479773497880556 -0.5114031860014912 -0.23785715796222456 -0.47175479768971584 -0.3229061877635829 -0.03382045950236035 -0.002249430335991757
701.8000000000001 -0.016587575477757462 -0.008648740282177124 -0.5385731627932172 -0.16917672859756683 -0.5101761131041246 -0.26066640720333123 -0.037727157504284604 -0.004824383286128633
707.7 -0.019669731947354715 -0.00881058185360227 -0.5571803064869462 -0.09654577096631743 -0.5399936438427894 -0.19293583908948364 -0.04329579321902677 -0.003923058089503557
713.6 -0.026523566608607156 -0.006691124770016286 -0.5669537873079997 -0.023932254642676887 -0.5600827526957277 -0.12111558861310755 -0.04739317805033839 -0.00046125463039153864
719.5 -0.03008902254385909 -0.002935607088953761 -0.5649719119962143 0.04959771206535144 -0.5705644403539214 -0.04833681372922067 -0.05210468786017903 0.00584878941242542
725.4000000000001 -0.033487958300091165 0.0024150132140935737 -0.5536130099407072 0.12392049669304778 -0.5734803803617128 0.025479711815103372 -0.05535774496771996 0.012990871969223803
731.3000000000001 -0.033756770952275424 0.008972188572291439 -0.5330448303724218 0.1950068638340786 -0.5659661603157982 0.0988639722236426 -0.054308929939375146 0.020512181454257594
737.2 -0.03230912265317658 0.01565189391015669 -0.5033756597878432 0.26230490132229417 -0.5495873497472035 0.1708400490404142 -0.05219352287034916 0.030239252098347925
743.1 -0.029088521592164355 0.02244771079344462 -0.4648688739747548 0.32660450797318785 -0.5225094726895438 0.24047943100033914 -0.04763487724597983 0.037800465506040055
749.0 -0.023628113610988915 0.026476656712608408 -0.4191094160065053 0.3843834482141544 -0.48703290054083626 0.30493613227894434 -0.04096380031048441 0.044924895118374705
754.9000000000001 -0.017441265309612007 0.028884701127460173 -0.3652133256329169 0.4365088235512357 -0.4452644938477764 0.3658435527422764 -0.03332844974808206 0.05028369288406567
760.8000000000001 -0.009737064327717905 0.02948179703332593 -0.30497874451567647 0.4836503712798003 -0.3941638180365873 0.41957865956241175 -0.023317725251559153 0.05380189290727912
766.7 -0.0032144764798469417 0.026648709870443182 -0.2402973540297666 0.5166227761637361 -0.33604989010506087 0.467324469045185 -0.013476157362852875 0.05282471174189309
