!Created with skrf (http://scikit-rf.org).
# MHz S RI R 50.0 
!freq ReS11 ImS11 ReS21 ImS21 ReS12 ImS12 ReS22 ImS22
100.0 0.006470829221906516 -0.0019603558236570757 0.48906781407326577 0.09728989757073131 0.49186847379809506 0.0870741925422319 0.0042730516207952545 -0.011067097966007024
105.9 0.008406114210371496 -0.0010866687298717245 0.48699536629617024 0.10307677295881733 0.49037049048432285 0.10114471293222776 0.0049946474687908035 -0.00978058806113985
111.8 0.020511829493702144 0.007720635272194182 0.48655625185132784 -0.10420251614352628 0.49083650220109004 -0.09857570289437555 0.023874432674759513 0.014912973385273207
117.7 0.026165004198556722 0.0014905090903554888 0.4875247335305012 -0.10814473374433607 0.49205166120103094 -0.09227724471866822 0.026812892693469502 0.007395517951775942
123.6 0.015919730345626642 -0.003861580831227849 0.48981640231186085 -0.09812305891732427 0.4900389797038741 -0.10782713010582186 0.019963345716343103 0.001052070634654036
129.5 0.01677146528763866 -0.005483398334863613 0.4898466272766616 -0.0951715647787718 0.4879525061536999 -0.11364302654491931 0.02019893205765803 -0.0003673891005347901
135.4 0.012653422919085455 -0.007931651024880386 0.48921465202307424 -0.10445771832335725 0.48555949728506803 -0.12032581895623534 0.016340407537353024 -0.002914620675107072
141.3 0.009933269774879423 -0.010134583585397873 0.48679381970099417 -0.11800132538022909 0.4874760185550663 -0.11739585402693557 0.012616486098714266 -0.005344328260757074
147.2 0.00748227466205073 -0.008231797089666499 0.47944664983164625 -0.14193157562570544 0.48866226585752054 -0.1096027280882951 0.007941781229370129 -0.004841794354849033
153.1 0.003269162001252957 -0.00784619625908247 0.4831077603406178 -0.129847521852728 0.4861364258980041 -0.12700005543250836 0.004296781307555784 -0.002912627849412546
159.0 0.008971306049293396 -0.011026960465847337 0.4847261421478411 -0.12263890891042108 0.47838128472487484 -0.1415707243304833 0.00888496221308396 -0.0053163223287349065
164.9 0.006122399659255718 -0.006761726256096651 0.4806132999407724 -0.13981332927056436 0.4831462251520449 -0.12681041890004194 0.004918133052445259 -0.001811082451021361
170.8 0.0009666080987194732 -0.006423074593250201 0.47866106757556703 -0.14056705536928313 0.4828657753905051 -0.1290448054104635 -6.432385250632202e-05 -0.00039460678611955594
176.7 0.0009160854498952633 -0.004737051172073122 0.47569547221765185 -0.14568433694438562 0.4771858984905017 -0.15082023132123154 0.0004955021935668282 0.0042352720672877205
182.60000000000002 0.0006496354140095295 -0.002184787977607191 0.47866743696652797 -0.14017856933528844 0.47846328970913576 -0.13900266885779955 0.0004268217594670435 0.005636767020340224
188.5 -0.004009057321872531 -0.0027140033941968128 0.46922604176256266 -0.17249704131462368 0.47350782475656084 -0.15686470365968463 -0.005500968935273174 0.00708935020899122
194.4 -0.0003055825813908403 -0.0005758624200826188 0.47407962605957127 -0.15462383019699044 0.4743289207033851 -0.15498403473809502 -0.0022152998858208945 0.008535905780590155
200.3 -0.00032906710537374196 -0.000658076283370055 0.4678653308482945 -0.17364381956493838 0.4725625549660651 -0.16520557303542618 -0.0012419359448947907 0.007645954654392315
206.2 0.0013775051817066933 -0.0013594493493119296 0.47388111880237366 -0.15867558912987131 0.4739551317049043 -0.15745841695971782 -0.0013681005523987569 0.005333608070611536
212.10000000000002 0.0031340550090076633 0.004429937785504992 0.47592001985088195 -0.14680201293547496 0.47087639670015896 -0.1619734241320285 -0.0012317918284757631 0.009368943751223921
218.0 0.004666117777853934 0.00031589362093616634 0.4662066558741714 -0.17676787840345057 0.4656682138861185 -0.1813110795826877 0.001846157370891172 0.010626389000495997
223.9 0.004468892593213582 0.00202398505387933 0.4654146778219148 -0.17886423970236917 0.4686128350902425 -0.17111056652993076 0.0017934529718141444 0.0092874034031038
229.8 0.0058903561025661156 -0.0005297074620146021 0.4584077581219137 -0.19579544494603895 0.4626868470758129 -0.18256286877430788 0.005583744232833358 0.008924771574614014
235.70000000000002 0.0052265350606001924 5.8659346916121896e-05 0.46026323608261255 -0.187074634256944 0.46544453851595513 -0.17834222365522992 -2.193086170032804e-05 0.008633483475359664
241.60000000000002 0.010548895387234017 0.0013328256436653384 0.4605778638760153 -0.18975164955928364 0.4582756877186862 -0.19834337437139582 0.008714116974362982 0.008714676146857576
247.5 0.010701328165421416 -0.00036470973327708863 0.45798196295476573 -0.19613146551436453 0.454344851527808 -0.20287816315290122 0.010405836657172516 0.00662872786592056
253.4 0.011829391327377519 -0.002318001878460491 0.45692968780815746 -0.19784195537699106 0.45022395797041326 -0.20840248947709958 0.010163154587674066 0.0044941593492705285
259.3 0.010855525255632454 -0.0027539698121510103 0.4526207740782685 -0.2099001167114338 0.45841368763005247 -0.19664114093645374 0.008809517220066966 0.004509680043401797
265.20000000000005 0.009864245065094427 -0.0026189377431963196 0.45549657570860297 -0.20027406555051963 0.44860313303147925 -0.2125150256818066 0.009213368980052752 0.003090472730193952
271.1 0.010048925079631798 -0.001386885389498845 0.4455622992592054 -0.21841098409639542 0.4564830401903548 -0.20209516161575225 0.006666593273685825 0.0036817610847624045
277.0 0.008689016307431416 -0.0015820065836600107 0.4439229690804831 -0.2237266993336706 0.4487706567830934 -0.2143698072661874 0.006913917478089166 0.0018777286944987037
282.9 0.011756808332586686 -0.0015643917315963595 0.4388604501272888 -0.2381424172878064 0.44845567766268574 -0.2127187179392145 0.00648452901499602 0.0007598788329927907
288.8 0.005613885143379482 -0.0005973018776000398 0.44005243997213833 -0.22885160309616312 0.4449251658936203 -0.22271815976541498 0.00335694276569356 0.0024136424255163883
294.70000000000005 0.011615355687383075 -0.0015588625850519147 0.4330712607212265 -0.2413840781113985 0.4410756199249068 -0.23081156253679638 0.007732465063821443 0.002607366827688359
300.6 0.007408876942694031 -0.005342977573772111 0.439978642393617 -0.22824726804141926 0.43255504943729456 -0.24824120703651764 0.004579986859830508 -0.0023179811893256257
306.5 0.009194440431614395 3.2948138044454296e-05 0.4330341080761767 -0.24227776731853295 0.43482938821550743 -0.2380346913960527 0.005896981301909318 0.00251368713496416
312.4 0.006314156680430137 -0.001221196908658982 0.42743259263412015 -0.24981771359878321 0.428267228887712 -0.2520948581964309 0.0051101799149861305 0.0012251323019355992
318.3 0.012287253894617127 -0.005022857638634315 0.43447113115021607 -0.23713709183990067 0.42688545442855624 -0.2535110320021542 0.00835166594957146 -0.0025565628451888252
324.20000000000005 0.00832331256354484 -0.0006047704080526706 0.42988215534377244 -0.24637157551990588 0.4315031637389591 -0.24381721143446103 0.00550913401702181 0.0005372509648386964
330.1 0.01203589038899609 -0.0039407609232284405 0.4280094800005558 -0.25168666529373956 0.4339563812810235 -0.2418410259782469 0.0075724503248771925 -0.0001286147118536595
336.0 0.0070726035787279685 -0.003421736938063967 0.41899725131025356 -0.26146219929641307 0.4254381341616972 -0.2533158613198286 0.005264640222463871 -0.0014001243502033808
341.9 0.010101628008779655 -0.0036631923382794192 0.4199597390933209 -0.26511200756650344 0.42083214192469 -0.2623029037199742 0.010873991488801861 -0.0016639935326873245
347.8 0.007206457449386766 -0.0052869128829803455 0.4200219691261516 -0.2632884181637598 0.41889615632983745 -0.26627273727365364 0.005495417493198676 -0.0034328806146648747
353.70000000000005 0.011281369458229485 -0.005543941643864591 0.4121868170006233 -0.2731599173251283 0.4234446049656281 -0.2572955285247812 0.0115379354165589 -0.0029465710880816824
359.6 0.011621330940159496 -0.009798294487643503 0.4100362781129738 -0.27826845008664747 0.4214807152287125 -0.26466693677350117 0.014448952247070245 -0.006554687735987737
365.5 0.010053924092803035 -0.009987614550789262 0.41110159797068174 -0.27350303558193223 0.41570944541357546 -0.27232602671830786 0.012533613796065683 -0.0049356764618818235
371.40000000000003 0.007932290001310988 -0.009956691693536194 0.39900914194212933 -0.29429196078809056 0.4053500156065309 -0.2877266972263484 0.009844815979110714 -0.004492981470593373
377.3 0.006240780012268955 -0.01397523850948759 0.4040091176519891 -0.2890531038270736 0.41149999421096933 -0.2794088507314888 0.009884233795219093 -0.011839097921162589
383.20000000000005 0.004951543913599357 -0.013053779821810534 0.4102656884643189 -0.2814606960407145 0.4107306394180369 -0.28196870192596113 0.010209399681062773 -0.011802026578118678
389.1 0.004710697561804004 -0.01103824080628409 0.40390711635530624 -0.2922733810817238 0.4010552255874545 -0.2953900952532661 0.009428649562294377 -0.010690094411822944
395.0 0.004007728990415908 -0.015865820964609634 0.4059994182576044 -0.28622538737015607 0.3971760864573083 -0.3008423032769471 0.01131453452535724 -0.015124634889955402
400.90000000000003 0.0016685019842002779 -0.011803498285613624 0.4012474796179318 -0.29213902117371243 0.39998666842018127 -0.294412264392053 0.00955960043428645 -0.009552288192769215
406.8 -0.00015256773270670547 -0.012465484954840279 0.397015484254146 -0.30049772720768897 0.3849384471727765 -0.31679661270101533 0.008357304972950383 -0.010822812700473482
412.70000000000005 0.0029864089578897058 -0.013830171732594881 0.3968246022853177 -0.30289009205354134 0.39214064192153547 -0.309077326066255 0.008396097588617724 -0.012520143467570686
418.6 0.00039146941143854326 -0.013380054280844829 0.38549942205910037 -0.31573085323850847 0.3924858347416022 -0.30807578962397203 0.006331596258972795 -0.012517915739979138
424.5 -0.0038791209841147287 -0.0044537039597602615 0.38337277392527264 -0.31670840404914763 0.37829939856745354 -0.32387141431534006 0.005268414892349036 -0.0013723253403044838
430.40000000000003 -0.0017135649395433243 -0.0027768554696749204 0.3919492775266703 -0.3023072251157557 0.38537484839416003 -0.3166214358134283 0.00495712231920581 0.0002646394828899393
436.3 -0.00011511881558199008 -0.0024694355033654356 0.3797794337125384 -0.31976380763319034 0.38377111184505547 -0.31715850810673035 0.007793435472068279 -0.0008208552966920904
442.20000000000005 0.001269989917538141 -0.006933954282625948 0.38023421732895013 -0.32072941946669403 0.37906638767054496 -0.32416672037572014 0.006313829844753464 -0.005348991533421532
448.1 0.0011101087172885262 -0.006682766236089522 0.36498427437342695 -0.3384895761307382 0.37786349771981864 -0.32460297987446163 0.008019099275225905 -0.0033623716273807644
454.0 0.004709960529801066 -0.006386880478311743 0.363325405202771 -0.3426946941409646 0.3632612226213274 -0.3412380067959966 0.01113693494421006 -0.0029793393451945554
459.90000000000003 0.0021824756899313943 -0.005933638333142992 0.35351958442778825 -0.3509558508846718 0.3659526330636845 -0.33990337117257646 0.009526956946857523 -0.0003682606493423497
465.8 0.007779752231946817 -0.0051276179145811375 0.35896704690091136 -0.34621059818514455 0.35802163325780656 -0.3488344052811834 0.014610623474073318 0.0008094957977893703
471.70000000000005 0.007963695208137576 -0.0057854385918844255 0.3615957825555526 -0.34318980989011777 0.3568256992345697 -0.3498538172628117 0.013997304518414142 0.0006527696346596756
477.6 0.0077953759201064374 -0.005894444913346651 0.35830319701228563 -0.34782384573557984 0.3596796035777584 -0.3459112386499731 0.01429484248862057 0.003623688393337262
483.5 0.004276917118766548 -0.009615498932341138 0.34896994840508094 -0.3532219202962582 0.3506164728871831 -0.35762397708010973 0.011669491197179045 -0.001042676787398869
489.40000000000003 0.011992761304301264 -0.007565635568361187 0.34623192341566994 -0.3591467439055797 0.3439255592240029 -0.361668994190361 0.018040057817543115 0.0007617752830268241
495.3 0.010366880319365621 -0.012088254191085376 0.33657944218665853 -0.36854270203668005 0.3462612975227849 -0.36090649504461053 0.016081488586854823 -0.0005457297849532688
501.20000000000005 0.012741838758710574 -0.01291182787196956 0.3335697940716567 -0.3716697641155464 0.3353115408345703 -0.3694372857446719 0.01903461236032601 -0.0023835429459327915
507.1 0.004443587652107554 -0.015531365309157334 0.34368661187369015 -0.3621636990343349 0.34315048182399094 -0.3641664330396403 0.017358187555345714 -0.0030072079339644427
513.0 0.008859576134802155 -0.013445176072639748 0.3303695482723057 -0.3761031084155048 0.33758492355721936 -0.37014291610243444 0.018222525683665357 -0.0033596764392537404
518.9000000000001 0.004250952280542804 -0.016179487095841348 0.3304474065146562 -0.37504674727233184 0.32814215872836633 -0.37854285865987486 0.015578041632003893 -0.00202174346221832
524.8 0.005759425808525002 -0.014156913247532881 0.33304010269394985 -0.3708717327701714 0.3375986031596794 -0.3696607704353997 0.01628427176841839 -3.3683838863157366e-05
530.7 0.0015808201136189243 -0.01365435890695604 0.32820176178251576 -0.38004528866366455 0.33102743691184994 -0.3784357892980659 0.012169622609791748 -0.0021493424379607365
536.6 0.0032382637832236412 -0.015294886981720235 0.3222112906284734 -0.3858810618022311 0.3226137057809832 -0.38624598085742046 0.01314813343216419 -0.004330810776663275
542.5 -4.116271446438814e-05 -0.008980333179067983 0.31736027512414705 -0.38720797284217573 0.309575640645831 -0.39271199485431707 0.010775369918978527 0.003663531856343578
548.4000000000001 0.002618227959395994 -0.015583847010814385 0.3228843102214122 -0.3841773282719302 0.3148501506846621 -0.3880938722270322 0.012182482225710715 -0.005098328166457152
554.3 -0.005531347609006339 -0.0157747651294499 0.30408380175533584 -0.39828521690395285 0.3050186615815675 -0.39673974601653345 0.005877492691375083 -0.0031948475803258458
560.2 -0.0057532010282189475 -0.006408872469985789 0.31476062901746155 -0.3899023921005656 0.29622215694360504 -0.40497814855094616 0.0014471392796727596 0.006498360524073717
566.1 -0.0012520367251503013 -0.0078064448389146765 0.2923449624173776 -0.40660145773547074 0.3145488232920696 -0.3899880317841174 0.006938729242738019 0.0052355878156565665
572.0 -0.0033407870888550336 -0.0034310469523156683 0.2910104576699832 -0.40858415484524185 0.29833022058535624 -0.40405228115808545 0.003225979216799284 0.00998854623659824
577.9000000000001 -0.0011675646297269698 -0.0009580705390079079 0.2914651209342221 -0.40569015056174157 0.29726400299808764 -0.40064743845367484 0.005804707234341105 0.012732599625899479
583.8 0.0007523323347386194 0.00015254384822825843 0.2932330509355892 -0.40294369820949094 0.29623773783752116 -0.4005846488920063 0.006599283758003664 0.01477964872933523
589.7 0.0009582453956130402 0.0018530279567080348 0.2980325001103217 -0.40206437868739925 0.27851711539577245 -0.41659869197593064 0.008024392046307968 0.019123623850681143
595.6 0.004225642765445299 0.00905451571448088 0.28088907427796833 -0.4139527819396746 0.28028101295419705 -0.41502003891643663 0.008239620099676834 0.024084077734206188
601.5 0.0017238783452871121 0.001161850644117673 0.2741494639174984 -0.4151259123805465 0.27165742006223603 -0.4222706296215269 0.00776075733781965 0.01759527655213101
607.4000000000001 0.006771792932021241 0.005353601512244137 0.27484634413368836 -0.414988832577485 0.2685774255777221 -0.42181009827682614 0.01279319012935664 0.022660750897873054
613.3000000000001 0.010126441328378059 -0.0009346505727369206 0.261879024831998 -0.4205861001110621 0.263958040241794 -0.42186263373961114 0.015864542610766145 0.018071787811837867
619.2 0.011803639064248275 -0.0007337804056867658 0.27109884194801037 -0.41581905222774007 0.2599949138914777 -0.4257707446262868 0.017511424489055263 0.01687548483142836
625.1 0.012601754806950577 -0.004511182670181593 0.2539810637890067 -0.42757258330996073 0.2497677943037241 -0.43081934274675276 0.01756448183458572 0.015616545151517306
631.0 0.014448905576734948 -0.005725830845105429 0.2518668774814545 -0.42947242036649186 0.24847019701630355 -0.4300777916045466 0.020304201425645933 0.01598666271752476
636.9 0.011374943155130568 -0.011027530724574209 0.2596116543175254 -0.42430563348584477 0.2528036139518474 -0.4271636657054747 0.01723327109201659 0.008343824837737442
642.8000000000001 0.009892707749698334 -0.009251563194645174 0.23352886950829055 -0.43958721273355866 0.24313022176287252 -0.4357885468605352 0.015129095328912032 0.013280890119632528
648.7 0.008819949464718231 -0.020194737629357078 0.2431095437623204 -0.43072245801246467 0.2319179249223308 -0.4386512519868762 0.0166610338846058 0.002179710194037025
654.6 0.011802396410819966 -0.017417651907929665 0.24017571116526928 -0.43295774069282456 0.23747174668229357 -0.4355951509189735 0.019193772679242417 0.003177491292887449
660.5 0.00629038252886772 -0.02072504285690563 0.22698703166900283 -0.4414182181388756 0.23027831157563364 -0.43944590413161083 0.01279328992279402 0.0005075897338311806
666.4000000000001 0.004744247357237301 -0.025234560094114334 0.22211105797998068 -0.44087985906416527 0.22895381053210084 -0.4382284655381541 0.01078976146604623 -0.0035001212744606536
672.3000000000001 -0.0027005071373459376 -0.027435332542661305 0.2257812835800629 -0.4399253788006238 0.22070578626535092 -0.44198136089903095 0.004776035356681827 -0.007377914532464191
678.2 -0.0027263771060646235 -0.030570421859582357 0.2242060759533709 -0.44208655796834345 0.22029767208521672 -0.44375963652711464 0.0031811090138054096 -0.010336581131803128
684.1 -0.004828006755999907 -0.019706468720441257 0.22934598639582662 -0.4384911547445647 0.21137645072811007 -0.44664047015921166 0.0019755362996678673 0.003003483322635906
690.0 -0.006653844406340974 -0.022632203954479912 0.21545914340973768 -0.44441786173325687 0.215809824920991 -0.4451816788761444 -0.002158609980116007 -0.0014128986732069812
695.9000000000001 -0.006680090243169925 -0.011192403896524263 0.21166429071569506 -0.44639147210741376 0.2078605418066876 -0.4493112003192178 -0.0027901005648402273 0.008112369377802103
701.8000000000001 -0.011251636634209647 -0.014416291099057042 0.1957619666626797 -0.45611983646133236 0.2137898325991886 -0.44897103326484566 -0.008976447469623937 0.0035736272894245605
707.7 -0.011764987471913312 -0.013328888870352917 0.19377421993472582 -0.45562255182332245 0.19748216473319213 -0.4565822299896872 -0.009856142040827085 0.0065693234135159725
713.6 -0.010237528586266736 -0.00892139661931738 0.1986939699190858 -0.4542245909009586 0.19191087353855218 -0.45835439522951726 -0.011084309576033199 0.008894276785385614
719.5 -0.009112760959195776 -0.007833172038606083 0.18558663765553568 -0.4608497374754171 0.18889973771093202 -0.457974945201196 -0.010502332210329075 0.011525726763112061
725.4000000000001 -0.006951098583805309 -0.007425490438956789 0.1947564151283529 -0.456913204140736 0.19618345619627034 -0.4559377651704694 -0.009692125153884174 0.0115816126289537
731.3000000000001 -0.005142492170955886 0.0013929724625616974 0.2000151923064378 -0.45421797668196745 0.18331774170408657 -0.4606296954004089 -0.009084805143590492 0.01662472350847434
737.2 0.000848618864918007 -1.880789566129986e-05 0.17698344236072713 -0.46327649505264756 0.1846288523603728 -0.46091362820827414 -0.0030183716266612534 0.018345189987500364
743.1 0.0008719883380147748 0.0018968782853104795 0.17511533113429426 -0.46505165030484846 0.16882339923598716 -0.46540682200213734 -0.00520334134773268 0.018558890816998304
749.0 -0.0017599780841366544 -0.0009198148413069502 0.1753955052344343 -0.4646075428764077 0.1836828771519512 -0.4586053398680541 -0.006898896431399378 0.01711336090415011
754.9000000000001 0.009785084765676945 0.005063285531163804 0.1669768634897845 -0.465272641741183 0.17715620086788023 -0.46535642514040115 0.001859531695597207 0.023479995933489914
