!Agilent Technologies,N3383A,US41480161,A.04.87.01
!Agilent N3383A: A.04.87.01
!Date: Monday, September 24, 2018 17:27:55
!Correction: S11(Full 1 Port,1)
!S1P File: Measurement: S11:
!Part No: ANNEF-50+
!Part Description: SMA Female 50 Ohm Broadband Termination
# Hz S  dB   R 50
10000000  -3.890059e+001  -2.666606e+001
20000000  -3.993718e+001  -1.463316e+001
30000000  -4.017799e+001  -1.029389e+001
40000000  -4.023745e+001  -7.353400e+000
50000000  -4.037251e+001  -5.456275e+000
60000000  -4.026540e+001  -4.368168e+000
70000000  -4.031011e+001  -3.462798e+000
80000000  -4.038926e+001  -2.970097e+000
90000000  -4.036781e+001  -2.137089e+000
100000000  -4.037919e+001  -1.769234e+000
110000000  -4.039952e+001  -1.554582e+000
120000000  -4.037368e+001  -7.103987e-001
130000000  -4.043716e+001  -3.294215e-001
140000000  -4.037550e+001  -1.579735e-001
150000000  -4.037445e+001  1.059476e-001
160000000  -4.037870e+001  4.993609e-001
170000000  -4.037198e+001  1.128472e+000
180000000  -4.037129e+001  1.266123e+000
190000000  -4.033889e+001  1.422755e+000
200000000  -4.034036e+001  1.649584e+000
210000000  -4.037035e+001  1.887304e+000
220000000  -4.037688e+001  1.815467e+000
230000000  -4.036182e+001  2.270343e+000
240000000  -4.034780e+001  2.522180e+000
250000000  -4.030180e+001  2.951269e+000
260000000  -4.029414e+001  3.089540e+000
270000000  -4.027864e+001  3.115037e+000
280000000  -4.029564e+001  3.479746e+000
290000000  -4.029612e+001  3.694466e+000
300000000  -4.025572e+001  3.771442e+000
310000000  -4.028455e+001  4.115922e+000
320000000  -4.027198e+001  4.146269e+000
330000000  -4.030751e+001  4.692312e+000
340000000  -4.029005e+001  4.625951e+000
350000000  -4.026138e+001  4.629382e+000
360000000  -4.024414e+001  4.746947e+000
370000000  -4.024864e+001  4.963116e+000
380000000  -4.020027e+001  4.949608e+000
390000000  -4.019693e+001  5.055790e+000
400000000  -4.018584e+001  5.403147e+000
410000000  -4.016436e+001  5.739761e+000
420000000  -4.013094e+001  5.881066e+000
430000000  -4.012815e+001  6.186309e+000
440000000  -4.012660e+001  6.212512e+000
450000000  -4.011962e+001  6.564332e+000
460000000  -4.008734e+001  6.368967e+000
470000000  -4.008271e+001  6.712456e+000
480000000  -4.006370e+001  7.020827e+000
490000000  -4.006319e+001  6.876318e+000
500000000  -4.005009e+001  6.857604e+000
510000000  -4.000293e+001  7.204338e+000
520000000  -4.002338e+001  7.252660e+000
530000000  -4.002000e+001  7.429443e+000
540000000  -4.000206e+001  7.667511e+000
550000000  -4.001497e+001  7.699127e+000
560000000  -3.998369e+001  7.667188e+000
570000000  -3.998668e+001  7.728335e+000
580000000  -3.995860e+001  7.956586e+000
590000000  -3.993503e+001  8.101965e+000
600000000  -3.993280e+001  8.205216e+000
610000000  -3.988706e+001  8.508367e+000
620000000  -3.986194e+001  8.359777e+000
630000000  -3.985503e+001  8.541268e+000
640000000  -3.984821e+001  8.808577e+000
650000000  -3.982626e+001  8.718818e+000
660000000  -3.984844e+001  8.618605e+000
670000000  -3.984372e+001  8.680813e+000
680000000  -3.985003e+001  8.802155e+000
690000000  -3.984552e+001  9.099867e+000
700000000  -3.987450e+001  9.240122e+000
710000000  -3.986540e+001  9.114560e+000
720000000  -3.984708e+001  9.136127e+000
730000000  -3.986565e+001  9.188848e+000
740000000  -3.985146e+001  9.395291e+000
750000000  -3.985172e+001  9.591898e+000
760000000  -3.983625e+001  9.733176e+000
770000000  -3.980288e+001  9.671584e+000
780000000  -3.987564e+001  9.951743e+000
790000000  -3.983255e+001  1.010652e+001
800000000  -3.983968e+001  1.021293e+001
810000000  -3.982107e+001  1.020630e+001
820000000  -3.981907e+001  1.048749e+001
830000000  -3.982299e+001  1.064524e+001
840000000  -3.979304e+001  1.062664e+001
850000000  -3.982677e+001  1.061386e+001
860000000  -3.977936e+001  1.075481e+001
870000000  -3.977379e+001  1.092215e+001
880000000  -3.973747e+001  1.109346e+001
890000000  -3.976595e+001  1.106544e+001
900000000  -3.977649e+001  1.117445e+001
910000000  -3.974637e+001  1.128094e+001
920000000  -3.974036e+001  1.153992e+001
930000000  -3.977089e+001  1.169213e+001
940000000  -3.973998e+001  1.202635e+001
950000000  -3.973203e+001  1.193087e+001
960000000  -3.972932e+001  1.196317e+001
970000000  -3.971332e+001  1.215316e+001
980000000  -3.968829e+001  1.248243e+001
990000000  -3.970127e+001  1.253251e+001
1000000000  -3.969138e+001  1.269851e+001
1010000000  -3.966480e+001  1.248985e+001
1020000000  -3.966001e+001  1.274629e+001
1030000000  -3.966529e+001  1.296885e+001
1040000000  -3.964428e+001  1.291249e+001
1050000000  -3.965927e+001  1.322277e+001
1060000000  -3.963650e+001  1.327244e+001
1070000000  -3.960717e+001  1.349758e+001
1080000000  -3.959267e+001  1.375410e+001
1090000000  -3.962922e+001  1.385990e+001
1100000000  -3.959792e+001  1.413376e+001
1110000000  -3.957390e+001  1.413762e+001
1120000000  -3.957146e+001  1.435528e+001
1130000000  -3.957256e+001  1.440710e+001
1140000000  -3.953645e+001  1.446617e+001
1150000000  -3.953326e+001  1.464543e+001
1160000000  -3.954124e+001  1.458989e+001
1170000000  -3.951609e+001  1.452433e+001
1180000000  -3.950292e+001  1.507855e+001
1190000000  -3.948482e+001  1.490049e+001
1200000000  -3.946197e+001  1.483659e+001
1210000000  -3.947512e+001  1.498809e+001
1220000000  -3.942886e+001  1.531025e+001
1230000000  -3.941586e+001  1.535583e+001
1240000000  -3.942105e+001  1.543927e+001
1250000000  -3.941394e+001  1.553150e+001
1260000000  -3.942348e+001  1.574434e+001
1270000000  -3.938162e+001  1.590262e+001
1280000000  -3.938146e+001  1.599850e+001
1290000000  -3.933406e+001  1.620774e+001
1300000000  -3.936539e+001  1.630741e+001
1310000000  -3.930272e+001  1.617820e+001
1320000000  -3.931342e+001  1.636466e+001
1330000000  -3.929440e+001  1.632192e+001
1340000000  -3.929289e+001  1.630275e+001
1350000000  -3.926006e+001  1.647010e+001
1360000000  -3.924646e+001  1.635944e+001
1370000000  -3.921140e+001  1.664392e+001
1380000000  -3.919605e+001  1.673984e+001
1390000000  -3.918631e+001  1.696643e+001
1400000000  -3.916116e+001  1.683006e+001
1410000000  -3.916753e+001  1.678901e+001
1420000000  -3.916157e+001  1.676725e+001
1430000000  -3.911092e+001  1.678613e+001
1440000000  -3.912095e+001  1.694415e+001
1450000000  -3.908569e+001  1.702353e+001
1460000000  -3.908114e+001  1.692454e+001
1470000000  -3.906056e+001  1.700595e+001
1480000000  -3.901302e+001  1.725595e+001
1490000000  -3.901077e+001  1.736569e+001
1500000000  -3.899861e+001  1.732293e+001
1510000000  -3.897642e+001  1.735255e+001
1520000000  -3.894725e+001  1.741535e+001
1530000000  -3.892331e+001  1.755259e+001
1540000000  -3.890881e+001  1.760262e+001
1550000000  -3.889977e+001  1.755491e+001
1560000000  -3.888313e+001  1.770475e+001
1570000000  -3.886723e+001  1.764122e+001
1580000000  -3.885392e+001  1.772915e+001
1590000000  -3.881714e+001  1.772437e+001
1600000000  -3.882526e+001  1.779327e+001
1610000000  -3.878920e+001  1.780684e+001
1620000000  -3.874697e+001  1.773377e+001
1630000000  -3.876740e+001  1.792418e+001
1640000000  -3.872256e+001  1.797443e+001
1650000000  -3.872536e+001  1.797150e+001
1660000000  -3.869904e+001  1.793855e+001
1670000000  -3.867366e+001  1.777530e+001
1680000000  -3.867715e+001  1.783880e+001
1690000000  -3.864349e+001  1.783362e+001
1700000000  -3.865645e+001  1.796441e+001
1710000000  -3.863297e+001  1.782617e+001
1720000000  -3.862334e+001  1.796120e+001
1730000000  -3.862736e+001  1.801700e+001
1740000000  -3.862068e+001  1.805203e+001
1750000000  -3.857930e+001  1.792292e+001
1760000000  -3.855742e+001  1.807280e+001
1770000000  -3.854958e+001  1.796723e+001
1780000000  -3.853803e+001  1.792818e+001
1790000000  -3.850725e+001  1.814521e+001
1800000000  -3.846894e+001  1.812870e+001
1810000000  -3.847087e+001  1.791422e+001
1820000000  -3.844725e+001  1.808249e+001
1830000000  -3.845719e+001  1.818417e+001
1840000000  -3.843417e+001  1.808073e+001
1850000000  -3.841628e+001  1.802423e+001
1860000000  -3.838956e+001  1.800391e+001
1870000000  -3.837553e+001  1.826772e+001
1880000000  -3.833976e+001  1.834103e+001
1890000000  -3.833313e+001  1.823340e+001
1900000000  -3.830553e+001  1.837428e+001
1910000000  -3.827746e+001  1.837743e+001
1920000000  -3.822691e+001  1.845080e+001
1930000000  -3.824615e+001  1.840745e+001
1940000000  -3.821559e+001  1.852007e+001
1950000000  -3.822239e+001  1.845902e+001
1960000000  -3.819854e+001  1.866977e+001
1970000000  -3.817447e+001  1.851294e+001
1980000000  -3.818976e+001  1.857964e+001
1990000000  -3.814555e+001  1.859406e+001
2000000000  -3.814119e+001  1.863319e+001
2010000000  -3.814413e+001  1.876659e+001
2020000000  -3.815187e+001  1.866316e+001
2030000000  -3.812066e+001  1.883632e+001
2040000000  -3.808859e+001  1.898489e+001
2050000000  -3.808459e+001  1.886299e+001
2060000000  -3.807739e+001  1.879819e+001
2070000000  -3.805369e+001  1.903946e+001
2080000000  -3.803813e+001  1.909788e+001
2090000000  -3.800659e+001  1.888301e+001
2100000000  -3.799585e+001  1.895307e+001
2110000000  -3.798364e+001  1.892088e+001
2120000000  -3.791979e+001  1.886166e+001
2130000000  -3.789405e+001  1.908002e+001
2140000000  -3.789021e+001  1.897223e+001
2150000000  -3.784723e+001  1.906212e+001
2160000000  -3.782804e+001  1.900519e+001
2170000000  -3.781894e+001  1.889890e+001
2180000000  -3.778355e+001  1.877415e+001
2190000000  -3.776349e+001  1.880567e+001
2200000000  -3.776247e+001  1.891795e+001
2210000000  -3.774222e+001  1.876130e+001
2220000000  -3.770499e+001  1.862909e+001
2230000000  -3.769203e+001  1.882328e+001
2240000000  -3.765222e+001  1.859410e+001
2250000000  -3.763017e+001  1.855711e+001
2260000000  -3.760808e+001  1.846320e+001
2270000000  -3.759668e+001  1.852350e+001
2280000000  -3.759550e+001  1.855355e+001
2290000000  -3.759862e+001  1.835646e+001
2300000000  -3.759731e+001  1.834459e+001
2310000000  -3.756854e+001  1.843964e+001
2320000000  -3.755587e+001  1.838638e+001
2330000000  -3.751290e+001  1.842875e+001
2340000000  -3.752809e+001  1.827993e+001
2350000000  -3.750547e+001  1.805695e+001
2360000000  -3.747297e+001  1.817694e+001
2370000000  -3.748072e+001  1.796565e+001
2380000000  -3.748333e+001  1.792954e+001
2390000000  -3.747718e+001  1.788975e+001
2400000000  -3.744495e+001  1.806243e+001
2410000000  -3.742780e+001  1.773153e+001
2420000000  -3.740973e+001  1.766044e+001
2430000000  -3.742062e+001  1.769747e+001
2440000000  -3.740499e+001  1.740052e+001
2450000000  -3.737803e+001  1.723906e+001
2460000000  -3.738158e+001  1.737897e+001
2470000000  -3.736227e+001  1.717040e+001
2480000000  -3.735147e+001  1.726853e+001
2490000000  -3.738339e+001  1.737986e+001
2500000000  -3.736507e+001  1.734407e+001
2510000000  -3.735500e+001  1.721201e+001
2520000000  -3.734631e+001  1.734533e+001
2530000000  -3.733191e+001  1.735839e+001
2540000000  -3.733544e+001  1.716287e+001
2550000000  -3.734207e+001  1.713447e+001
2560000000  -3.732681e+001  1.723442e+001
2570000000  -3.730431e+001  1.687797e+001
2580000000  -3.729009e+001  1.699385e+001
2590000000  -3.727309e+001  1.659739e+001
2600000000  -3.726846e+001  1.653811e+001
2610000000  -3.726738e+001  1.663465e+001
2620000000  -3.726046e+001  1.643478e+001
2630000000  -3.726474e+001  1.619772e+001
2640000000  -3.726635e+001  1.609929e+001
2650000000  -3.725354e+001  1.619868e+001
2660000000  -3.724549e+001  1.595948e+001
2670000000  -3.723690e+001  1.594652e+001
2680000000  -3.722847e+001  1.574350e+001
2690000000  -3.722290e+001  1.550852e+001
2700000000  -3.721101e+001  1.538005e+001
2710000000  -3.720536e+001  1.532279e+001
2720000000  -3.720950e+001  1.502324e+001
2730000000  -3.719595e+001  1.512614e+001
2740000000  -3.719849e+001  1.497472e+001
2750000000  -3.721967e+001  1.497642e+001
2760000000  -3.720780e+001  1.496202e+001
2770000000  -3.720379e+001  1.481283e+001
2780000000  -3.719976e+001  1.477808e+001
2790000000  -3.720117e+001  1.472391e+001
2800000000  -3.719941e+001  1.455260e+001
2810000000  -3.720771e+001  1.461100e+001
2820000000  -3.719008e+001  1.448091e+001
2830000000  -3.717835e+001  1.440475e+001
2840000000  -3.719971e+001  1.437425e+001
2850000000  -3.717418e+001  1.433415e+001
2860000000  -3.719234e+001  1.404659e+001
2870000000  -3.720653e+001  1.409747e+001
2880000000  -3.718504e+001  1.403360e+001
2890000000  -3.720729e+001  1.402218e+001
2900000000  -3.722382e+001  1.376929e+001
2910000000  -3.721979e+001  1.363196e+001
2920000000  -3.723761e+001  1.344610e+001
2930000000  -3.722709e+001  1.328082e+001
2940000000  -3.723269e+001  1.310610e+001
2950000000  -3.725277e+001  1.297127e+001
2960000000  -3.722309e+001  1.289128e+001
2970000000  -3.721081e+001  1.273503e+001
2980000000  -3.722456e+001  1.281779e+001
2990000000  -3.720619e+001  1.258233e+001
3000000000  -3.719336e+001  1.283729e+001
3010000000  -3.723227e+001  1.249328e+001
3020000000  -3.721220e+001  1.235935e+001
3030000000  -3.724174e+001  1.242141e+001
3040000000  -3.725882e+001  1.239880e+001
3050000000  -3.726583e+001  1.221924e+001
3060000000  -3.724489e+001  1.223455e+001
3070000000  -3.724362e+001  1.198936e+001
3080000000  -3.727723e+001  1.197949e+001
3090000000  -3.723778e+001  1.193003e+001
3100000000  -3.726490e+001  1.172751e+001
3110000000  -3.732042e+001  1.173018e+001
3120000000  -3.728349e+001  1.150837e+001
3130000000  -3.728643e+001  1.130380e+001
3140000000  -3.731301e+001  1.142030e+001
3150000000  -3.730756e+001  1.111717e+001
3160000000  -3.734171e+001  1.118761e+001
3170000000  -3.731406e+001  1.109170e+001
3180000000  -3.726577e+001  1.105446e+001
3190000000  -3.730428e+001  1.109630e+001
3200000000  -3.725837e+001  1.109491e+001
3210000000  -3.724917e+001  1.124000e+001
3220000000  -3.726336e+001  1.089280e+001
3230000000  -3.731431e+001  1.090951e+001
3240000000  -3.731393e+001  1.076408e+001
3250000000  -3.735041e+001  1.069949e+001
3260000000  -3.733763e+001  1.071969e+001
3270000000  -3.734751e+001  1.040048e+001
3280000000  -3.737735e+001  1.038690e+001
3290000000  -3.735242e+001  1.032568e+001
3300000000  -3.742638e+001  1.039746e+001
3310000000  -3.738559e+001  1.026125e+001
3320000000  -3.742421e+001  1.023681e+001
3330000000  -3.742756e+001  1.001349e+001
3340000000  -3.738928e+001  1.015387e+001
3350000000  -3.743289e+001  1.008669e+001
3360000000  -3.745726e+001  1.014367e+001
3370000000  -3.749091e+001  9.707033e+000
3380000000  -3.753334e+001  9.886651e+000
3390000000  -3.751702e+001  9.885115e+000
3400000000  -3.749738e+001  9.605042e+000
3410000000  -3.749997e+001  9.641347e+000
3420000000  -3.749281e+001  9.579644e+000
3430000000  -3.748882e+001  9.590297e+000
3440000000  -3.753773e+001  9.230155e+000
3450000000  -3.752384e+001  9.414590e+000
3460000000  -3.751945e+001  9.243961e+000
3470000000  -3.753583e+001  9.456894e+000
3480000000  -3.756600e+001  9.360180e+000
3490000000  -3.759398e+001  9.216462e+000
3500000000  -3.759673e+001  9.288849e+000
3510000000  -3.761753e+001  9.241383e+000
3520000000  -3.759499e+001  9.096477e+000
3530000000  -3.760039e+001  9.154008e+000
3540000000  -3.760746e+001  9.087921e+000
3550000000  -3.759357e+001  8.890549e+000
3560000000  -3.761420e+001  8.759650e+000
3570000000  -3.761038e+001  8.583055e+000
3580000000  -3.761348e+001  8.693528e+000
3590000000  -3.762234e+001  8.624490e+000
3600000000  -3.763709e+001  8.553141e+000
3610000000  -3.764728e+001  8.902349e+000
3620000000  -3.764406e+001  8.433032e+000
3630000000  -3.766278e+001  8.497761e+000
3640000000  -3.769405e+001  8.643151e+000
3650000000  -3.770567e+001  8.689663e+000
3660000000  -3.767478e+001  8.487620e+000
3670000000  -3.770584e+001  8.333777e+000
3680000000  -3.770484e+001  8.410788e+000
3690000000  -3.768473e+001  8.643063e+000
3700000000  -3.771114e+001  8.369692e+000
3710000000  -3.774699e+001  8.378938e+000
3720000000  -3.771172e+001  8.327642e+000
3730000000  -3.772918e+001  8.253193e+000
3740000000  -3.779610e+001  8.387022e+000
3750000000  -3.778909e+001  8.197272e+000
3760000000  -3.779640e+001  8.210307e+000
3770000000  -3.780999e+001  8.119035e+000
3780000000  -3.780379e+001  8.284429e+000
3790000000  -3.782137e+001  8.102196e+000
3800000000  -3.781057e+001  8.118093e+000
3810000000  -3.780274e+001  8.081693e+000
3820000000  -3.785284e+001  8.055963e+000
3830000000  -3.786714e+001  7.725960e+000
3840000000  -3.788390e+001  8.269814e+000
3850000000  -3.784042e+001  7.808412e+000
3860000000  -3.791125e+001  7.921903e+000
3870000000  -3.790816e+001  7.737063e+000
3880000000  -3.792879e+001  7.650191e+000
3890000000  -3.796350e+001  7.978690e+000
3900000000  -3.795064e+001  7.710545e+000
3910000000  -3.798390e+001  7.713147e+000
3920000000  -3.796030e+001  7.973073e+000
3930000000  -3.794637e+001  7.662436e+000
3940000000  -3.796580e+001  7.457868e+000
3950000000  -3.801616e+001  7.484228e+000
3960000000  -3.802951e+001  7.488600e+000
3970000000  -3.801828e+001  7.500736e+000
3980000000  -3.802502e+001  7.765209e+000
3990000000  -3.805334e+001  7.696274e+000
4000000000  -3.809647e+001  7.794024e+000
4010000000  -3.807518e+001  7.706670e+000
4020000000  -3.808508e+001  7.794302e+000
4030000000  -3.814810e+001  7.743537e+000
4040000000  -3.812172e+001  7.962498e+000
4050000000  -3.817639e+001  7.495519e+000
4060000000  -3.815998e+001  7.515741e+000
4070000000  -3.820609e+001  7.657861e+000
4080000000  -3.820918e+001  7.564494e+000
4090000000  -3.823253e+001  7.623050e+000
4100000000  -3.823963e+001  7.492927e+000
4110000000  -3.829514e+001  7.427521e+000
4120000000  -3.829367e+001  7.611517e+000
4130000000  -3.830191e+001  7.274420e+000
4140000000  -3.836584e+001  7.390102e+000
4150000000  -3.837564e+001  7.324288e+000
4160000000  -3.835434e+001  7.222070e+000
4170000000  -3.835969e+001  7.369058e+000
4180000000  -3.838455e+001  7.263984e+000
4190000000  -3.836285e+001  7.257934e+000
4200000000  -3.838911e+001  7.581550e+000
4210000000  -3.837999e+001  7.439826e+000
4220000000  -3.840441e+001  7.738847e+000
4230000000  -3.841605e+001  7.351852e+000
4240000000  -3.844329e+001  7.420806e+000
4250000000  -3.842847e+001  7.480398e+000
4260000000  -3.847686e+001  7.481638e+000
4270000000  -3.848600e+001  7.443332e+000
4280000000  -3.853205e+001  7.441403e+000
4290000000  -3.855284e+001  7.315006e+000
4300000000  -3.854618e+001  7.409735e+000
4310000000  -3.858121e+001  7.312922e+000
4320000000  -3.859097e+001  7.228508e+000
4330000000  -3.863659e+001  7.513564e+000
4340000000  -3.861404e+001  7.488770e+000
4350000000  -3.865376e+001  7.497436e+000
4360000000  -3.863269e+001  7.331750e+000
4370000000  -3.867734e+001  7.734491e+000
4380000000  -3.867376e+001  7.434785e+000
4390000000  -3.868082e+001  7.461406e+000
4400000000  -3.873483e+001  7.569724e+000
4410000000  -3.875258e+001  7.513247e+000
4420000000  -3.878094e+001  7.373289e+000
4430000000  -3.875102e+001  7.128525e+000
4440000000  -3.877648e+001  7.484448e+000
4450000000  -3.884046e+001  7.318692e+000
4460000000  -3.885717e+001  7.610320e+000
4470000000  -3.887736e+001  7.489140e+000
4480000000  -3.886417e+001  7.527506e+000
4490000000  -3.890222e+001  7.576276e+000
4500000000  -3.891084e+001  7.563419e+000
4510000000  -3.895042e+001  7.580791e+000
4520000000  -3.896818e+001  7.575793e+000
4530000000  -3.895789e+001  7.542078e+000
4540000000  -3.900906e+001  7.382607e+000
4550000000  -3.898194e+001  7.273901e+000
4560000000  -3.899918e+001  7.483591e+000
4570000000  -3.902142e+001  7.673059e+000
4580000000  -3.904941e+001  7.819750e+000
4590000000  -3.906962e+001  7.656839e+000
4600000000  -3.902802e+001  7.993737e+000
4610000000  -3.906787e+001  7.782059e+000
4620000000  -3.909855e+001  7.969357e+000
4630000000  -3.912606e+001  7.580047e+000
4640000000  -3.909752e+001  7.782952e+000
4650000000  -3.913413e+001  7.728620e+000
4660000000  -3.911803e+001  7.994954e+000
4670000000  -3.914125e+001  7.708275e+000
4680000000  -3.919732e+001  8.325310e+000
4690000000  -3.916705e+001  7.965087e+000
4700000000  -3.915706e+001  7.621521e+000
4710000000  -3.921864e+001  8.005727e+000
