!Created with skrf (http://scikit-rf.org).
# MHz S RI R 50.0 
!freq ReS11 ImS11 ReS21 ImS21 ReS12 ImS12 ReS22 ImS22
100.0 0.031120090887452895 0.011197793600621715 0.005152464590675722 -0.04035363372532146 -0.019901386469130814 -0.029385616342765673 0.018785779466885148 0.06324384904326705
105.9 0.03318551883205353 0.00912036599260583 0.0001815688480854861 -0.040646675723471595 -0.023258243848354124 -0.026681097194276908 0.021745828567129987 0.059854778449663935
111.8 0.028506164250861384 0.052319655257128186 -0.030340035837594183 -0.02544716350334001 -0.026468776844166576 -0.023300165704652712 0.024327635770635174 0.05719325058632617
117.7 0.030820506511408424 0.049501237357303454 -0.034665574450595205 -0.021347588182103684 -0.029143350764171332 -0.019878388826605704 0.025933996162917562 0.05388714199969102
123.6 0.03352862243044809 0.046185973811788565 -0.03614179152936549 -0.01671233626881923 -0.03204294521982753 -0.01628962391349313 0.02888724843922619 0.050470346603755115
129.5 0.03614656212433096 0.04266778107352323 -0.03871981981237492 -0.011473167279714466 -0.034092508021319155 -0.012836995083824711 0.03102915723852102 0.047780105069452294
135.4 0.03760161086192819 0.039163698563320096 -0.039367710015459176 -0.006480821872670352 -0.034403316235363135 -0.00711102332329404 0.03313512556880807 0.044967805676766406
141.3 0.03918440284036074 0.035227211171545154 -0.03921860672147148 -0.001414964250513584 -0.03580533419630233 -0.0036550250590950805 0.03516532790109157 0.040997916831499275
147.2 0.04083257939885661 0.03109995738184298 -0.04029624070652003 0.0030704014942176004 -0.03610979808010541 0.0025953591697807105 0.03656038450514457 0.037429728254721996
153.1 0.041216160183004245 0.02807050888899026 -0.03896241239224778 0.00927856860897615 -0.03522259370828816 0.006275582958716557 0.0380343021140093 0.034860826975955835
159.0 0.04208792062679776 0.02383922092959714 -0.03785162865866283 0.013949923934151953 -0.03300414869885108 0.011077816798892534 0.039435675711380874 0.03115517890376959
164.9 0.04293876151250567 0.019857671734218207 -0.03432598257965723 0.020465529750446493 -0.03143646777869575 0.015587274783394311 0.03950329160945563 0.027587939237324288
170.8 0.04272290656806066 0.015375129023107852 -0.03284788787836832 0.024128247249262467 -0.02998001449918033 0.019104152328737425 0.040095903610599254 0.024694500901174907
176.7 0.042716936954321334 0.011142880091274681 -0.02926793800839121 0.02817089958318404 -0.02679689141106093 0.022921538354586088 0.04102327144046514 0.02096912228446421
182.60000000000002 0.04244135152159381 0.007210321871200136 -0.026770300581983934 0.031793984116252415 -0.023884016304395368 0.02627530669595465 0.04027026787379707 0.017962804913630004
188.5 0.041112063752206475 0.004792479988688581 -0.021626747437553443 0.03431525026403776 -0.020659800996618825 0.029668421069269944 0.04064094611251282 0.013779835937401117
194.4 0.03971892558768537 0.0007659577791517927 -0.016565281144780092 0.037754996540454236 -0.016814764106704422 0.03226029786390219 0.040279134834423976 0.012075903235973838
200.3 0.037934351940333344 -0.0024995807891858355 -0.01080697673640348 0.03915070759438874 -0.012676550846596015 0.034141684587656033 0.04008982407494749 0.008965617867165524
206.2 0.03626972458278655 -0.005309996347873727 -0.006516650159812175 0.04016067356219644 -0.00823555456939939 0.03537728530411193 0.03856942967833537 0.004884258972809363
212.10000000000002 0.034186852287510006 -0.008411397361911006 -0.0013977607480257345 0.04020648536884348 -0.0037101296922938893 0.03555564159438961 0.03825596592361033 0.0033235894270969356
218.0 0.03170291257274304 -0.010536806514821037 0.0035253755013248903 0.04043651931848868 0.0005743167098044846 0.035656526875227 0.03724116286709989 -0.0004590507870653574
223.9 0.029176353551092767 -0.012657052648808249 0.008988387506262057 0.03956836560660404 0.005614636101777658 0.035779602889380716 0.03583814922916076 -0.0024122491766773832
229.8 0.025678637744576294 -0.014368481505430485 0.014545581815311358 0.038211283448553554 0.011232492177128036 0.034257610914872234 0.033375681800481664 -0.005429326027050675
235.70000000000002 0.02328051689569466 -0.016258398633190615 0.01821646286862281 0.036303123444677926 0.01506255634855784 0.03325130478236637 0.03076417756325364 -0.006030331459731789
241.60000000000002 0.021091517065905847 -0.0173091710569105 0.022678799861188745 0.03300921187684966 0.01843156769918271 0.031027788233994488 0.02993079553364582 -0.008793403006978838
247.5 0.016960079840407944 -0.01909530634947093 0.02803080048045709 0.030677879143119827 0.02253711299676733 0.02747873833637002 0.027559875444952746 -0.010465670715728298
253.4 0.013890272908427688 -0.018504498415057306 0.03154357150338545 0.02593847150038711 0.026311806617086958 0.02485584037899935 0.025142827971410476 -0.011366423778458323
259.3 0.01120304369001277 -0.018099756650082566 0.03406723811572353 0.021303162152540668 0.029210780516393697 0.02155497870845804 0.022152743867749597 -0.012607524588374669
265.20000000000005 0.007854467917466884 -0.017324809244818353 0.036522918663420396 0.017307013568913718 0.032332209274694074 0.01715437293180311 0.0189031120788535 -0.012484166226119099
271.1 0.006336344123167783 -0.017204572870077657 0.03976588821293697 0.011702637285312905 0.033774241116942626 0.013400091704155872 0.01751949074387594 -0.01286048199021213
277.0 0.0032443761248669364 -0.016691006432166446 0.03988301449897063 0.006533377044438437 0.03581279232083276 0.008687067437022385 0.016185551989406015 -0.012088984620241773
282.9 -0.0001631046717135994 -0.01585102196070213 0.04107403056916414 0.0012791960404189206 0.03589786996416884 0.004382778894678779 0.01219287382453519 -0.012815178813772877
288.8 -0.0018030718669250403 -0.011582404401460513 0.04163054441016215 -0.003837377579206209 0.036830557404718696 -4.783075156302454e-05 0.010967972000267353 -0.011266669410710285
294.70000000000005 -0.0032614125228832697 -0.012298259401069527 0.03953249127559131 -0.0089232733591927 0.0357419962716375 -0.004903272790111276 0.00846159274440017 -0.010392125760463045
300.6 -0.005442927531889079 -0.009870505271629209 0.03850601949832686 -0.014728002097411335 0.03466903944128207 -0.009268937758498477 0.00751359124967871 -0.009437360443091531
306.5 -0.006381307284888244 -0.007626220965197486 0.03692589177850647 -0.01896539992421838 0.033970356868088754 -0.013645040005577718 0.0050277366517204585 -0.00767351894967867
312.4 -0.007650585260571446 -0.004365802333334364 0.03450153283305281 -0.023710835835473527 0.031886577261062185 -0.018304636363561645 0.00438662088749855 -0.007200913070493149
318.3 -0.00809163968675935 -0.0025586746268737672 0.030699329854201922 -0.02765999289196358 0.028924637888021063 -0.022691862137173235 0.0036221343873804176 -0.004407835926649423
324.20000000000005 -0.007962542663113907 -0.0002839470237726243 0.02653636184179682 -0.031073952061757115 0.02538722156883805 -0.02612862270969776 0.0022025998446073974 -0.003023227121592131
330.1 -0.00700527710236295 0.002763287724991994 0.021948161282304413 -0.034636709180155954 0.022659978575998538 -0.02905120866475704 0.0025839070517557896 -0.0012310164839762915
336.0 -0.005685148596851962 0.004971508948676588 0.01701319314820506 -0.036752550261145794 0.017718004670171258 -0.03126375630653153 0.0018788939856153796 0.0008370736333650626
341.9 -0.007277394827303416 0.00871081000962502 0.012002634312253072 -0.0384010524451648 0.01385835881484063 -0.03384765810036504 0.0023918987104813933 0.0028385925325696303
347.8 -0.004739583255542528 0.0106751134611827 0.006066437598847796 -0.04017128909217877 0.010084692814234126 -0.035220775948708156 0.0034644633397358598 0.004218418667632765
353.70000000000005 -0.002606109481934693 0.012729114055557487 0.00211645880577619 -0.04125700871625291 0.005100463657007605 -0.03526164909737473 0.0032565280939181153 0.006044091061694568
359.6 -0.0017266259219067997 0.01353492255550443 -0.0033738837331666652 -0.041741713748770136 0.00015587828676049434 -0.03593499376608379 0.004711998359489716 0.009009813759508248
365.5 0.0004732388425784201 0.015658816004092968 -0.007945427452664475 -0.039944005705221476 -0.00507906643931066 -0.035762576374394145 0.0060356431836269 0.00922796328419544
371.40000000000003 0.003688129198616237 0.016978371113107696 -0.014462240549481888 -0.037730927728879204 -0.008926552934025198 -0.03441909953952577 0.00747077240777683 0.01112120246435527
377.3 0.005222393502764286 0.016770434636339517 -0.019377426113306905 -0.03602206980241002 -0.013108289256716022 -0.033591648132491644 0.01159745750990475 0.0123436683666131
383.20000000000005 0.008859575331076787 0.018224882654961833 -0.022160780818628555 -0.032852068580030154 -0.016686071314314124 -0.03122335117379405 0.011667165466208523 0.012921967319107592
389.1 0.011281409040116023 0.018777798055476493 -0.026460876233776853 -0.030239283808714174 -0.020693092672249263 -0.029045523614832734 0.014282674970777265 0.013428276317794295
395.0 0.014223706538014889 0.018327803174051322 -0.029664237646393934 -0.02658715065405324 -0.02482175096881684 -0.026463753928590145 0.017182427093790944 0.014059273364088902
400.90000000000003 0.018052028593359703 0.017020086498754756 -0.034041822738193894 -0.021444003321507414 -0.02786268679486891 -0.022524735336857327 0.019405108976382122 0.013683431468606542
406.8 0.01963534132543456 0.01658937981150257 -0.035922965971414506 -0.0172291811240017 -0.030334735250959508 -0.01828383270931252 0.021287224080394497 0.013522370432155057
412.70000000000005 0.023348550389100484 0.014485645094741654 -0.03845825894278341 -0.011910601105430735 -0.03323044629483474 -0.015259297469922871 0.024290815427231827 0.012139046759549512
418.6 0.025754617424132993 0.013205425452987373 -0.038945240390438195 -0.0071487686596336955 -0.03378891016630058 -0.008721234338300988 0.026385601722875515 0.011388357806463065
424.5 0.028811556529861636 0.010630019185756604 -0.04080482951392092 -0.0026623170679503433 -0.03528275709377178 -0.005323214690237628 0.02892827175253278 0.009221133769352316
430.40000000000003 0.030162671806361802 0.00905540748928646 -0.04125551775182305 0.0038006941740683755 -0.03602922600776069 -0.0007897657435417023 0.03122576277216327 0.007769678612397043
436.3 0.03183185672253886 0.007176715735978272 -0.03876059462199027 0.008117135494403344 -0.03505660427819238 0.00394353843722973 0.03298790202359275 0.00614886859831839
442.20000000000005 0.03418063166023903 0.003325088679514759 -0.0372093085662441 0.012904622955775465 -0.03404650657858496 0.008371223486899806 0.03509193100535781 0.0027905143872183143
448.1 0.03435299376183314 -1.0900008356530802e-05 -0.036598295555279686 0.019354497318952203 -0.03332960225577111 0.013387812699881783 0.03718929732962774 0.002373530773581004
454.0 0.035185931130559595 -0.003290033079297594 -0.03252901445119303 0.024204331308977527 -0.03091464464148262 0.016714993670199626 0.03754231348366584 -0.0016821065639123388
459.90000000000003 0.03589877619339389 -0.006572831105552745 -0.029703712323283674 0.02696741762284788 -0.02860730166002497 0.02009588882417577 0.038878439880037426 -0.005470177394377958
465.8 0.0370106400828852 -0.010248748068382644 -0.02521030325322768 0.02954320799973771 -0.026195624198158532 0.024530853633498734 0.03972269244214949 -0.008929925207798782
471.70000000000005 0.0370489955671945 -0.013893304698164445 -0.022112087084019374 0.034297838979618724 -0.022099486061947133 0.026994334381616837 0.03977649666138462 -0.012295147870323994
477.6 0.03623543888696737 -0.017205259239808937 -0.01739632555695435 0.036146413669902656 -0.019406862096844994 0.02982530890272769 0.040149926649869605 -0.015310671424358085
483.5 0.035020457760256314 -0.02014587932847044 -0.012014311913554294 0.03817697605441602 -0.015882400437989875 0.032307522157205365 0.039858849425845555 -0.01955953730498699
489.40000000000003 0.03358867572900647 -0.023691519146422143 -0.007133478962098293 0.039834806077691645 -0.010048265814358581 0.03391587933032927 0.03975001252063975 -0.022473111854670876
495.3 0.032048382490672614 -0.028039772635186137 -0.0023136279808046653 0.03964326302956606 -0.0058948074714440316 0.03500237823156717 0.03796591907864115 -0.026839284125707127
501.20000000000005 0.03084390873163933 -0.03151369493530943 0.0033098571817541628 0.04124554105599761 -0.002178743371061062 0.03507133608396309 0.03652069720829798 -0.030595776331260455
507.1 0.027605464423056628 -0.03451313924400355 0.008660533333052398 0.03920372276366262 0.003138213863537491 0.03510729408259157 0.03481914485147602 -0.032336092861377376
513.0 0.024503020283754767 -0.03824442780060994 0.012709890706432317 0.03757014722891893 0.0072080818529725865 0.0337953580347801 0.03237142154261914 -0.036711977977808105
518.9000000000001 0.021977202766224634 -0.03977735909110373 0.019198637902985996 0.0356766066005241 0.011599323371399163 0.03256873953550269 0.029926121617859933 -0.039369505160034055
524.8 0.018674383532629034 -0.04183503732672874 0.022721217813274786 0.03329287505983793 0.015810486900617274 0.03165492996032265 0.028243215592914594 -0.04295631114793961
530.7 0.01591522375883102 -0.0442000847009467 0.026151195686898866 0.02935633503526141 0.019179027668656763 0.029204221839898237 0.02527467570265153 -0.04578632344591765
536.6 0.012139046968732083 -0.045441782047703716 0.02981985264470239 0.026330918087045397 0.022745123495786723 0.025851761333145977 0.021853674167221775 -0.047923937020411055
542.5 0.007059482423453207 -0.04722031907386472 0.033574509664930724 0.022011135795869028 0.02671875054232612 0.02251981465943764 0.01836459323028209 -0.050798659006276
548.4000000000001 0.004651883755653879 -0.04814077422905392 0.03451136837069696 0.0172945420103932 0.02916951226452211 0.019609808073701527 0.014488401210263582 -0.052673740511722425
554.3 -0.00031590501441908334 -0.04817838136486605 0.03665715835818137 0.011636418344332454 0.031104942728016928 0.015295918625896854 0.010453262680962845 -0.05433817992136685
560.2 -0.0033662775737183406 -0.04791398366009943 0.03873801919794671 0.0076787857438836505 0.033390089871060714 0.011636505372909542 0.0065115083741420455 -0.05580763712838379
566.1 -0.008946406352082062 -0.04845771320414292 0.0394016514008828 0.0024682503124078495 0.034274408378309425 0.007291840831615961 0.0027489165748080333 -0.05590666118931503
572.0 -0.013383143671429516 -0.047992367530249436 0.039177037153521825 -0.0022413819143156026 0.034777994249585095 0.002471233846487773 -0.002490161516327469 -0.05704468258599046
577.9000000000001 -0.01646877501198739 -0.045863208741841126 0.03893815360924534 -0.007047582958936381 0.03497970440552184 -0.0016113276207211284 -0.007216824986308579 -0.05771523812454221
583.8 -0.02078599105794416 -0.04423678328829446 0.03784768397745228 -0.012052050668961537 0.03488379877775259 -0.006145359539143962 -0.011918683821372244 -0.05685949554310268
589.7 -0.023978349319670612 -0.04332492303075795 0.03473059632847537 -0.01632021170167882 0.033297093475750855 -0.010841458727734276 -0.01613391568858063 -0.05659284780747838
595.6 -0.027101999069371403 -0.03934023998847096 0.03245694481940427 -0.020733218320150754 0.031438458760332785 -0.015462992624399232 -0.021159748568020338 -0.05487498094403029
601.5 -0.03046096875090541 -0.037726707309289814 0.030254753523733635 -0.025175899293605315 0.0295964733303661 -0.018688817136915448 -0.024309909757405455 -0.054375740384325626
607.4000000000001 -0.032411328790417755 -0.035168596040464406 0.025454550988257788 -0.029139064793070466 0.027043073162549686 -0.022580040185808614 -0.028995837627076814 -0.0518002494306115
613.3000000000001 -0.0349372543586108 -0.031768818140595914 0.023016065248161893 -0.0317799540131766 0.023910928570433893 -0.025110401113663378 -0.0335194483684878 -0.049977806115203416
619.2 -0.03750313625997749 -0.02821890704394644 0.0182483866537777 -0.0341858360508321 0.020744038660432874 -0.02770444268908768 -0.03726595483998726 -0.047079351899878316
625.1 -0.039007834451821044 -0.025613651587375264 0.013197849966009229 -0.03579969019097305 0.016788006564115047 -0.030246042944536942 -0.0411199756733604 -0.0448615488127628
631.0 -0.04069336551735963 -0.021616810669223316 0.008342019034048628 -0.03772329347862385 0.012852401029597315 -0.032094265111412466 -0.04431900268064814 -0.040674376200001625
636.9 -0.04155757165882623 -0.018744000158373124 0.0045018187143299375 -0.03809648987887085 0.009749245569529797 -0.033665312084588714 -0.048067297224490366 -0.03815783208275685
642.8000000000001 -0.042966389118948595 -0.013643106015253826 -0.0017262182429978552 -0.03901151547568249 0.004570955039247823 -0.03501742911129105 -0.050278454792562315 -0.03421474392310536
648.7 -0.04257242630342895 -0.01085498537976473 -0.006297558608869775 -0.03747693827179274 0.0002931986395120215 -0.03507275751273474 -0.05229429892276308 -0.03018050659234377
654.6 -0.04222577171138679 -0.006655049388817263 -0.011242174506703692 -0.03699980555800049 -0.004501012386225761 -0.034817587118205956 -0.05405036687664294 -0.026387017329382128
660.5 -0.041659456683778774 -0.0037588649729590534 -0.016071707065248048 -0.03555974422954058 -0.009858629059024621 -0.033780503538669716 -0.0558932328158055 -0.02112721184583317
666.4000000000001 -0.04150738265651746 -0.0014684772260047784 -0.020613772532210275 -0.03416790805867739 -0.012885809461130177 -0.032911715623775054 -0.056846717118657845 -0.016875358249139272
672.3000000000001 -0.041694524195620176 0.0030558240943638453 -0.02438872224510622 -0.0297884516126518 -0.017105403684201326 -0.030068056321351663 -0.05835746969012267 -0.012790705982140712
678.2 -0.04001592580298558 0.0054430086426499455 -0.02858118079985932 -0.027631802589305355 -0.021283431761536683 -0.027087748847875872 -0.05885510573442988 -0.007440108737808421
684.1 -0.03876238043873027 0.00834109717784592 -0.0319414879559441 -0.022039986838062724 -0.025113248612179524 -0.024488864262369976 -0.05894999264068092 -0.0035574853846964817
690.0 -0.03649114334331665 0.010811599576309032 -0.03435728849774394 -0.01885947652106342 -0.0278561980446833 -0.02184181241203241 -0.05837560084447448 0.0001823328935938315
695.9000000000001 -0.034642881921916974 0.013995278888596434 -0.03577883022152423 -0.013741248573462825 -0.029109475820765854 -0.01764779504492409 -0.05702038683545016 0.004294233813879998
701.8000000000001 -0.03213394903577142 0.01582130597270552 -0.038013682026321376 -0.009920330544818404 -0.032294976364134954 -0.013735944074485168 -0.05656588189953937 0.008279787152162777
707.7 -0.030687778042465492 0.017573074333340807 -0.03855323460345419 -0.003921879165433753 -0.0338190285817784 -0.008915570005830398 -0.05434175342887586 0.012945366760351839
713.6 -0.028411601715892458 0.019316180187708955 -0.03936844029548897 0.0011734359537555958 -0.035613057513502897 -0.004860138936556825 -0.05397444264282749 0.017018717715447978
719.5 -0.026417397120373318 0.02023409206113525 -0.038963157121250244 0.0052634945732486105 -0.03462351978226059 -0.0004873057881552244 -0.05172653196845394 0.02056305754009456
725.4000000000001 -0.02385340171756673 0.022065112434136298 -0.03718387856375007 0.011171227695769267 -0.0343617252377878 0.0037194774667956474 -0.04989022753586016 0.0239146305590753
731.3000000000001 -0.02273131364556429 0.021738293813237677 -0.03510509795697832 0.016847932090531786 -0.03369637567666982 0.008221543183862721 -0.04682558288973147 0.026804238268593496
737.2 -0.019631740402839538 0.022557992054547032 -0.03320717203017443 0.020883541448302328 -0.03221031517268859 0.013040662540090767 -0.04409774831779086 0.030030046247288614
743.1 -0.017195980801078616 0.023045147874652356 -0.0304026155017378 0.024188269987043383 -0.030462854434660836 0.016892471486188852 -0.041452803832408576 0.03256339401676161
749.0 -0.015507651950134843 0.022369239216999993 -0.0263332334666586 0.02900092347372423 -0.028323420817082758 0.02066220273469975 -0.037996227086379 0.03445128766317068
