!Created with skrf (http://scikit-rf.org).
# MHz S RI R 50.0 
!freq ReS11 ImS11 ReS21 ImS21 ReS12 ImS12 ReS22 ImS22
100.0 0.0033037937925116017 0.00020368752793602547 0.03443220550552352 0.008048248348330423 0.027180922751569248 -0.01456420681052953 0.044099630889803725 0.02201000620233543
105.9 0.005883165027847754 0.0013778527576930241 0.034269933956897605 0.008708611958450718 0.027530155257333714 -0.01348856951135401 0.04320987860459734 0.026748091314374816
111.8 0.0008286204513944826 0.00401507451572732 0.03397573884939862 -0.0070161033251045155 0.03022879267801743 -0.006485824466049503 0.0019536969627904697 0.009513661778481107
117.7 0.005304520243253342 0.0009422020572749318 0.03471466181364165 -0.008005893429883707 0.0303019608217468 -0.005954266929570625 0.0049662232276888145 0.006680800781540972
123.6 -0.0019114391724796534 -0.0018173283502070296 0.03418611454606143 -0.006743732226006505 0.030694187188262733 -0.00699443324653135 -0.002900838105221856 0.0036175714185146023
129.5 0.0010732669587735079 -0.0007412831144181216 0.03455997078804323 -0.007169565658003946 0.031093388464550738 -0.006850289323493893 -0.000588196852640296 0.005339000203382156
135.4 -0.002654153684551945 0.0010000365467845408 0.03412332840622248 -0.007579813521126453 0.029658706223389977 -0.007841152443693204 -0.00424850926792694 0.007178965164991711
141.3 -0.002331317702035397 0.000499029536544647 0.03337689911862654 -0.0082833348378859 0.030691945434555484 -0.007061234280655035 -0.004189805962797514 0.0062860835222042204
147.2 -0.00243628400091047 0.003147439868164706 0.03407501898355326 -0.009606165917959616 0.030606398396545602 -0.00797175412201558 -0.005043803040259339 0.009290591597686243
153.1 -0.004449405165436299 0.005959752166746672 0.03372474631011909 -0.00955552331874237 0.030198186943768877 -0.008228892111320295 -0.007105250220196006 0.011958320499000865
159.0 0.005724542344740754 7.137059838283843e-06 0.03420156405209048 -0.00878758487400869 0.028831323870017793 -0.00940531651076771 0.0028993871961890847 0.006155053429252291
164.9 0.003746646174440149 0.002837507641676928 0.03297500935676367 -0.011768549181447792 0.02931462338526337 -0.008808823307657006 -0.0005905917412906959 0.008786871987953996
170.8 0.0007428554928727088 0.0011372621107126255 0.033930460970523595 -0.010843169274997488 0.02974282417546387 -0.008448124282504464 -0.003671703332032273 0.008317084477736839
176.7 0.001417280439997653 0.0038993909733504016 0.033559613315368005 -0.011221400977099468 0.029055977436564292 -0.010048181505365858 -0.003287939284919384 0.011184273444476905
182.60000000000002 0.0025886127589387475 0.002637992476212133 0.0347385398237203 -0.010314623684076712 0.029391851859592286 -0.009332035301143548 -0.003951939566065334 0.00956812225918034
188.5 -0.0024331818868849387 0.0018415479658891033 0.03311187295878272 -0.012551736091258484 0.029525473226712166 -0.01067190211618333 -0.007487550906490297 0.007783672827675033
194.4 -0.0001585986000408424 0.002428028492094053 0.03378551601676934 -0.012209620349690881 0.029788823737443904 -0.010564588573606037 -0.006557805462914442 0.0098796043968802
200.3 0.000176541948029888 -0.001351130707266635 0.03261417657936422 -0.013922577083259195 0.029688623391699698 -0.01107504693231073 -0.006588617953532549 0.006218081859755592
206.2 -0.0004963350534183152 -0.0021250554787245308 0.03339805399315796 -0.012172031039441323 0.02971253736063691 -0.010631342537149552 -0.006852223647080129 0.004235624167387574
212.10000000000002 0.002353317685834805 0.0021656896704725847 0.03324075671757023 -0.011148735737048958 0.029100936319222608 -0.010624182447365429 -0.00535060243951803 0.009614131549547246
218.0 0.000955415856552111 -0.0014691549155924546 0.03288781732668492 -0.013063805204442492 0.028735946432193845 -0.011556309616538649 -0.005611057808689407 0.0060051688410961805
223.9 -0.0013366410305258476 -0.0007949742431143651 0.03270289426967628 -0.013468817910331943 0.0292396103106598 -0.011403359710011126 -0.008866167683007556 0.006696621940571452
229.8 -6.397817438763186e-05 -0.0017553143469059185 0.032346268495137956 -0.015045145632161895 0.028306947866534832 -0.013048956920087583 -0.0071252246288624485 0.005581714312540336
235.70000000000002 -0.00408600427267098 -0.0014247666810403904 0.032576024879514984 -0.013456148220027397 0.029100513977247493 -0.012347832835161379 -0.01323760234913679 0.004569553800872905
241.60000000000002 0.004519156475245897 0.0004477360997353732 0.03205929436046051 -0.013646075683797125 0.028477198981649642 -0.012872815411716728 -0.004069710678865203 0.006659692312998285
247.5 0.005436491044689626 -0.0012202549851996394 0.03293685987895568 -0.014907007509426142 0.027507205322913446 -0.013530881023626807 -0.004295929082692683 0.005443643055988057
253.4 0.004581146129843754 -0.002534835169715521 0.032084027870400045 -0.01514137254711182 0.027785030292366224 -0.014079042185540234 -0.004896598857311848 0.003980230872533103
259.3 0.0027050354917498663 -0.000783654264116573 0.031165950407307384 -0.015703876752244716 0.028381050426993553 -0.013143925877417731 -0.00621190192890599 0.004959290610745454
265.20000000000005 0.0031789995835260036 -0.0015816270652357755 0.031838738286580244 -0.014667384269763627 0.027704767227997265 -0.014780013500239277 -0.005920818096608071 0.0033822267729701006
271.1 0.0011473288051709824 0.0005145457796872163 0.031535914833634375 -0.017173756018841833 0.02827277466973114 -0.013554052236680292 -0.00813644814776783 0.00504414545616442
277.0 0.00222944759964014 0.0017056761671204032 0.03067816223757871 -0.016983351519348468 0.02804471968323575 -0.014842850840667677 -0.008861995712784733 0.0057609833235045
282.9 0.008387017667930671 0.00012824763529520772 0.030624936219033658 -0.01820695168335951 0.027654972604866143 -0.014108717415210054 -0.0020296159651041652 0.00349187553387861
288.8 0.001110889224419753 0.0008226669959017829 0.03152609964658757 -0.017755168258940506 0.027975292865862315 -0.01474298198221488 -0.009054758324775466 0.005015009767919683
294.70000000000005 0.00768362596152561 0.001258998962112041 0.02997676036600807 -0.017964858278569716 0.027037850294467185 -0.015160228058438415 -0.0023913561647543836 0.002834222641906848
300.6 0.004173722442065547 -0.0012645545897251313 0.03076150128524745 -0.017776532088609794 0.026352813930255868 -0.015965570032125356 -0.006800356312368417 0.000493231576224902
306.5 0.006818938722522634 0.004335855316039319 0.03082554834736941 -0.018261196197343222 0.027207480003185402 -0.015485335441186557 -0.002941404235379376 0.005311131888902766
312.4 0.004526849918562061 0.0011123287357396163 0.030703275387302834 -0.01891467147512497 0.026784129568748236 -0.01670110746965866 -0.005886571491156457 0.0031897657693758194
318.3 0.008828032035724622 -0.004050244538614646 0.0308844129924745 -0.017781379892203245 0.02640951727916704 -0.01720676423435715 -0.0013590813507973307 -0.004023347899020286
324.20000000000005 0.004962077843942367 0.0016619321952792755 0.030202227834527976 -0.018282758218428032 0.026360957880763636 -0.016612000965337517 -0.004090867443389838 0.001597886427429869
330.1 0.007053401540110613 -0.002452842373742697 0.029908795337047763 -0.019042536185137522 0.027124681480086826 -0.016172780210393332 -0.0018949601821386275 -0.002309435054681506
336.0 0.001558844421849231 -0.001004167280042078 0.028887595755621116 -0.0195906630764883 0.02564462505695747 -0.016888040664252247 -0.0058764752252842035 -0.0008747707695328555
341.9 0.00784254425081871 -0.0020624937772688954 0.02873719967908114 -0.01967281132726447 0.025769026137784347 -0.017695062888887208 -0.001740647362573305 -0.00340412359554759
347.8 0.0018473005461386923 -0.001145506145681084 0.028519350298053987 -0.02044286410094085 0.026016388121161433 -0.017447224853476037 -0.00711564406001092 -0.0019993757969216115
353.70000000000005 0.00823982669830637 -0.0015783086288977035 0.029100380706152992 -0.02062343844051196 0.025508683233739834 -0.016626194287061087 0.0005955284757346006 -0.0017771583723712849
359.6 0.008381449019943515 -0.005097005637542996 0.029318026076857465 -0.021299870285561743 0.02536224209820089 -0.017450920913022357 0.00213185295409096 -0.007628641410152422
365.5 0.006754180550361477 -0.0021371592054340804 0.028917566481731848 -0.020004114769807537 0.024816759203151312 -0.018443405528047345 -0.0003606828198611869 -0.0038563336947855203
371.40000000000003 0.00470344305722166 0.0018382119850564383 0.02697828544068007 -0.022352374630709316 0.024045609126251914 -0.018613006058347165 -0.0011587833823570083 0.0005831439856883806
377.3 0.0012779109433647808 -0.0034103920723488534 0.02762176615415238 -0.022185793797292828 0.024987303793274775 -0.018149593405389308 -0.0037398765159259903 -0.007842996551827535
383.20000000000005 0.0018269515929543727 -0.003773538331559163 0.02793757519130509 -0.020158910643054202 0.02460081011634602 -0.01771738243534938 -0.0029544478823014817 -0.005741182551524172
389.1 0.0027693483610553285 4.5531285176289865e-05 0.02787702111326172 -0.021028973144289857 0.024312054771875816 -0.01866642986667112 -0.0016914233412295052 -0.0027931568262697794
395.0 0.0037226195981993407 -0.005786250347059133 0.02809730967615386 -0.020269216899880673 0.024377482555181657 -0.019467936820887842 0.00041752880484948845 -0.008794827235943055
400.90000000000003 0.0026785782764814033 -0.0016633492458883283 0.027213927374401585 -0.022016473818542576 0.024143665779388944 -0.01909022468723288 0.00015705580638925224 -0.003484742993944805
406.8 0.0011699755613033475 -0.0029653138570221098 0.026950289841040177 -0.0219368954782479 0.02269341643302898 -0.02042280084121955 -0.0007856392603937107 -0.005225903904011947
412.70000000000005 0.004018144111696344 -0.006276227357878831 0.026807443869933494 -0.02276879949312615 0.024254344205434278 -0.020214545244435014 0.002636006264449807 -0.007952418733370702
418.6 0.0006916977645158618 -0.006036356293283257 0.025875711032561904 -0.022999352333078562 0.022180947328916314 -0.020344738673569222 -0.00026446135144110974 -0.007387679761744265
424.5 -0.0006527083113400798 0.0031302006407532387 0.026831888846882253 -0.023527079158501024 0.022307341518811728 -0.021212418694624764 -0.0014512026186967578 0.0022286308987601177
430.40000000000003 0.001832753168942864 0.003685612456767463 0.027729584691202996 -0.023745423230500343 0.023213929852047257 -0.02101664707602636 0.0018210868341425564 0.002258656155338387
436.3 0.0030218869373721258 0.0032192906314689896 0.025910297851930216 -0.023452590695817815 0.0225726537408376 -0.020758941484161204 0.0034033547895128283 0.0019371561304363373
442.20000000000005 0.0006101762120404178 -0.003048495486214424 0.02578597738894437 -0.023330885913853697 0.022112779546831662 -0.021036310534350244 0.001096699744514583 -0.00381821888036842
448.1 -0.000407771554045818 -0.003593296587485321 0.025393099354090398 -0.026426253857107417 0.022271313942234017 -0.021936421634608957 0.0026445392289683655 -0.0025337822107050325
454.0 0.001728774307919779 -0.002855427348146876 0.024037393710407685 -0.02673168412088944 0.021215644944678806 -0.022034997318209633 0.004032540113765217 -0.0019016689722011443
459.90000000000003 -0.001164404015685022 -0.0015089500840183147 0.02390685761956492 -0.026278891102875894 0.021524264350718855 -0.021628046641392586 0.0015180298273449802 -0.0008036190419406885
465.8 0.003531630438936197 -0.003523575842797519 0.023669238826067383 -0.025077849618422358 0.021310568256310253 -0.02300473896861744 0.005937630217815808 -0.0024430686358464545
471.70000000000005 0.0012410110631425587 -0.005097835218265445 0.02499298337878023 -0.026279105390408314 0.02051613536908237 -0.022514117585396648 0.0033983680643074263 -0.0033814180749488303
477.6 0.0012384243890060718 -0.0016750667967074047 0.024436668361460585 -0.026035319474643076 0.02164057816542211 -0.02239695313103529 0.00411961247653831 0.0008254885861396976
483.5 -0.0028317473058401305 -0.0031137440260224727 0.023376672527586545 -0.026695168728114633 0.02146167145358088 -0.02319759007845785 0.0008826379095869018 -0.0010282932966899888
489.40000000000003 0.003785550944539937 -0.002357241818888483 0.023369476407335357 -0.02735024989191288 0.01968863893166906 -0.02386332243732578 0.00800110198409935 0.0011636450755760786
495.3 0.0033979781264466716 -0.00484488414456519 0.022596651173770094 -0.02723375847500601 0.020030173704329093 -0.02376367079702384 0.006954889544731681 -0.0009173119043151476
501.20000000000005 0.007013787921546879 -0.005001443232570918 0.022970706747988408 -0.028869047076274846 0.019731057830382964 -0.023581150152817216 0.010157650615005679 -0.0010415524021583447
507.1 0.0010761127089363007 -0.004486615982812273 0.022885421110560144 -0.027533388825308893 0.019723367441398652 -0.023803987172337646 0.003877312179769798 0.0015298065924988955
513.0 0.005888517285344277 -0.0065490941261697865 0.022149782969254492 -0.027784111304327112 0.01916122600065669 -0.023509170138213634 0.008757869429558455 -0.00013474466118155458
518.9000000000001 0.002550022312724279 -0.003154994769474791 0.021605895409674815 -0.029050552192334312 0.018500542677254154 -0.02410320013445237 0.005550290295088007 0.0031791930049320308
524.8 0.004946407561398961 -0.002705981542952175 0.022389801000934895 -0.028205590090032793 0.019617594650129133 -0.024045137401699168 0.00874286447629742 0.00488965434294164
530.7 0.004345468912427599 -0.0027874805859677003 0.02144338911095409 -0.02814167554206323 0.01926809389205242 -0.024028655900366017 0.0075580240618779455 0.004920936686551479
536.6 0.0063196909104931386 -0.005774481771721637 0.021546755275061467 -0.028656763982118087 0.01814891727286246 -0.02436348960310662 0.009609243766593155 0.002409942645572448
542.5 0.007079844465923681 -0.0007433862572408489 0.02104287109097884 -0.0293383969972922 0.017010226857201848 -0.025524126583054956 0.010599880431320718 0.009078200368919024
548.4000000000001 0.009060348476262714 -0.010039870169488235 0.020946199239298358 -0.02769408819568264 0.01800861956560402 -0.025129932249230852 0.011804331011618124 -0.0009171707541294628
554.3 0.0018088952946669777 -0.008764441311856566 0.01875913933818561 -0.029116650954227694 0.01690148374581318 -0.02530098638642379 0.005086780599014692 0.0016538743854590378
560.2 0.0041211731974255565 -0.002286632623402089 0.02062590141823965 -0.02900746572540665 0.01678386676433632 -0.026182438057012588 0.007942010692518073 0.008177933467743344
566.1 0.008325062250807948 -0.007684826878004505 0.018786313132417378 -0.030198858615622753 0.01787578517556343 -0.025068703175831625 0.009806496344563874 0.004464774623513864
572.0 0.0072596681541298586 -0.005740522695678801 0.018869917085575838 -0.03003404980940649 0.01643882364412232 -0.02593339140280591 0.008498086792550236 0.006602993400228862
577.9000000000001 0.007273488339007976 -0.004501761392546482 0.01926055600441013 -0.02997389567158072 0.016715476155084317 -0.025669570017721664 0.01001770555143139 0.00850797650379731
583.8 0.007998533855264734 -0.005420723124738878 0.019508286180250564 -0.029934132022849946 0.016821895676923382 -0.025964030317174515 0.009869536185212123 0.007992857584931469
589.7 0.00595682147162298 -0.0035954236109570765 0.019087595395947232 -0.028858861385311924 0.015105334934542995 -0.026743700419527987 0.0073975655986113 0.009911827603858314
595.6 0.006157024880268947 0.00048733288759980533 0.017793518948578484 -0.029837550694217403 0.014842650308972714 -0.027184767910049784 0.008379623820963899 0.014936806643424533
601.5 0.0019996408753492284 -0.004981373523969989 0.017767450087441322 -0.03053420402711722 0.014878862422495608 -0.02722460507789938 0.0028328569348442263 0.010597082575503528
607.4000000000001 0.004189573657107944 -0.0005600875964979974 0.016725615775367082 -0.030536960533222263 0.01460599648130431 -0.027424640232039648 0.005330737138423395 0.014348630405305613
613.3000000000001 0.004059315691585202 -0.0035957814390734284 0.017159030421374337 -0.030680039156328137 0.01449902504131505 -0.026796242185463327 0.006084346350701403 0.012299103334148654
619.2 0.004716877198206315 -0.0038374420165061466 0.01720795822372689 -0.030108986757388965 0.014444604714993307 -0.026865272610056338 0.005582502885825496 0.012712562158387123
625.1 0.004047852705590518 -0.003976664317380088 0.015527794553503524 -0.030447958287942164 0.013561587269480526 -0.027239496466543573 0.0044947481918062105 0.013031695427615168
631.0 0.007522814968480267 -0.0020307635810369127 0.015262722451403275 -0.031051274270255516 0.013590202180284831 -0.027122615842373705 0.007690052540152843 0.014927930629724901
636.9 0.0029874894615632935 -0.0031830442607908025 0.016562123751262217 -0.029993198753008515 0.014835050376665099 -0.026909204012933896 0.00318044070901604 0.01472996129313976
642.8000000000001 0.002861590637416046 0.001294973896321842 0.014010382770148988 -0.03199358943345691 0.013621862998139032 -0.02796359673901284 0.0013455632449349427 0.02030761071187185
648.7 0.0023487984195205984 -0.005647261845286715 0.01451895666496764 -0.030480967075314218 0.012991585447272292 -0.02776734227748822 0.00099156210997122 0.013186975790122011
654.6 0.007485067263159652 -0.004033173629461246 0.014555756860931501 -0.031046832284774253 0.013076556251105688 -0.027782776844041894 0.0050749584501439595 0.015916431831477718
660.5 0.0031482746209597124 -0.0026234567498661645 0.013681055519632685 -0.031776915229827445 0.01184218988546242 -0.028316700193812775 0.0012725737367076132 0.01678353835568487
666.4000000000001 0.002292154547936271 -0.004356667088916814 0.013949425687471685 -0.03228851161410267 0.012907418910053713 -0.02791914274252353 -0.0005252574432484267 0.01428644989626703
672.3000000000001 0.002027729892854914 -0.00742148514344096 0.01332412330149104 -0.0312040673607963 0.011709924360300529 -0.027695214445938202 -0.0018707724808912712 0.012144573839908673
678.2 0.0023822551876676477 -0.01112257265308319 0.013946155434992648 -0.03209739817248801 0.010989398095084138 -0.027849992414905326 -0.0016901297319222722 0.008273848293798269
684.1 0.006553693179855199 -0.001184323406591245 0.01299105578035718 -0.031534306602715854 0.010503161782113139 -0.028472314110260914 0.001558106745669607 0.018469734101842078
690.0 0.005677471680501004 -0.006353367170455807 0.012988629261649844 -0.03182308082841591 0.011539041128943892 -0.02846406929570792 5.568394163091306e-05 0.01390957662033722
695.9000000000001 0.009493622449007174 -0.0008037926457409832 0.012214983064658536 -0.03126398470444079 0.010838293201817015 -0.027408314393850275 0.0024222369153067197 0.01906183925389957
701.8000000000001 0.00578968185316981 -0.006416447625075251 0.012017644309840614 -0.032329916143311536 0.011096916715514252 -0.028323453489149084 -0.001565427696680891 0.014354299382849023
707.7 0.005483691591205079 -0.006079881090038424 0.011025662333057415 -0.03205646747955447 0.009599105863204296 -0.028752049767859392 -0.0021438060561218076 0.013206760634163725
713.6 0.006465023545283994 -0.005004902410229874 0.011468857345728589 -0.03241324088221518 0.009764010166512169 -0.02957300902518704 -0.0028422022136174873 0.015102218735956394
719.5 0.006308180863150596 -0.006641417978279827 0.011363249831089167 -0.03247512154807848 0.00944455063937237 -0.028403354677405627 -0.0023296623636843367 0.013388232510494882
725.4000000000001 0.006090209233551218 -0.008196772710109011 0.011060846441712171 -0.032121109830648524 0.010053581118435625 -0.02812781898753138 -0.004474053565903944 0.011732280212845815
731.3000000000001 0.0043763076271395385 -0.0024416501010761783 0.010640787704167957 -0.032333575833853226 0.009200509221153301 -0.028475642508285902 -0.005615495651680008 0.016151938904510364
737.2 0.008898008149013308 -0.005670590688099237 0.009611851950973452 -0.03289275585107704 0.00880293107324634 -0.028657524238021318 -0.001768859258876718 0.013596677045781646
