!Created with skrf (http://scikit-rf.org).
# MHz S RI R 50.0 
!freq ReS11 ImS11 ReS21 ImS21 ReS12 ImS12 ReS22 ImS22
100.0 0.003313830380136709 0.0002205632792600288 0.03260530812481954 0.013216259230809988 0.028963150417491496 -0.010147765981975193 0.04410629545696648 0.022025639922987252
105.9 0.005888658152741673 0.0014343775583814668 0.03290880387498855 0.01284172997903493 0.028968081382412237 -0.010059363602702934 0.043212753450159694 0.02680140189678881
111.8 0.0008255632766384663 0.0040029660275781856 0.033910572553664385 -0.006739680994314308 0.030176836955397 -0.006239147776598068 0.001945850357860451 0.009497358480275034
117.7 0.005308998358820103 0.000966227355932468 0.034763342247200006 -0.007858234881128008 0.03034361820056557 -0.0058356631301077705 0.004976314682735766 0.0067063952428668494
123.6 -0.0018984927011435385 -0.0018163827272938955 0.03432763887583771 -0.006204359683882773 0.030846020639329636 -0.0065160853914116 -0.0028905835781518102 0.0036308304891503095
129.5 0.0010792103974916402 -0.0007416325445303337 0.03463246907844527 -0.0066122278544256 0.031170988128430777 -0.006347906006945868 -0.0005873223621995407 0.005350452897942503
135.4 -0.0026480031751329137 0.001000129495662453 0.03416216546744566 -0.006899397007725399 0.02972186326854398 -0.007246238180838844 -0.00424804578287837 0.007184079474007704
141.3 -0.002314100905120857 0.0005156727276103952 0.03303356842636178 -0.007998993638978992 0.03038892087333132 -0.006810207412472796 -0.0041737394775542514 0.006312426019081815
147.2 -0.0024484562338979083 0.0031132282897992822 0.03407736043283189 -0.009733671788991424 0.030588520306451948 -0.008090078582885758 -0.005047074457883035 0.009273055121453745
153.1 -0.004467427887085254 0.005928582858249395 0.03414384916628489 -0.008077645817442802 0.030545801569510544 -0.006907313273019724 -0.007120458070880652 0.011935340236450435
159.0 0.00572877087979232 2.964869882301512e-06 0.03431884755212532 -0.007848705855273051 0.028990661192230323 -0.008608785200766063 0.0029072370701092314 0.006163094468199692
164.9 0.0037331058392002666 0.0028226610529173283 0.033172843157996804 -0.010782516797760655 0.029438805070907473 -0.007938425166985617 -0.0005972666452794829 0.008782634322976128
170.8 0.0007466180483651257 0.0011400511741843887 0.033515916724219 -0.011918293624164265 0.02942355244649278 -0.009401728599632354 -0.0036587100829643306 0.008329659365075829
176.7 0.0014177962869990296 0.003903247524433659 0.033414741901500816 -0.011411305104824852 0.02892749586818535 -0.010211807878604057 -0.003286105252568572 0.011187074692945349
182.60000000000002 0.002577812592954589 0.002617614209153835 0.03474538692626219 -0.010188584616450913 0.02939551272328368 -0.009232868478507043 -0.003968088491377675 0.009553881947503805
188.5 -0.0024352503227228436 0.0018348249425742245 0.033217618345510055 -0.011781079143616043 0.029607899621409202 -0.009988115943899636 -0.007487992159841182 0.007776009396411371
194.4 -0.00016321369421527532 0.002437832832066347 0.03340974306943029 -0.012893977922173432 0.02946559520500859 -0.011170372025750979 -0.006558161280382343 0.009893107084719405
200.3 0.0001912281621608126 -0.0013437734152324863 0.03307567096103215 -0.012704154677645577 0.030066156519182104 -0.009961185082401541 -0.006579263375509879 0.006233627894377007
206.2 -0.0005092910393031648 -0.002143087609959388 0.032725160224639546 -0.012789801442887827 0.029116143575125833 -0.011188601810969478 -0.006866534931174155 0.004226770823322942
212.10000000000002 0.0023374729498645795 0.0021423647105305596 0.032682814598831 -0.012058446834081131 0.028568539908402614 -0.011418360514585996 -0.005360147045801763 0.009606264568358013
218.0 0.0009524770141750407 -0.0014792150804095357 0.03245316216129234 -0.013604238628617905 0.028353279919449522 -0.01202921567297525 -0.005614177002289112 0.005996722215097301
223.9 -0.0013207829162414683 -0.0007938597315718968 0.032517055404587145 -0.013968829003698332 0.029101074299896876 -0.011850183717295643 -0.00885342437097007 0.006706829741861027
229.8 -4.596068541075277e-05 -0.0017525977340168948 0.032176317766016295 -0.014955907243966376 0.028164659036858698 -0.012954347573387924 -0.007118574307991111 0.0055836383495768286
235.70000000000002 -0.004096324753074173 -0.0014450659857207326 0.0324556023174403 -0.0133093000040352 0.028979764567204105 -0.012224427577327767 -0.013237202699558182 0.004552056828231968
241.60000000000002 0.004527947433830138 0.00043848547071982186 0.03220266196647621 -0.01288057785132733 0.02862862349317152 -0.012194503620564413 -0.004063241672605728 0.006658125317664528
247.5 0.005436334092251452 -0.0012411757265497804 0.0330468410942607 -0.014375339325026186 0.02762120517893127 -0.013091212680664415 -0.0043044206567984505 0.005427428143221687
253.4 0.004552243086150709 -0.0025805001424903068 0.03220480561948857 -0.014798841938782 0.027884465478928342 -0.013806992822336064 -0.004930840417202286 0.003942505490658339
259.3 0.00267764335240025 -0.0008161026536527036 0.03137091978343514 -0.015395103535061532 0.028550623673630496 -0.012871987897294445 -0.006242757816374655 0.0049299207282336496
265.20000000000005 0.003184113374059832 -0.0015842807570807485 0.031954481686600124 -0.014190964569893421 0.027842293460826128 -0.014355179845487651 -0.005928504370864258 0.0033847277740196545
271.1 0.0011580756105701749 0.0005084896793710192 0.031056585350774067 -0.017721363509529613 0.027882827119554324 -0.014058732272420759 -0.008124194836412526 0.005040721399764702
277.0 0.002235845296222437 0.0016970767926556675 0.030601784975342546 -0.016812722928503967 0.027995460005062943 -0.014693305341072212 -0.008866915350568154 0.005767059359708282
282.9 0.008401548700855176 0.00013107123185933565 0.030997104207046832 -0.01734231164062019 0.0279415732849331 -0.01334412306858237 -0.0020114671704533956 0.003503479243015775
288.8 0.0010986256645932023 0.0008046943123811733 0.0321311047216669 -0.01659354463716383 0.02847900810575757 -0.013724796747595818 -0.009075968779223021 0.005005699432717571
294.70000000000005 0.007686138501932153 0.0012667053297864205 0.030450340517652608 -0.017016402893517624 0.027434915048122316 -0.014300763742580458 -0.0023960249286725348 0.00283896276365889
300.6 0.004169208091059571 -0.0012680595240281414 0.031171336818237187 -0.016847737040293513 0.026733897255725992 -0.015171084402612556 -0.006813239755340592 0.0004945967929985364
306.5 0.006829319592219116 0.004346619557437704 0.030907020742385306 -0.018231746967493093 0.027289716417878487 -0.015454541953598052 -0.0029397054010801677 0.005327296503322586
312.4 0.004543354566743614 0.0011262781089587633 0.031186210119167702 -0.018082581772535328 0.027230428703920548 -0.015962522112268188 -0.005882704972275152 0.0032129350798297115
318.3 0.00882819181678327 -0.00404080751073784 0.03093527981553096 -0.017632469901702235 0.02646399079643962 -0.017076616689783376 -0.0013608593320454888 -0.004012036635008565
324.20000000000005 0.004951519394301732 0.001655123974427775 0.030049702837383514 -0.01858986337467123 0.026226544473527305 -0.01689730166888486 -0.004107899734522699 0.001605377493326188
330.1 0.0070675094924895696 -0.002438013418621594 0.029408234617171118 -0.01984917740497715 0.026704379278978035 -0.016903929332863908 -0.0018806617096435215 -0.00229007039821711
336.0 0.0015812351125614505 -0.0009914521522125163 0.028517818781385793 -0.020443089271430577 0.02535054969636277 -0.017643143261141546 -0.005856068123137385 -0.0008503248742423651
341.9 0.007789970224618931 -0.0021008633955166985 0.029716313971596835 -0.017808005858813158 0.026637639756065777 -0.016081734778456962 -0.0018008189973632814 -0.0034302226486794263
347.8 0.0018523002902936499 -0.0011360800600024887 0.028839471187505815 -0.020189248160005974 0.02629593231141611 -0.017217100725981472 -0.007109167323895371 -0.0019847159953962487
353.70000000000005 0.008239510342309716 -0.0015742485446491262 0.029132035641030424 -0.020655468360098832 0.025537626214798357 -0.016658128146644784 0.0005942141260857654 -0.0017663711818806812
359.6 0.0083643608666883 -0.005105122887637022 0.029261151778915973 -0.021114942980649202 0.02531812582813896 -0.017306683571565663 0.0021073399286878564 -0.007633329663325292
365.5 0.006769589639507263 -0.0021150119657295644 0.02854374009052818 -0.020671852529725483 0.024459817575008036 -0.01900717068968758 -0.0003484263602007712 -0.003842786533967746
371.40000000000003 0.0047007009462580246 0.001856589974568959 0.027043726568282186 -0.02220973294819555 0.02409600992720592 -0.01847634998081178 -0.0011605746962116516 0.000592226342189724
377.3 0.0012676494248902296 -0.003400221036999649 0.027224908049398425 -0.02278667100462654 0.024665966834491338 -0.01868558079163843 -0.0037503750086073915 -0.007837352886500537
383.20000000000005 0.0018250331163720134 -0.0037616079935410707 0.027625169986687126 -0.020509206762947447 0.024322817237194226 -0.018023367355190025 -0.002955139006718741 -0.005731398306110912
389.1 0.0027776369020189743 6.436862125835217e-05 0.02854307517533143 -0.019914800878963752 0.024901603618074458 -0.017692467623499734 -0.0016796633642483314 -0.0027722577978759044
395.0 0.0037346153441475114 -0.0057733940520584 0.027668447187565656 -0.0206451918376416 0.023979653513738677 -0.019778130837168603 0.0004222609847264481 -0.008782560378807588
400.90000000000003 0.002689328470153828 -0.001645373304828978 0.026589579372533183 -0.022951984241601716 0.023600059412707926 -0.01990022604237849 0.00016366839347319124 -0.003481960217071065
406.8 0.0011748355914932656 -0.002955736265654044 0.026714503714068118 -0.021870646483697454 0.022489248240411736 -0.020339531230331942 -0.0007841971668899288 -0.005228445612272422
412.70000000000005 0.003992209268428542 -0.006268640741310312 0.026528298360182896 -0.02266123584686429 0.024003739242775723 -0.020106644785869696 0.0026128953722767533 -0.00795464610461962
418.6 0.0006937392587165669 -0.006019708686272193 0.02587169944602328 -0.022758484719162458 0.02217762721570312 -0.020126246979186694 -0.0002613174250106458 -0.007380246644863089
424.5 -0.0006539798308342768 0.003146735264872223 0.027719271171273294 -0.022231992093549608 0.023131365427004464 -0.0201112198635009 -0.0014599334571313795 0.0022289684140043794
430.40000000000003 0.0018068176396255468 0.003699607573375202 0.027174095184077124 -0.023924913246540464 0.022762603934110913 -0.0211305298655505 0.0017935025381688172 0.0022518427713763617
436.3 0.0030494340018066305 0.003238082275926827 0.026241709747816044 -0.022794992487256145 0.022867301566116216 -0.020174240207214436 0.00342722867495731 0.001944698509303845
442.20000000000005 0.0006034299743650029 -0.003036128784411423 0.025157861298498157 -0.023593871872317408 0.021554298260798025 -0.021243217323211275 0.0010929368022914024 -0.003813416881429418
448.1 -0.00039629595841736567 -0.003586347467225734 0.024845284521271077 -0.026458078781973305 0.021807279496411997 -0.021963118419437783 0.002650121361623926 -0.002541614870855276
454.0 0.001739830423871474 -0.002842821010034271 0.024976885518342522 -0.025453970510964683 0.021979115391845168 -0.02091102634232062 0.004039996479491149 -0.0019005525816529112
459.90000000000003 -0.0011611969560674556 -0.00149914910294308 0.02457196339364962 -0.02515728139643576 0.022060585363872794 -0.020630728458886114 0.001514478464829902 -0.0008026452898307505
465.8 0.0035223809238812626 -0.0035268977810475645 0.022847587395640925 -0.0253496981385586 0.020572576969764573 -0.023236372343468398 0.005923355710516543 -0.002456426530098553
471.70000000000005 0.0012027896978726853 -0.005105733553922485 0.025157053092934832 -0.025488998231992528 0.020677129444592476 -0.021838187267572317 0.003359431369674776 -0.0034000926653809855
477.6 0.0012158738547274669 -0.0016749722088719135 0.024531988825117874 -0.025478890364793803 0.021738328051591656 -0.02188760178537519 0.0040936382624628415 0.0008099642047522909
483.5 -0.0028090376748527894 -0.003119169364993818 0.024079441816714276 -0.02550461964298031 0.02206291057290452 -0.02210666470695623 0.0008994498973321204 -0.0010436463785533018
489.40000000000003 0.0038008312186823606 -0.0023688972134643864 0.024067165492671874 -0.026315133655918397 0.020301703609457458 -0.022981281384717715 0.008017656053054295 0.0011456063348550252
495.3 0.0034019013769562077 -0.004854821361182774 0.023706124383129638 -0.02591370471407138 0.020989755388330977 -0.022579186324174338 0.006963498723573079 -0.0009407063073337377
501.20000000000005 0.007045898139885356 -0.0050142090896147734 0.024100438966408903 -0.02766300547475963 0.02064462370155517 -0.022556954510926507 0.010192738332967455 -0.0010629317963578016
507.1 0.0010914142121617452 -0.00449848526150679 0.022660438401471864 -0.027421435025846458 0.019552239626394984 -0.02369379192140616 0.003876578161931896 0.001508693634439379
513.0 0.005890933054792653 -0.006570951956645022 0.022207855469456285 -0.027199811276193617 0.01920755193008896 -0.023016129633312607 0.008756862333323694 -0.00015673402404609108
518.9000000000001 0.0025352312496534223 -0.0031587037966621817 0.021769802231141167 -0.02855466517098471 0.018653468176282047 -0.023666304070532548 0.005528706148332807 0.0031640480117603254
524.8 0.004954455367642684 -0.002721545399075697 0.022695161719668126 -0.027714162449266392 0.019880953841690942 -0.023610977239127574 0.00874621816823366 0.004866625367477401
530.7 0.004345717637323954 -0.0028002671577383974 0.021878913576230483 -0.027252617846239655 0.019619961599431968 -0.023239449251715897 0.0075627552597438905 0.004905760545032615
536.6 0.006299178459756414 -0.005786133598436553 0.0215979973530524 -0.02804560130142428 0.018176193290144468 -0.023840806585971094 0.009594215677425426 0.00240101466474276
542.5 0.007089221782155091 -0.0007539169304967952 0.020755294216593206 -0.029105789721076105 0.016769550581103153 -0.02531322451027674 0.010612658399408732 0.009063560868061598
548.4000000000001 0.009066834392623029 -0.010057232271442566 0.021615408992019594 -0.026721482752530924 0.01861257282658495 -0.024283366871351325 0.011820554017043702 -0.0009285984230083153
554.3 0.001800755894610225 -0.00877055850296504 0.019046026472522827 -0.028524653986549922 0.01714198806530759 -0.02477804148809467 0.0050788258175700944 0.001649137461835225
560.2 0.004137983518389374 -0.0023030798405856362 0.020256358447947258 -0.02883071141610295 0.016450474933746483 -0.02600889820157261 0.007974428137046918 0.008157964818883935
566.1 0.00832832028166193 -0.007694205270558209 0.01842923783246478 -0.0300937980267544 0.017550388840211505 -0.02498926355707404 0.009821700009569511 0.004452184284726141
572.0 0.00725198417354422 -0.005748168500280516 0.019587935776628464 -0.028803410965888104 0.01704033554429271 -0.024841239699472117 0.00850306837565498 0.006592194866195911
577.9000000000001 0.0073051935013174335 -0.004515281528757999 0.019569010592661876 -0.029624399620162046 0.01697922292801506 -0.025371438777118817 0.01005999249584694 0.008494351797855198
583.8 0.008045317386503806 -0.0054422724029527594 0.019356775725705936 -0.029612423707280365 0.016695482016199872 -0.025701323001767883 0.009928985824440628 0.007968086088057972
589.7 0.005970088709786206 -0.0036035187259868097 0.019006945326734002 -0.028497221783147945 0.015066679396480001 -0.026406972512937697 0.007412014105647461 0.009888755845464897
595.6 0.006157012824437334 0.0004808028032390972 0.018111707972718778 -0.02901352804281362 0.015146170368015433 -0.026438766564214747 0.008392289034878975 0.014925909079853682
601.5 0.001989812050839817 -0.004978182914584182 0.018126926284895765 -0.029714708564080313 0.015218199656012689 -0.026494501776170902 0.0028268041243556755 0.010593572180644842
607.4000000000001 0.0041913719974337954 -0.0005666235085859673 0.017201693229224754 -0.029810648759407213 0.015038458166338078 -0.026779717686135754 0.005333919340280373 0.014341448351888641
613.3000000000001 0.004068670472165009 -0.0035943281963419747 0.016528735497961574 -0.030556292215105793 0.013967758111585711 -0.026671801526831407 0.006097413470461809 0.012290483125141386
619.2 0.004732610410094862 -0.0038489598044268813 0.016882310892322748 -0.029872993976550386 0.014165406846025907 -0.02665189692860331 0.005602081418633066 0.012703115512494137
625.1 0.004047201750228447 -0.0039803797341834935 0.016724937316588827 -0.02939816932714569 0.014644532621133832 -0.02630224675259273 0.004499740585143181 0.013020801592822324
631.0 0.007532989712218592 -0.0020303002231541545 0.015535712639938859 -0.030356102573097947 0.013845418263567177 -0.02650323354366531 0.007703301420268211 0.014918720819670932
636.9 0.0029963432551396185 -0.0031908720722486203 0.016618559679805873 -0.029526010179823824 0.014884081723070574 -0.02649092959063709 0.003193596724857257 0.014725801213281582
642.8000000000001 0.0028473015566288927 0.0013044629786080405 0.014736086540257678 -0.031056194433769523 0.014239153755380748 -0.027075825971957436 0.0013372308325941271 0.02030977810643665
648.7 0.002359094951984711 -0.005642217451903465 0.014907229707886153 -0.029919132187592432 0.013362290156978386 -0.027259937606762347 0.0010016718774904065 0.013185042738743455
654.6 0.007464943104922196 -0.004016743967130653 0.01472748631398816 -0.03067330264766439 0.0132154354983512 -0.027434207914481593 0.0050558114564838805 0.01593476635720047
660.5 0.0031446645029131687 -0.002607418404642262 0.014342088105821481 -0.031003259615098762 0.012447663292967745 -0.02761596871247419 0.0012749526356975358 0.016795716856227005
666.4000000000001 0.002271446933937983 -0.004330361966431684 0.015528480099481993 -0.03118910339322264 0.014262403402621004 -0.026891171979381897 -0.0005386470952632302 0.01431152520868266
672.3000000000001 0.0020104272868927825 -0.00740339357014269 0.013323372242400456 -0.030891041528364423 0.01170414397328977 -0.027400670792879406 -0.0018860262195956976 0.01216176583486717
678.2 0.0023839215651640525 -0.011116410048277578 0.015448847836758078 -0.03113886337958497 0.012301150690158061 -0.02706158616803615 -0.0016852776975492083 0.00828614926330357
684.1 0.006607790207876598 -0.0012034261112484892 0.013892335049371178 -0.03083928232585703 0.011352540243111203 -0.02790872428180206 0.001611614086541119 0.018446862236216808
690.0 0.005671238994096891 -0.006338628269417765 0.013352094859289919 -0.03132976159022688 0.011870210638393698 -0.028011070102742525 5.3191308587451456e-05 0.01392147399199847
695.9000000000001 0.009494265018976314 -0.000802390449973241 0.012574700312024891 -0.030875146686214543 0.011144856185651381 -0.0270625979950433 0.002422194609607007 0.019068516565659797
701.8000000000001 0.005826157342564434 -0.006430701820854218 0.012014254946428403 -0.0318773600931063 0.011113249353555432 -0.0279287353841559 -0.00152762151445219 0.01434148799254748
707.7 0.0054928849690067845 -0.006082555562742093 0.012046616594623622 -0.031271565089531314 0.010516116769650663 -0.028059512948663868 -0.0021402076008082294 0.01320870951739167
713.6 0.00647067559991854 -0.005009683710599826 0.01352043078648666 -0.03134083619682142 0.011645537995797654 -0.028643084290973796 -0.002836634883692048 0.01510175189613718
719.5 0.006338137356348827 -0.006660787885259964 0.012240099387194012 -0.03181059791178082 0.01024090787021897 -0.027848554956262782 -0.002296791547136362 0.013373038471209372
725.4000000000001 0.006094525348746119 -0.008203601549516345 0.011651465131188803 -0.031691601769736726 0.010574382074592211 -0.027742837830128243 -0.004466689765568672 0.011732850659122196
731.3000000000001 0.004355479304680072 -0.0024381468257874284 0.011830851348554619 -0.0314812944925998 0.01022617583565984 -0.027733149402328447 -0.0056325673906629445 0.01617429194848105
737.2 0.008907495037593447 -0.005682478523271947 0.010746810432180256 -0.03224971272646927 0.009795473621951541 -0.02808160348618366 -0.0017563532294094836 0.013595172942493327
