!Created with skrf (http://scikit-rf.org).
# MHz S RI R 50.0 
!freq ReS11 ImS11 ReS21 ImS21 ReS12 ImS12 ReS22 ImS22
100.0 -0.9121861751005699 0.34780506243478276 0.016856742520898887 0.028844405154194605 0.014325140293009084 0.024301095265204 -0.786790931359086 0.5835197679170744
105.9 -0.8764544971955772 0.4056377333061406 0.0187619925387539 0.02641066301129907 0.016437996636972336 0.02226391350347476 -0.7399583911764072 0.6184998713735235
111.8 -0.3569640043874587 -0.8904165002102249 0.04131021029243047 -0.016438950220571003 0.03716326297891204 -0.013732236563263273 -0.24706771164402178 -0.9280243030687758
117.7 -0.43024334780906975 -0.9047814511998514 0.04297717427778326 -0.02032908271447666 0.037715629779112685 -0.017151828719721478 -0.30606297628642576 -0.956858163457553
123.6 -0.476995315604525 -0.8734334339064763 0.03900975970205997 -0.021733501443682208 0.034492819260815405 -0.018705671732906798 -0.35027255352982867 -0.9318576420259607
129.5 -0.5116895552423375 -0.846217340020092 0.03774413997650867 -0.020923474065264284 0.032490922941247787 -0.019928541766600368 -0.3806652384142349 -0.9132100264438413
135.4 -0.5690974095246929 -0.8042560419468711 0.03544522627707204 -0.023197746457763558 0.03130397671584449 -0.02037914438437181 -0.43602893385433944 -0.8858447266659897
141.3 -0.6399878497360384 -0.7636757737935622 0.03303065905578166 -0.026247570481739726 0.02919629904455912 -0.023114035320564226 -0.5064818330972536 -0.8626684294915075
147.2 -0.6506927097229631 -0.7179784068354702 0.02974784965780614 -0.024499341123866456 0.028176012217768907 -0.019215159460264305 -0.5203446801098697 -0.8146647778943099
153.1 -0.6419948895582175 -0.7239023080534768 0.030632283478054863 -0.022108704427429772 0.027012694829124502 -0.018442566721387246 -0.5040019787520515 -0.820036744543163
159.0 -0.7112277079503673 -0.6906090837230339 0.0302509256567815 -0.025409425686813515 0.025901742352065132 -0.023384348038802658 -0.5705677747231214 -0.8148845159584158
164.9 -0.7216936096350186 -0.6655803914593345 0.02876142939471176 -0.025807311496656205 0.026440119802720145 -0.020809593366937714 -0.5770918473359831 -0.7933152764207794
170.8 -0.8126966274742489 -0.5794503955391566 0.026460068546607627 -0.0293546640854574 0.023546515240377517 -0.024866422455310122 -0.677465337759753 -0.7374367477221931
176.7 -0.8234444604520792 -0.5470748562584072 0.02630384550354444 -0.028065829143887257 0.02215482539037777 -0.02433339396116538 -0.6877191935480165 -0.7137216796561733
182.60000000000002 -0.8096374999503735 -0.5493177312317918 0.0253694171465074 -0.026284135456582303 0.022602357405191092 -0.02340174777209239 -0.6688652537741826 -0.7161379594837487
188.5 -0.8557476267428011 -0.49462728890962065 0.022131789316933277 -0.029024872907958167 0.020176637898028874 -0.02475215768080815 -0.7212814336436657 -0.6771120441462577
194.4 -0.8941107153959588 -0.44229711563434626 0.020992992671745318 -0.03028602276920601 0.018773563890767533 -0.02597715971267635 -0.7666248683403468 -0.6469400152206376
200.3 -0.9012800643967551 -0.43699536940736255 0.0197145562727528 -0.031184348916668925 0.017667368947113574 -0.02634220244858431 -0.771064696215335 -0.6526526727104199
206.2 -0.894868404600103 -0.39717098781343463 0.019425817708828348 -0.02940518417561483 0.016502789265784745 -0.02421530096560187 -0.7679805459875739 -0.6103477330976784
212.10000000000002 -0.8973894120776104 -0.3794217988941889 0.018822668222311947 -0.027160162117844222 0.01594439544885364 -0.02463782776457994 -0.7685162419886701 -0.5978235691965293
218.0 -0.9373935469119142 -0.3099814032378559 0.01486557398098594 -0.02898902546091533 0.012541759585481545 -0.026144560018989724 -0.8246474676913367 -0.5510107257814595
223.9 -0.9556014934091966 -0.2777509636954975 0.013291760292354031 -0.030381972009378345 0.011434998997332312 -0.025606891215982124 -0.8512539680866488 -0.5374370369176886
229.8 -0.956069600948828 -0.24399640465974456 0.011545666595245469 -0.029690806716010012 0.01030928642240897 -0.02446538072694508 -0.8582275526641961 -0.5100317949594388
235.70000000000002 -0.9456792847110925 -0.25270522777456794 0.011412764308879957 -0.02768318182530021 0.011073680882849952 -0.02316480827963798 -0.8374584382858797 -0.5168555201966337
241.60000000000002 -0.9576386374355004 -0.2254927207964189 0.010835430128623048 -0.02652894877335653 0.009499821744103316 -0.023895673152631483 -0.8527707416646324 -0.5060429105227015
247.5 -0.9583785113159001 -0.19830805238884172 0.010232333705655936 -0.02535446777518363 0.009048632820855655 -0.022333463867657125 -0.8565414716731651 -0.48382869571539167
253.4 -0.9506428784787493 -0.19299482932097314 0.011057702741403469 -0.024983341628485502 0.008602960931142956 -0.021133908286817486 -0.843785553180689 -0.4753927153857308
259.3 -0.9635944323443344 -0.16883291383383947 0.009738759286937664 -0.025383033515734774 0.008334951712020129 -0.021017810521786192 -0.8598852084164185 -0.4650579414797456
265.20000000000005 -0.9790381020258423 -0.1144357392835568 0.008894934373962951 -0.025071408073921365 0.006448968757669028 -0.02160357912141741 -0.8932270377916979 -0.4389147971657064
271.1 -0.9805149743932359 -0.04237288053149468 0.00513010525375909 -0.026574673910383935 0.005086894011663316 -0.020158236819461908 -0.9161126866008351 -0.37555419886620955
277.0 -0.9849824564220562 -0.03425057364544002 0.00586051299938991 -0.025560709655902146 0.004967546640819207 -0.019935782995695043 -0.9138377753372557 -0.3766811897536272
282.9 -0.9885592492449765 -0.020239770987579394 0.004426526819450589 -0.024986786726385178 0.005126486029726379 -0.01900638103128652 -0.9214138015656382 -0.3804752598847496
288.8 -0.9877894794730087 -0.03815913080972232 0.005669103039707801 -0.02382428935758957 0.005000535301885396 -0.01900132345561977 -0.9021308500465607 -0.3921239094251199
294.70000000000005 -0.9893994622078112 0.026149123711487622 0.004765403656738536 -0.02348977217399971 0.0041253781213226644 -0.018573938844647565 -0.9282258245947372 -0.3482002245309003
300.6 -0.9828940784493652 0.03657990048073487 0.004293198674749116 -0.022189263572212774 0.002706916671018387 -0.018439612556644034 -0.9223381168829831 -0.3392868158934384
306.5 -0.9801062714250786 0.10350295826163514 0.002346825275339178 -0.023097742349432352 0.0022139349721516303 -0.017947645229898355 -0.9446024132271306 -0.28978241146962613
312.4 -0.9787296703687699 0.12458393521419263 0.0012830279771703153 -0.021171226408478332 0.002238582468154267 -0.01811663627815196 -0.9558206011507561 -0.27903944769839417
318.3 -0.9743139068408394 0.13382527936111877 0.0029804803014124807 -0.020641553450908012 0.002237856308695821 -0.01651625692009876 -0.9506062269809205 -0.27628053751910053
324.20000000000005 -0.9762544603248021 0.14983284937838248 0.002736820813582703 -0.020578576804820902 0.001825040530768716 -0.015869377015322098 -0.946169225438991 -0.26459694067309364
330.1 -0.9633329813365507 0.20789201623786452 0.00037203568247866803 -0.019874624004367677 0.0004218452729099335 -0.015181272850383988 -0.9695077978671208 -0.22166456151874048
336.0 -0.9509907882765022 0.2567392729854295 -0.0012079222723518827 -0.018424304026428875 -0.00014190633396046035 -0.015602142443768686 -0.9810481643365339 -0.1772381723778401
341.9 -0.9738792254459738 0.11795183215820293 0.0031879102977109574 -0.01736422656922904 0.0021389841041346224 -0.014236836222448337 -0.9086224363299917 -0.306788809303329
347.8 -0.9534298673520095 0.24097274148822448 -0.0002765885485089097 -0.017342265070154746 -0.0003660848466413737 -0.013725296224248352 -0.9648568288335103 -0.20258624942629908
353.70000000000005 -0.9443467754692024 0.2585485566436823 -0.0009055008485883581 -0.0167157154795307 0.0005428770462745681 -0.01376332132833882 -0.9606514359666183 -0.19656565955323438
359.6 -0.9412726176991101 0.26098391394065945 -0.0005633325717501183 -0.017102538068998117 0.0001649264207637 -0.012624904443575176 -0.9530072874340207 -0.19773176655869365
365.5 -0.9197345781873656 0.3355724502768495 -0.0011467839593122342 -0.01647500836791186 -0.0009231942829008728 -0.013213230237916944 -0.9807275762259616 -0.13264145144549772
371.40000000000003 -0.9163772802058117 0.34358938519073395 -0.0009445475448133367 -0.014628978727135368 -0.0006928119150898602 -0.012543422457035493 -0.970154253595628 -0.12662956589954835
377.3 -0.9123803993841111 0.35770928959723586 -0.0021201477728848704 -0.013345511895891218 -0.000480794946338157 -0.012093547654096358 -0.9775957065817571 -0.1206933399849489
383.20000000000005 -0.9076501485422439 0.3637837033663495 -0.0008214669142300211 -0.013874415490214061 -0.0006677559754607724 -0.011336983954033462 -0.9809528031077714 -0.12022420382897468
389.1 -0.9099483465088558 0.36022799368866254 -0.0011361332383523417 -0.014029800024087673 -0.0006324514056518648 -0.011389580814471096 -0.9789243100178727 -0.13253458829494452
395.0 -0.878943816270645 0.4142539706991794 -0.0010846785631276465 -0.013972775008153733 -0.0019404445437015915 -0.010738842895330194 -0.9824180732911579 -0.07812326721466238
400.90000000000003 -0.8744425654330146 0.44127533292813426 -0.002051243378300333 -0.012167587692341521 -0.00159003871266224 -0.010266668293869114 -0.9867683629825073 -0.05641300594735846
406.8 -0.8619996102062368 0.4488750926831329 -0.0017553844839841878 -0.011514039435224686 -0.0015910363028880429 -0.009957122544288563 -0.9770059371183433 -0.04894153545468933
412.70000000000005 -0.8814026224479083 0.4357353335592949 -0.0006011877482372862 -0.011926134978432089 -0.0004642257756641713 -0.010493533466041007 -0.9742520512540712 -0.0831703551399535
418.6 -0.8540109025192189 0.46959276694366164 -0.0024486146257484205 -0.011122748268790285 -0.0014763922985058828 -0.008639366193664035 -0.9844951157233733 -0.04482914190711666
424.5 -0.8683063239326377 0.4650031230914939 -0.0011953209839830803 -0.010389401688330887 -0.001481974142807342 -0.008869461586365073 -0.9792084785367097 -0.059753339644200494
430.40000000000003 -0.8666326220645819 0.48540875539727174 -0.0010948434966861216 -0.010653309020644834 -0.001531209852426765 -0.00874667604158759 -0.9784793847899942 -0.05474397258959895
436.3 -0.8289583199006129 0.5099051243671235 -0.0015308928144280567 -0.00939653315949046 -0.0014431353435271383 -0.00858130726210215 -0.9851101361270586 -0.01721189316746174
442.20000000000005 -0.8174854275388348 0.5395193248148452 -0.002098129585258786 -0.009829729043270351 -0.002246952125554918 -0.007110046966344597 -0.9820258584965011 0.005056865885594583
448.1 -0.7901903301516786 0.5628579675783671 -0.002237075126427474 -0.008723493481848749 -0.002227105018627293 -0.007073034289601746 -0.9765998974339526 0.03581769532161315
454.0 -0.8021017634977278 0.5523901769740712 -0.0014722751719360887 -0.008652240616759658 -0.001883197195950768 -0.006853337070547566 -0.9813015424983166 0.010411207790314049
459.90000000000003 -0.7965807536347308 0.5701492308909106 -0.002106089400098421 -0.007261469079546623 -0.0017297539138063076 -0.00600264999209662 -0.9803982482066803 0.02149350233366745
465.8 -0.7625474460057413 0.6223310466779941 -0.003096225802232724 -0.007497552797927829 -0.0015529045459382433 -0.006186266576150418 -0.9734729492424009 0.07055298128027039
471.70000000000005 -0.8007341592090841 0.5840566239530113 -0.0006923132014623454 -0.008138311195263934 -0.0012003947127871054 -0.005517960182473118 -0.972612628998007 0.01012595312521634
477.6 -0.789477185571903 0.6042890396942417 -0.0017117872138156529 -0.00737329404415093 -0.0011143628739545587 -0.005648290178916035 -0.9772574019293204 0.02874599922045904
483.5 -0.7480917536842181 0.6122321824499483 -0.0014945617908108714 -0.0063229109687616735 -0.001753635100596688 -0.005535979130139617 -0.969261703788214 0.06434863585830475
489.40000000000003 -0.7316144611037941 0.6392895250850128 -0.0024510044658100014 -0.006344675538190827 -0.001408614743854276 -0.0038970328809446626 -0.9655409589579331 0.08047400182436132
495.3 -0.7406693548225518 0.6399298511215994 -0.0019598237127854135 -0.005500846630900562 -0.001789911915069509 -0.004911608556458582 -0.9674385272968619 0.06629113354278275
501.20000000000005 -0.6966242012031287 0.6709940235388532 -0.0014378705380479993 -0.004903633586968619 -0.0014726707473349478 -0.003295025858541932 -0.9648144052592491 0.110969396063297
507.1 -0.6961943228705278 0.6874148642232965 -0.0013874527489272901 -0.004963151697431247 -0.001696941179195054 -0.0036441571991263177 -0.9639358884780052 0.11868989078717668
513.0 -0.6810250977638667 0.7034310590142346 -0.0010270925259501748 -0.0038474607481235597 -0.0016275058461981144 -0.0037520215782907277 -0.9603475380614296 0.12462340467689097
518.9000000000001 -0.6907270156050809 0.7183733984653045 -0.0014041118378454766 -0.004296601540388968 -0.0010134531231912917 -0.003350255379553445 -0.963986739025817 0.1209671086698869
524.8 -0.6724290445966974 0.7140649598399819 -0.0004763575061710302 -0.003554696293987199 -0.001017747407231863 -0.0035197506211958962 -0.9606056923589008 0.12698147245883726
530.7 -0.6688034171882471 0.7256161632222982 -0.0010509815331463542 -0.003004582598243823 -0.0005126152566921625 -0.0028920353924995553 -0.9647100216289257 0.12861233540190065
536.6 -0.649051773190069 0.755363067781605 -0.0010966178063562817 -0.0030035408019165825 -1.0725653897985485e-05 -0.0024769472786225866 -0.9620018175883045 0.14517508099041732
542.5 -0.5928673757270798 0.7864202598324308 -0.0009608945822931988 -0.002603405053043958 -0.0010139654555242354 -0.002510807538385684 -0.9511376648729464 0.20476264539573197
548.4000000000001 -0.617242641097965 0.7512197134160342 -0.00013249508569347976 -0.0023392158885894377 -0.0008718396581796283 -0.002028961847703811 -0.9567056747237022 0.15271722065024249
554.3 -0.5885887900309041 0.7860181544788672 -0.0006707433979988128 -0.0021495638701866555 -0.0008122480507249076 -0.00200722809301276 -0.954187565898198 0.1928356664640005
560.2 -0.5475292859349464 0.8025244295015261 -0.00012915818233066607 -0.002266526082474713 -0.00045186994496773983 -0.0012399336868300736 -0.9415357580511381 0.2338945766153355
566.1 -0.5383067268714216 0.8146884965182309 -0.00028575443151209997 -0.0013380071896127164 -0.000696340685540783 -0.001173678016825353 -0.9464566203347476 0.2320788810000162
572.0 -0.5618734592672193 0.8056850692704001 9.195906590069173e-05 -0.0018174236888820342 -0.00010933279441011002 -0.0008092984656056152 -0.9507795015060241 0.19788409595470033
577.9000000000001 -0.5055555744320908 0.8218481460184024 0.0007137214108703411 -0.0007764882980098156 -0.0001724679660848939 -0.00023661481998652135 -0.9439407604731102 0.25864703861705135
583.8 -0.47552980650357046 0.814390061753655 0.0002649971739718834 -0.0016655506857666956 0.000453803442880469 -0.0007132839552050581 -0.9243163013503707 0.27582197134880293
589.7 -0.48532526905384044 0.8372095612210895 0.0006525497847273406 -0.0007162489288586656 0.0003808679701171401 -0.0007547143386836955 -0.9359969952668257 0.26543961469260646
595.6 -0.491127322553079 0.8504805340559071 0.0015893289576475002 -0.0005131952501220618 6.0107768613193015e-05 -8.110405814683972e-05 -0.9359213843744918 0.25797617614537155
601.5 -0.4835694477087053 0.8583354665275809 0.0011792423374238482 -0.00038311554781860716 0.00046580880497747347 0.00018065569681213444 -0.9381882161393765 0.2574318227627668
607.4000000000001 -0.4631480538383683 0.8625826925915193 0.0011437089991886194 -0.00010838406517477919 0.0006465025608017639 -0.0001932733466840784 -0.9370856478435222 0.2732604603698103
613.3000000000001 -0.40108678429817735 0.8843789520006347 0.0016735573230229972 0.0004913197088123009 5.295730824104822e-05 -0.00024059613977969618 -0.9162157326652552 0.32591110998510225
619.2 -0.39896915591292437 0.8783159290753815 0.002137610346804696 0.000848879990942681 0.001100799232089108 0.00011868729821538534 -0.9182666445208955 0.3242130325441323
625.1 -0.4232608020131293 0.876003977509001 0.0019513178623300732 0.000805921157140885 0.0010625504247471435 0.0009189179314066443 -0.9264894002940298 0.292448200618834
631.0 -0.37990850294466594 0.8934650775968684 0.0026494533912953507 0.0014469740703596887 0.0019187435863820574 0.0009388809857355055 -0.9142472218236277 0.3259043032668901
636.9 -0.3818106227868654 0.8826304069637976 0.0038689573191438434 0.001125806425345188 0.0013753173584933496 0.0011423077599144967 -0.9101860598614874 0.3225351178714788
642.8000000000001 -0.3794953883255215 0.9107131852176156 0.002807765945644619 0.00110021128242688 0.0015610293722618047 0.000827841200091551 -0.9170934864821438 0.32366510796408304
648.7 -0.3391675127387721 0.9005892752805941 0.003317402786176079 0.0010612196218198543 0.0017919416078502981 0.0013173579045405554 -0.9052754405361513 0.35121067466112127
654.6 -0.34714746834807025 0.9383738754462556 0.0029518106082610405 0.001799816822524989 0.0031970254737123515 0.0015114675240720946 -0.9238203896648083 0.33232891721530633
660.5 -0.3225542127727634 0.9272790472278266 0.0033597986507644287 0.0022124158888153843 0.002623272813628685 0.0016477984584581501 -0.9117171157927115 0.3542217591149291
666.4000000000001 -0.3432079863893887 0.9266048073149364 0.004675418590354849 0.0016113380330738602 0.0026419711882441233 0.0010894305438416737 -0.9259092811145736 0.3237506031726472
672.3000000000001 -0.29323319709197687 0.9416621472259546 0.003635776188892912 0.0013544927290882745 0.0023801383879781487 0.0014559905077612197 -0.9073658225769666 0.36682336276487243
678.2 -0.3056662834869778 0.9163481010338691 0.0031944790896589114 0.002720880179187189 0.0032308122852505376 0.0015670262227301926 -0.912549415942166 0.3467767337167609
684.1 -0.24647943472284883 0.903416655345303 0.0034766338585546152 0.0023740125049336335 0.0026561362579488063 0.0014103895927743625 -0.8748732127395181 0.4088565973352494
690.0 -0.2524034631709974 0.9452821078344001 0.0034019964951589234 0.0024946549043062655 0.0034444963167667717 0.0018710327419231008 -0.8972475397861079 0.3809335568943308
695.9000000000001 -0.22777929696194432 0.9597735751678634 0.004229306606728239 0.003023992425259535 0.003168951344607681 0.0022753015755106122 -0.8923778802866636 0.3973842556187715
701.8000000000001 -0.17832349823776145 0.923182735834331 0.004260462955204274 0.0033040968515336065 0.0034424362570121556 0.0024384898814665446 -0.8577534794795043 0.44516570037201975
707.7 -0.20432515545018234 0.9430395582763688 0.0047536134054616715 0.0032573114463834434 0.0038087371953831636 0.0021881011724797163 -0.879895996847043 0.4066011772619926
713.6 -0.230655841141155 0.9410826735893243 0.004490056938508995 0.003616262841141584 0.004314257398687003 0.0033500032565360453 -0.8929027871258963 0.3770207769873038
719.5 -0.1583412886163541 0.9326735657489572 0.005116057473951183 0.0034744329511148305 0.004521601904264713 0.002130729539704118 -0.8567479643713597 0.4423156139357525
725.4000000000001 -0.17340566422613451 0.9487786556558591 0.0051339778772475034 0.0038352523637426783 0.004154916144092497 0.0023942356342165237 -0.8762408747786917 0.41483667905561467
731.3000000000001 -0.19753422410783722 0.9729132719356279 0.005199249202342202 0.003744930411093309 0.004725572058068804 0.003095983979693926 -0.8935389996959467 0.380193405616191
737.2 -0.14159951939631124 0.9588700199101 0.006193364727767921 0.003121728604675985 0.004906326872427495 0.0025270148785987343 -0.8682890877558854 0.42830117009945673
743.1 -0.1288266852905324 0.9875143447879414 0.006753767706643939 0.0030455376972873486 0.005158800288021604 0.0026372882310986296 -0.8783787519281506 0.42444694150736184
749.0 -0.08329917053654705 0.9514111452294104 0.005540811408162014 0.003212459056830104 0.005365511820723223 0.0015541517411233462 -0.8377948061716401 0.47572041290771605
754.9000000000001 -0.09241481793888683 0.9535976511778681 0.006214316365005687 0.0027056360027875037 0.006403245511288664 0.002641296366937145 -0.8502594829643447 0.4591915767891442
