!Created with skrf (http://scikit-rf.org).
# MHz S RI R 50.0 
!freq ReS11 ImS11 ReS21 ImS21 ReS12 ImS12 ReS22 ImS22
100.0 -0.6490940934184202 -0.9084261524165488 0.026734991026288284 -0.028675421728579047 0.02248042453230179 -0.024304539139876537 -0.8717313291169758 -0.6879480357490105
105.9 -0.7753111842514678 -0.7954150056915156 0.02236713105085327 -0.03183287545785225 0.01824350400674135 -0.027904892717505514 -0.9599558131183037 -0.5537302712946256
111.8 0.5910315465634742 -0.9091900514404065 -0.04517211582210923 -0.025655418003583664 -0.03886727363668686 -0.025071296156428665 0.70440531879043 -0.8346967199926516
117.7 0.4083028450163081 -1.000349508912669 -0.04809789973711034 -0.017699918594212685 -0.04142357026927932 -0.016639411202217458 0.5417130035768064 -0.9432317050624369
123.6 0.21551310197393583 -1.0575466422303055 -0.04916701782515017 -0.006741226665760544 -0.04256182885693029 -0.009259322638228222 0.36584237273766634 -1.019825420331942
129.5 0.01802807505633423 -1.0776019393022713 -0.048317551286868786 0.0005234923236363683 -0.04265142495905697 -0.001256448663368607 0.18243671993976585 -1.0669264409246835
135.4 -0.17671888781301218 -1.0629399331460219 -0.04705874421993226 0.008640907892013404 -0.042114255220155786 0.004168017071154789 -0.0012515763194882107 -1.0826475198215746
141.3 -0.3610154236046152 -1.015743603300917 -0.04380363977510742 0.015221808616202169 -0.03932619320428645 0.011482200722859657 -0.185202150818331 -1.0656786006302479
147.2 -0.5332032010030382 -0.9382568420609362 -0.04034056256173076 0.02089357646792627 -0.03711204528617324 0.01581469545472197 -0.35939247746095837 -1.0189882264194468
153.1 -0.688351805642635 -0.8345552654939343 -0.036188209983180085 0.026704160363587536 -0.032974857414734916 0.02076788893241634 -0.522506074574681 -0.9468667861901489
159.0 -0.819988195455098 -0.7049214229833013 -0.03079196291262655 0.031438170087632396 -0.028878612743176754 0.026285545975823863 -0.6701661566392884 -0.851436190717302
164.9 -0.9288659182534312 -0.5584102800107147 -0.025651717915250373 0.035887819376480945 -0.02519358494952073 0.02921972115921029 -0.7967615494269256 -0.7352607620041083
170.8 -1.010950546033594 -0.39661452804815717 -0.020759576663354637 0.03854433401860602 -0.01999561423709045 0.03243794454367922 -0.9032463467715719 -0.6008392033927853
176.7 -1.0650492254725703 -0.2243734173989575 -0.01531532337833684 0.04062685145505938 -0.014964711725209032 0.033962407466949215 -0.9875116743374385 -0.4541342581977218
182.60000000000002 -1.0893416573529988 -0.046859048830482364 -0.00831412094615816 0.04129844844985564 -0.009538840265880904 0.036440213037545084 -1.0490585359651017 -0.2958409956651759
188.5 -1.0885926729619915 0.1265523499747783 -0.000793696135149871 0.04161986714053065 -0.0029979281589026818 0.03649120197938108 -1.0839596431113345 -0.1326132641884406
194.4 -1.0578907883971334 0.3001435704213264 0.0051333052758338596 0.0408441066109052 0.0015898556871635917 0.03586774806819052 -1.0964565057859628 0.033205856952226935
200.3 -1.0012713302509393 0.46547220367423175 0.011787985919387671 0.03944993955605119 0.007885304342002596 0.034620681325643984 -1.0821155652125982 0.19574689994238842
206.2 -0.9205426771987697 0.6173112803587856 0.016975976311723383 0.037447817698104 0.011758719693323741 0.032307612611746195 -1.0445478066223461 0.35489063421359335
212.10000000000002 -0.8168135018233212 0.7548879657085612 0.020963091220852582 0.03274363721012265 0.016812005957461608 0.030402157040118852 -0.9844164550495227 0.506941482562392
218.0 -0.6954905878593838 0.8754234069345072 0.025463547853935738 0.02775687978397231 0.02151856578701904 0.02587541110270128 -0.9035771816560618 0.6480139440522963
223.9 -0.5540629061945842 0.974909819526284 0.02936892786915108 0.02391330898796439 0.023785742738186098 0.021702162610625186 -0.8037825171014705 0.7740531293391774
229.8 -0.4038094903954585 1.0511210004426534 0.0317445421386161 0.018481101096642496 0.025532728855511968 0.017394216006586593 -0.6870731922246524 0.8850713042141627
235.70000000000002 -0.2409813084936183 1.1054282560268585 0.03349411580922788 0.012737692591199817 0.027486279807916604 0.013894789574029962 -0.557824253322348 0.9766360809878567
241.60000000000002 -0.07395728631620382 1.1343242261859074 0.03262272185264814 0.0075216325433937 0.02877750356571151 0.00907195843072463 -0.41452856082380585 1.050753702994538
247.5 0.09665893558648746 1.1374831769817442 0.03234000665249893 0.0029717977869778023 0.028400434809211006 0.005130193104707168 -0.2633224361228936 1.1037212442261721
253.4 0.2645755535453774 1.1138947453407153 0.03334416100653398 -0.0016514309877495208 0.02814395448828914 0.0005118488493986815 -0.10556544119205931 1.1344752164581697
259.3 0.4283541553744669 1.068317434448154 0.03243796456229414 -0.006266618647592424 0.027445846484644387 -0.003739539672553359 0.05291507909750595 1.143761599384158
265.20000000000005 0.5859056145297261 0.9966177125837191 0.029906425753098265 -0.009681551039967495 0.02601971914510093 -0.0069367728910678505 0.2105031547760381 1.1310107883932246
271.1 0.7316360575322225 0.906961472826367 0.028880917710757983 -0.015524074455363496 0.0233169394000075 -0.009769057534530617 0.36497766471877113 1.0945899555764846
277.0 0.8614023057761123 0.7922672756080936 0.02583005391494735 -0.01842102371917944 0.02141432892364078 -0.012957232740964504 0.5138154286538104 1.036117819662453
282.9 0.9723991089121945 0.6600191916167737 0.021449743983503695 -0.021334241364007772 0.01858799325562272 -0.014689307302975064 0.6545023016922329 0.9626807135785806
288.8 1.060271011434404 0.51281526737643 0.01781629722168271 -0.024162957626501697 0.016042808837449605 -0.018215287340658658 0.7817306621007161 0.8639114323781668
294.70000000000005 1.12936830027474 0.3540589583591715 0.014895338486776705 -0.024872470283559673 0.013318888328046171 -0.01887198786870195 0.897115390416225 0.7507188107211171
300.6 1.172189704130094 0.18505211372821165 0.009742479222004979 -0.026349201517836696 0.009764584112198996 -0.021094713070674186 0.9941018606478711 0.6243596747518696
306.5 1.187748841334909 0.011156653478256008 0.006013084467712644 -0.02789243963767626 0.006812577902638476 -0.021365764226489906 1.072563726825219 0.4848532216796099
312.4 1.177523547940734 -0.16111477354701317 0.0013384822968847184 -0.026106128993510832 0.004469661409784576 -0.022119407581418102 1.132540218166788 0.3358620326451726
318.3 1.1428353090811145 -0.3310217171715499 -0.0007291072960090364 -0.025727504005889894 0.0017785738443653243 -0.020612450617837726 1.169476479444015 0.17671312162201572
324.20000000000005 1.0832359406579055 -0.4955265636959537 -0.004535586699368231 -0.025520395531191526 -0.0022320621618754127 -0.020015237892447045 1.183928713635523 0.015991917198014058
330.1 0.9995573542966721 -0.6468888679495575 -0.008218814218364578 -0.023127602125090078 -0.0049385533674075645 -0.01825904584046898 1.1774342589256535 -0.1447131160491083
336.0 0.8930181865904383 -0.7859830375576938 -0.011339997602105193 -0.020032905393970808 -0.007466094793041199 -0.01813220333459635 1.1467481990464423 -0.30417613664439874
341.9 0.7709297554885673 -0.9046946446650022 -0.01356744661818999 -0.018089369614807473 -0.010337160244413647 -0.015539031443407876 1.096334025933709 -0.45667000716043643
347.8 0.6314231815393619 -1.005811949885952 -0.015875703046315935 -0.01515925239625506 -0.01158955871521258 -0.013180087204670182 1.0240169934682621 -0.6003911765300686
353.70000000000005 0.47883960886511806 -1.0805451764751506 -0.017261372477479754 -0.011981597014125064 -0.012731398577832466 -0.01195453803028374 0.9355397231618238 -0.7319932792134329
359.6 0.3174314245094632 -1.135574010141757 -0.01921747564713495 -0.009801264241819953 -0.013467711514721202 -0.008768757900778265 0.8250841370761595 -0.8524510920676989
365.5 0.1502619069136877 -1.167102052954241 -0.019126247472703285 -0.007671192373992816 -0.014867368239599811 -0.007557045212075177 0.7029182516701215 -0.9553251486478533
371.40000000000003 -0.01729290113512229 -1.170554704273261 -0.01793122490793621 -0.004232134670798962 -0.01519971303228255 -0.005035946740428918 0.5670510961818511 -1.0387708464028393
377.3 -0.18525591954301174 -1.151490457840769 -0.016963631253908363 -0.0003059067158103743 -0.01503605455825405 -0.0031852008252611637 0.42263215584113695 -1.1048655737642983
383.20000000000005 -0.34460491212424627 -1.1099949069228698 -0.017319090735069605 0.0004235646275046328 -0.01432965359132191 -0.0011142543148670706 0.2689503479591805 -1.1497758433228742
389.1 -0.49660415389774865 -1.0464103677855074 -0.01714293595412692 0.0034419215102728983 -0.014299343206932 0.0009225860922295097 0.112272114988672 -1.1712457319667162
395.0 -0.6377985179716611 -0.9600617023816073 -0.016719440032618677 0.00483037950064287 -0.013291110528384581 0.0033549536094159478 -0.04607753955182448 -1.1715562176775818
400.90000000000003 -0.7628778467032999 -0.85829158300791 -0.013513479520421487 0.007003801572629741 -0.012158963346386739 0.004557888686256409 -0.2009728188527555 -1.1508609346253205
406.8 -0.8738659241552943 -0.739468264590367 -0.011869233083210804 0.008298553837156872 -0.011298657766252317 0.005780371345098482 -0.35131638630262735 -1.1075673662143253
412.70000000000005 -0.96470880450491 -0.607030161928541 -0.011240301061203248 0.009188805101203651 -0.010958926466312746 0.006850581786717409 -0.49373441409718916 -1.0473464454311003
418.6 -1.0363563303336356 -0.46173112308559866 -0.008611207479903866 0.010923121646525164 -0.007797815754786358 0.0075497193950173425 -0.6264022384873692 -0.9695801156046352
424.5 -1.0884387639076805 -0.3116469893096854 -0.006955844299021241 0.010694755097812326 -0.006715053166594188 0.008834664992032514 -0.7472437126409923 -0.874362731091632
430.40000000000003 -1.1111644142040922 -0.15399780069190294 -0.005400030865521648 0.011582291136907138 -0.0052027333617555 0.009400446854558134 -0.8502723026241504 -0.763304421745174
436.3 -1.1187642968255844 0.004418174006386575 -0.0038745365478171498 0.010826919127183436 -0.0045521571548981276 0.009653092282806204 -0.9414395949770065 -0.6407887456322247
442.20000000000005 -1.1050822569465577 0.16107447342632691 -0.001968891648631017 0.01191475543201694 -0.0016765426453662826 0.00893376347460235 -1.0145477654770685 -0.509616221869531
448.1 -1.0683754165937132 0.314436318412911 -0.0005305848743936214 0.010893207436765555 -0.0006507429607230197 0.00911290835996019 -1.0697014226685693 -0.3684163490534961
454.0 -1.0124482331473226 0.4595035228354697 0.00042869549709403714 0.010494693408382572 0.00026654211346646266 0.008662335229609127 -1.106461065484395 -0.22363005236295758
459.90000000000003 -0.935804205512455 0.5964842922516562 0.0024286351448194496 0.008712357655330634 0.00143643499554711 0.0074444265609686045 -1.1238445568579314 -0.07488953441385375
465.8 -0.8419822882320552 0.7222867191491965 0.004539815550658026 0.008465755362354874 0.0017190859934273594 0.00748003303337888 -1.1200917005311024 0.07427906839589912
471.70000000000005 -0.7307222445479382 0.8323996206890467 0.003771344684310301 0.008851854117835681 0.00262464157983379 0.0062430339766544754 -1.0979480326082784 0.222281591315626
477.6 -0.6073046287607041 0.9238595185025524 0.00534692302920847 0.0070861922595142025 0.0032938999218207134 0.006025292454925171 -1.0560120017082326 0.3658760557355127
483.5 -0.47040885373724556 1.0001019332741494 0.0052539844061172845 0.005937982340395263 0.004472024741042547 0.005589991265534828 -0.9971741836131521 0.5024256114548692
489.40000000000003 -0.3261940596577979 1.0552240314053052 0.006749798292797134 0.0045355135708199405 0.0037138976152895496 0.003401530173129624 -0.9171714152819909 0.6262421896745739
495.3 -0.17268742579453578 1.0900742181604153 0.006155983512509684 0.003165329616030192 0.00531841461354336 0.0033960186023034434 -0.8233696210260542 0.7421690291972116
501.20000000000005 -0.01887489615622963 1.1022592417757573 0.005447947602540325 0.0026932796930111205 0.003953779081356687 0.001869562448720491 -0.7174029300579373 0.8420687157883813
507.1 0.13731208462208305 1.0938349303647534 0.0058082324136845 0.0019387434348734798 0.004655875672407043 0.0013788236692729456 -0.597732860618051 0.9300496934930425
513.0 0.28947538482368446 1.0609812437166464 0.004548569627314677 0.0010001164206690782 0.004808127656736728 0.0008420090398339884 -0.4673770168299186 1.0000350217013294
518.9000000000001 0.43414930203624186 1.0105114190954234 0.005217097558321679 -3.210668390179912e-05 0.0040608809721478355 0.0006194830863220782 -0.3294167745231559 1.049933429010058
524.8 0.5700115742307339 0.9374540033800671 0.0041678273391702715 0.0003039372131936131 0.004344565587277541 0.00020213313907346432 -0.1853882493127114 1.082200521014384
530.7 0.6932165347055661 0.8489404645465997 0.00353398992209995 -0.0009609715227426856 0.0034503456085495285 6.039592170291779e-05 -0.04013652075549238 1.0986618142162268
536.6 0.8045077422533068 0.7430915116239825 0.0033135899246338474 -0.0014128071998092246 0.002844269265228237 0.00020932049868243748 0.10518179601356496 1.090859557808
542.5 0.8973278547837391 0.6219062643312968 0.00279661276087257 -0.0014520128183560682 0.0029545992170612336 -0.0010943790130748929 0.2493198065297542 1.0654014870539645
548.4000000000001 0.9731267958376455 0.49231871536777305 0.002495948114411571 -0.000912288913839287 0.0021892242708455175 -0.001330712625558022 0.386570018444629 1.020445461086929
554.3 1.0289749902599497 0.3523978666145471 0.0019552499007199765 -0.001611718120351633 0.002007727068021922 -0.001489502019130236 0.5184784501433908 0.9608139954993845
560.2 1.0646518698881533 0.20822013933133798 0.0021938500225515208 -0.0013602354701713576 0.0012158002784657736 -0.0009424428586824517 0.6410355313198958 0.8826477442456089
566.1 1.0814868132211644 0.061147983452945656 0.0010739118450177505 -0.0010731724498160271 0.0008051810614947094 -0.0013283305382822848 0.7502689088750747 0.7887540253761535
572.0 1.077604595655119 -0.08428166297242852 0.0014981039352778647 -0.0013167436174448695 0.0006525598286734158 -0.0006479328736894681 0.8468409893499012 0.6834175007134377
577.9000000000001 1.0553055756794159 -0.22708181485950946 0.0011678670389740427 -8.11754122085739e-05 8.445472711054425e-05 -0.0003236393375423772 0.9271161323496072 0.5663009729072127
583.8 1.0133455074299518 -0.36531615231327 0.0013876286665199138 -0.0013113750280684118 0.0009632211979650726 -0.00020685923399433475 0.9895729056672007 0.43954389089954743
589.7 0.9532679250471492 -0.4968608342647962 0.0009906824298451748 -0.00037870474454309097 0.0008597818003023089 -0.0004073109720668921 1.0368398920663753 0.3068409153325327
595.6 0.8829270830897588 -0.6108248685681483 0.0017942861655771078 6.437278325446065e-05 0.00010046606136601684 -4.6763242322155945e-05 1.0594859441876698 0.17440668671496193
601.5 0.7928958990848674 -0.722121633151713 0.0013150171924409737 -0.00012644518454213793 0.000396277392033039 0.00036579993659828595 1.0706090932699899 0.03673141954621252
607.4000000000001 0.6900310899502735 -0.8180234627912517 0.0012194488914363138 1.8817976910312257e-05 0.000730878699256012 -8.634316509630426e-06 1.0666787681338197 -0.09982575210992535
613.3000000000001 0.5783487020036042 -0.9032467156966346 0.0017393596651998989 0.0006368480774775011 0.00011111470088725323 -0.000242510003858156 1.0423002565030886 -0.23352615150367922
619.2 0.4564497626191161 -0.9698585832383927 0.002338326460850784 0.0007419201651458889 0.0011715010265767106 0.0002556763358734701 1.0035584672048423 -0.36418247219450894
625.1 0.3271798953799919 -1.024020538370726 0.0021980206981329167 0.00036168748725096204 0.0012045279175377935 0.0009103332411820646 0.9484330024502993 -0.4879208841515693
631.0 0.19317674607573995 -1.058273470516016 0.0031011724790228094 0.0006069904875043169 0.0021776813437561445 0.0006816686887413155 0.8797654239709614 -0.6021435080060774
636.9 0.054681952801760136 -1.0786341039062004 0.0042580788650454955 -0.0006449701840227766 0.001773778694964643 0.0008019864562022054 0.7976707637253438 -0.7072356182097101
642.8000000000001 -0.08313439663599191 -1.0788031098300708 0.0030846682407583725 -0.0005686644199865164 0.0018637023672153532 0.00012084508583597788 0.7037106860696679 -0.800440172235812
648.7 -0.2234321116673527 -1.0639197855048557 0.0034848541607213693 -0.0012119990403449748 0.00235932000323491 0.00040729984107687803 0.5992562031180624 -0.8827529447840036
654.6 -0.36052849497454814 -1.0318476817497144 0.00337919449953625 -0.0008632038323844361 0.003553241721993766 -0.0006865772053757341 0.48563201483853924 -0.9510882636011221
660.5 -0.49401937549422636 -0.9830354429481126 0.003999365795395645 -0.0012028054227335133 0.0032270123571351557 -0.0005316081624755224 0.36609409594767256 -1.0069161793527919
666.4000000000001 -0.6206938592856017 -0.9156280475899703 0.003920321776990932 -0.0032667645272993714 0.0026356865689224802 -0.001411010571393248 0.24035699303555447 -1.0477238483082099
672.3000000000001 -0.7373268964193813 -0.8323022265731533 0.0029279662209326916 -0.002773767959528996 0.0027175151188487696 -0.0011286458484135093 0.10999356277303193 -1.072697885773452
678.2 -0.8452279436758144 -0.7340865042961008 0.0038572895375120937 -0.0022644698863126403 0.0031688485009479968 -0.0022362791250594353 -0.021818803614180423 -1.0798495631782132
684.1 -0.9409170327041244 -0.6202948203094681 0.003643087445386955 -0.003027612204885868 0.0028365313794457606 -0.0019349345385691612 -0.15564163721169347 -1.0729095218416573
690.0 -1.0191299812841406 -0.4937232751952574 0.003077370178725869 -0.003287874333591413 0.002982008214747279 -0.003001064754302011 -0.28675574928628494 -1.0501955588631238
695.9000000000001 -1.082930032355647 -0.35565560780025574 0.003264052610357418 -0.00451224935307856 0.003040468300972085 -0.002937361171101438 -0.41332182854891975 -1.0125044640236331
701.8000000000001 -1.1271655498763913 -0.20907352580547545 0.0037029810506111214 -0.004906811849446238 0.003253700585570865 -0.003622985470614811 -0.5396523718309644 -0.9594777183013472
707.7 -1.1516294839707437 -0.05647650463051941 0.0024012093194322225 -0.005975427979511895 0.002236439298697933 -0.004421095522901939 -0.6576580625389964 -0.889560788958343
713.6 -1.1554616930129022 0.0996596431625307 0.0018294528370053215 -0.006248760116657714 0.002723136547254772 -0.005586136200433683 -0.7664144477935447 -0.8064260305588478
719.5 -1.138291633348257 0.2560013640291457 0.0012755068220773552 -0.007111840689235246 0.0010840832636587186 -0.00580776448035058 -0.8663033275630616 -0.7092186034470097
725.4000000000001 -1.0970936401275821 0.41111853305968493 0.0003544725361070219 -0.0073653899440362025 0.0005657064543278409 -0.005557626270248915 -0.9522051788986443 -0.6004781919815142
731.3000000000001 -1.0366640408544787 0.5583655172569414 -0.0012840251436675072 -0.007112894903210222 -5.461967228945952e-05 -0.006458382300287764 -1.0264936262322826 -0.47973780198625887
737.2 -0.9534558900228952 0.6981445177622285 -0.0029193946120417507 -0.0075301708408074194 -0.00128233240751326 -0.006379229237307224 -1.0845888609193157 -0.3479415830791541
743.1 -0.8518568020851256 0.8238938873265664 -0.004570799416371003 -0.007040475222956182 -0.0021825552027356972 -0.006305853888501609 -1.1254638495684426 -0.2114732051137965
749.0 -0.7291843228345322 0.9332796120305008 -0.0038101502084009983 -0.0067353631595398625 -0.003845128969888144 -0.00567094031550965 -1.1484894933437946 -0.0682931831495919
754.9000000000001 -0.5970973549464853 1.0235917538982167 -0.005762820993910305 -0.005829696088222055 -0.004975114480264805 -0.0067857691075039585 -1.1506240443491282 0.07674477275568023
760.8000000000001 -0.44982553052368873 1.094452801484268 -0.006994028234384519 -0.004723111223337389 -0.005452641015366356 -0.006490881651797488 -1.1363382634261432 0.2230298899559054
766.7 -0.2928508796765444 1.1439670743241337 -0.008255770682251749 -0.005291543646953824 -0.00626621205536141 -0.004475523534331505 -1.1027150051083177 0.36623256062156856
