!Created with skrf (http://scikit-rf.org).
# MHz S RI R 50.0 
!freq ReS11 ImS11 ReS21 ImS21 ReS12 ImS12 ReS22 ImS22
100.0 -0.9121691001951324 0.34780370904750213 0.021187741136210594 0.026438400791168024 0.017837166290097916 0.022153567539120306 -0.7867759702597551 0.5835207248689825
105.9 -0.8764074375215223 0.4056482254831601 0.02157759362589033 0.02552366272055889 0.01847136427379067 0.02126173270028832 -0.7399145848826549 0.6185118811854257
111.8 -0.3569525193507792 -0.8903990711645351 0.041781427018778815 -0.017044605155807406 0.03764816934643296 -0.014519070452454251 -0.2470462605990471 -0.9280028171519435
117.7 -0.4302688959762118 -0.9048156402014728 0.041976255569617975 -0.019988941552758835 0.03694374723427958 -0.016546011925261696 -0.3060981436234677 -0.9568909626564029
123.6 -0.4770132563827291 -0.8734230910378982 0.038833479532605734 -0.021839447781865126 0.03397441611775367 -0.018667181816666614 -0.35029763610707687 -0.9318655839650651
129.5 -0.5116962453826952 -0.8462117555262969 0.03758058667889397 -0.02134140305818796 0.03193681558735465 -0.02019497678312843 -0.38067635579099396 -0.9132223489811864
135.4 -0.5691045020382552 -0.804250271407539 0.03524913611272777 -0.023741862765090764 0.030895912786802697 -0.020916117826776662 -0.4360342358428519 -0.885849918375453
141.3 -0.6400228681267411 -0.763672279521122 0.03322351975011711 -0.025787166112600256 0.029249916937546905 -0.022477103838834257 -0.5065260544919472 -0.8626756980298455
147.2 -0.65065400410761 -0.7179584670282427 0.030414355872786264 -0.02543642824471317 0.028536559966663856 -0.019541623973501378 -0.5203274608313673 -0.8146524696882775
153.1 -0.6419548827616999 -0.7238916137864149 0.03000965164574552 -0.024597220980649048 0.02624803635619076 -0.020431884684570963 -0.5039709686242853 -0.8200306882959786
159.0 -0.7112270727481377 -0.6906013177987146 0.029912770240286362 -0.026267518595443212 0.025444870825061847 -0.023778573078660156 -0.5705820065876931 -0.8148829282365065
164.9 -0.7216690152047803 -0.6655802603825741 0.028185816957549816 -0.02743036495776985 0.02586569225476062 -0.021871993091240265 -0.5770823482966556 -0.7933178786091745
170.8 -0.8127021689732655 -0.5794479711975907 0.027402471010334564 -0.02834962471114198 0.024491375690772647 -0.023564777561701906 -0.6774869133723145 -0.7374322766358621
176.7 -0.823448475274982 -0.5470768329006108 0.026459401461163882 -0.027833893898513467 0.02236591470207122 -0.02413673787755482 -0.6877231638701912 -0.7137217481783416
182.60000000000002 -0.8096128949164149 -0.5493164523294057 0.02540584166651109 -0.027128967400035064 0.02227952455967335 -0.02404919787234774 -0.6688428985794449 -0.7161450266287009
188.5 -0.8557401632092605 -0.49462632352649416 0.021688283201441477 -0.029863414534591737 0.019817475691826805 -0.025520944150898308 -0.721273798227654 -0.6771090593233319
194.4 -0.8941182322570342 -0.4423051324154836 0.021384600177568065 -0.029686437940748805 0.01924735169404406 -0.02525118655959249 -0.766637765724891 -0.6469459293230793
200.3 -0.9012917760740194 -0.43698285258089736 0.018990924245901736 -0.031543205365710154 0.01691102196346849 -0.026574412420650634 -0.7710826465689383 -0.6526480138103495
206.2 -0.8948483840272268 -0.39717672195181025 0.020197158335341223 -0.029939206150848663 0.016940397036993488 -0.024373095865406872 -0.7679679675632028 -0.6103579752781172
212.10000000000002 -0.897364574615339 -0.3794283686166036 0.01961140532434809 -0.02757709138544156 0.016580522708910115 -0.024541305630965692 -0.7685067058034666 -0.597829665882454
218.0 -0.937384517967415 -0.3099826309017452 0.015493143896891335 -0.029147485040505735 0.013023732936162985 -0.026245444142029145 -0.8246396794640893 -0.5510123893131452
223.9 -0.9556034246838185 -0.27773762707405003 0.01416097774231423 -0.029981974043342813 0.012118093524369334 -0.025127862453734585 -0.8512631710894989 -0.5374271078699828
229.8 -0.9560730020105884 -0.24398288898962134 0.01209112470536035 -0.029643953456851946 0.01051596639787464 -0.024561924156188807 -0.8582291051430788 -0.5100266222970669
235.70000000000002 -0.9456644608258795 -0.25271181952829674 0.011243126465585502 -0.028434551552482208 0.011075152348641908 -0.02371416977704379 -0.8374461839100176 -0.51685475161998
241.60000000000002 -0.9576322398649727 -0.22548669293558923 0.01059341605193571 -0.027109860401751666 0.009169687691351142 -0.024292625970328552 -0.852769507776115 -0.5060386019911107
247.5 -0.9583659993170105 -0.19830751102726615 0.010002009005999426 -0.02610650008781342 0.008524130439548172 -0.022879088498247137 -0.856531217030131 -0.4838336051670917
253.4 -0.9506150640327101 -0.19300901804158013 0.010402235269548287 -0.026398721462810568 0.0076195394729132926 -0.021943757711628892 -0.843762068720615 -0.4754110075256612
259.3 -0.9635756252894413 -0.16884796886264727 0.0089284182865752 -0.026381059513106864 0.0073761635773627555 -0.021593903674361203 -0.8598681069499201 -0.46507556440424613
265.20000000000005 -0.9790366857280076 -0.11443287952785935 0.008711637710801039 -0.025320959207917035 0.0060163127981089515 -0.02167723467198621 -0.8932284229018238 -0.43891914495543477
271.1 -0.9805111560247955 -0.04236790971264008 0.005959774033624248 -0.026668996493564037 0.005737774869674572 -0.02022561379988595 -0.9161100531463211 -0.3755482253923694
277.0 -0.9849779485314517 -0.03424763949859226 0.005976038298178207 -0.02588778656724947 0.004860704422717528 -0.019896979650903868 -0.9138410221022814 -0.376683625006462
282.9 -0.9885593750159533 -0.020233073143145812 0.004119551797323725 -0.025152513738902794 0.005005405592770875 -0.019110773414495633 -0.9214177957739869 -0.38046625915321686
288.8 -0.9877828371232518 -0.03816529844991321 0.004522860195629325 -0.024464430853127623 0.003869729562237953 -0.019232176184667583 -0.9021286655068863 -0.39213373609837293
294.70000000000005 -0.989402593536799 0.026150713053033948 0.00409865122196894 -0.023541818217381313 0.0034912023547047037 -0.01865236436663014 -0.9282280598513925 -0.34820188447980616
300.6 -0.9828931314990117 0.03657807936186032 0.003549836789303444 -0.022479257077462306 0.001952083379437266 -0.018460896471619442 -0.9223398936898233 -0.3392917258012242
306.5 -0.9801089556074797 0.10350783001398284 0.0025304580036781483 -0.022862014454586323 0.0023154812934169616 -0.01769536777347161 -0.9446079881179509 -0.28978016592848765
312.4 -0.9787323816497013 0.12459078797929003 0.0010323452819466811 -0.02102198028353597 0.0019373553281270568 -0.017890410240247498 -0.9558276817100165 -0.2790358734054551
318.3 -0.9743167026814401 0.133825886475583 0.0028978835168113515 -0.020500670188770807 0.002215604843584584 -0.01637638907223553 -0.9506097843344962 -0.27628036166498326
324.20000000000005 -0.9762528674167739 0.1498294033696985 0.002740469550827926 -0.020648740335652577 0.001823820678026516 -0.015609593405423177 -0.9461727478712643 -0.26460154348042186
330.1 -0.9633354054485365 0.20789677825242214 0.0012255129676270367 -0.019583707969988286 0.0011762372902700397 -0.015026671056012611 -0.9695113061555594 -0.22165914517383858
336.0 -0.95099158407036 0.2567458799969882 -0.00027064662599156505 -0.018171281142891134 0.0007511107437920215 -0.015359710504871367 -0.981052065220376 -0.1772306971142865
341.9 -0.9738724941372982 0.11793776550099098 0.0011551118709561914 -0.01823940860178587 0.0003266701541468174 -0.01426783773145152 -0.9086200511619537 -0.30680398568000217
347.8 -0.9534312632879082 0.24097445348051355 -0.00038462882839317006 -0.01714720885606603 -0.00035027809314045676 -0.0135681011308613 -0.9648591333894802 -0.20258362310121475
353.70000000000005 -0.9443475393774369 0.2585487621618519 -0.000891127735066948 -0.01662983186471678 0.0006151323971313528 -0.013618476614422162 -0.960653688011019 -0.19656500098448432
359.6 -0.9412722493075827 0.260980248376058 -0.0009153263061127694 -0.017253811041866948 -0.00014124495363687607 -0.012550633186543425 -0.953008388429267 -0.19773653564663277
365.5 -0.9197375675778297 0.3355769652756556 -0.00045327697712083755 -0.016160553226233162 -0.00038720287015569333 -0.01317924782042427 -0.9807289346558413 -0.13263819164938895
371.40000000000003 -0.9163804946801118 0.3435900004506871 -0.001012103617281659 -0.014380881193565098 -0.0007064232181471388 -0.012456462955217937 -0.970155715618449 -0.12662931023374485
377.3 -0.9123824108502386 0.3577084935697152 -0.0019078855484123127 -0.013200191480736026 -0.00026786676162718007 -0.01196397288650484 -0.9775970899556122 -0.12069439482397885
383.20000000000005 -0.9076519457531981 0.3637841048338873 -0.0006037668086859517 -0.013738523226768065 -0.00043381952365735695 -0.011284806213479114 -0.9809541553805704 -0.1202236936130177
389.1 -0.9099503599831529 0.36023031705842173 -0.001529895728193318 -0.013812206841949422 -0.0008399344121766166 -0.011307708345987636 -0.9789262151691429 -0.13253154390307062
395.0 -0.8789446671206921 0.4142563329730738 -0.0006471269919857888 -0.013914966470818264 -0.0016384354439628484 -0.01077532568294889 -0.982419280830262 -0.07812190372699804
400.90000000000003 -0.874443976195545 0.4412774763691956 -0.0014421583157081565 -0.012020441335986965 -0.0011755221813110838 -0.010323573180222378 -0.986768240991885 -0.05641224569118884
406.8 -0.8620003774308874 0.4488761096540112 -0.0016522096079519045 -0.011510477919411533 -0.0015874487786164155 -0.01006165159117484 -0.9770055749053469 -0.048941563036932985
412.70000000000005 -0.8814042734331823 0.43573271629189536 -0.0008431248720551244 -0.011902155812419234 -0.0006295521716748369 -0.010457006385315548 -0.9742525295443069 -0.08317292191343341
418.6 -0.8540122642225978 0.4695937056744915 -0.0024479474343595863 -0.010992967936002239 -0.0014699528331254277 -0.008649833431878345 -0.984495554153368 -0.04482854877367488
424.5 -0.8683076319739024 0.4650037109597234 -0.0016708555587378936 -0.010194797305499017 -0.0019460427208086225 -0.008749159726005467 -0.9792088103257668 -0.05975402660338957
430.40000000000003 -0.8666345488826719 0.48540723352824744 -0.0011735025156712458 -0.010593436341073691 -0.0016253535193955352 -0.0087226277367984 -0.9784797536722547 -0.054746336555682396
436.3 -0.8289587920583257 0.5099077431042973 -0.0014589032815588215 -0.009313695321143293 -0.0014634606160584351 -0.008698709011938173 -0.9851098314403933 -0.017210002620124832
442.20000000000005 -0.8174864587468874 0.5395193886041844 -0.0019595385375068756 -0.009825927296582777 -0.002127796534534533 -0.007178567184675007 -0.9820262711102582 0.0050568144776913454
448.1 -0.7901903619033227 0.5628588160096191 -0.0020494846646620453 -0.008813863827568751 -0.002190592155161668 -0.0072358174198312464 -0.976599324638007 0.03581771663571372
454.0 -0.8021021555897441 0.552391091944239 -0.0017809651832859457 -0.008557426847064318 -0.002175016673605362 -0.0068374465397898175 -0.9813013942386883 0.010411599715044129
459.90000000000003 -0.796581028145541 0.5701496029351635 -0.002361203658337249 -0.007185801060983985 -0.001978928401683881 -0.005962563848075836 -0.9803983678682152 0.02149338282659381
465.8 -0.7625475184059068 0.6223305805284842 -0.003029677250755837 -0.007659379875653248 -0.0015499770287248965 -0.006281475080787954 -0.9734727638753063 0.07055204357635823
471.70000000000005 -0.8007342992653415 0.5840549356549571 -0.0011675947553614872 -0.008247849668731329 -0.0015310831170348223 -0.005461160078813107 -0.9726123767251784 0.01012414680285996
477.6 -0.7894775404692258 0.6042882201169829 -0.0019861731816357047 -0.007371766512802037 -0.0013565480983059445 -0.005625636655518943 -0.9772572755614535 0.028744802020646082
483.5 -0.7480911958801124 0.6122328225686682 -0.0016485793471505167 -0.006395318801337696 -0.0020126210925088565 -0.005633121231093944 -0.969260956910028 0.06434886492822822
489.40000000000003 -0.7316139737589128 0.6392896957671624 -0.0026354044415104554 -0.006403504995381692 -0.0015765783664458443 -0.003960995701828367 -0.9655403306770456 0.08047407754921747
495.3 -0.7406690458983036 0.6399297942211327 -0.0022535837753525525 -0.005478609556379219 -0.002113560336082366 -0.004931430860575551 -0.9674378466066598 0.0662909302556161
501.20000000000005 -0.6966237237259922 0.6709943758076895 -0.0015498473494191289 -0.004949423216490572 -0.0016344777657735573 -0.0033656499365258318 -0.9648137886502142 0.11096968111824548
507.1 -0.6961939543905752 0.6874150173122676 -0.0013259035372606622 -0.005073356339663866 -0.0017715421520300165 -0.003705478987785152 -0.9639355619189616 0.11868967013183508
513.0 -0.6810247630759568 0.7034309278286852 -0.0010999746947027995 -0.0039613351648642115 -0.001767721479465033 -0.0038085530550056807 -0.9603472488502065 0.12462323179147097
518.9000000000001 -0.6907270338267234 0.7183731719041229 -0.0015369774588436787 -0.00431024066785962 -0.001146418328963878 -0.003334629740836185 -0.9639866568096872 0.12096673529389189
524.8 -0.6724288291805968 0.7140650164075635 -0.0005162040068584823 -0.0036155563943763847 -0.0011327364290039696 -0.0035699759782592154 -0.9606054206730353 0.1269814429327926
530.7 -0.6688033053407102 0.7256161291617989 -0.0011568203615389904 -0.0030431449672143045 -0.0006157564668253571 -0.002943012832176403 -0.9647098817252548 0.12861233071082884
536.6 -0.6490517028303326 0.7553628983659277 -0.0012197079633124047 -0.0030408986774080196 -8.072099127407532e-05 -0.0025004861721077075 -0.9620017623758361 0.14517496733381524
542.5 -0.5928672792137595 0.7864202975489064 -0.0009487601797490798 -0.00266451418814819 -0.0010321373480783286 -0.002583531163538087 -0.9511375398228036 0.20476268979798382
548.4000000000001 -0.6172425490180297 0.7512197257923231 -0.00020035108811388222 -0.002390582309594835 -0.000948383164058661 -0.002054990998907689 -0.9567056012415648 0.15271728619253203
554.3 -0.5885887743539163 0.7860181063158206 -0.0007350651409736964 -0.002165569767498196 -0.000869103252880908 -0.0020009579075808445 -0.9541875563133602 0.19283562520567488
560.2 -0.5475292390984048 0.8025244800977568 -8.21585121384796e-05 -0.0023241419150525594 -0.0004483991441985329 -0.0013000577611160984 -0.9415357017754727 0.23389466545878157
566.1 -0.5383067090580744 0.81468849730406 -0.0002764982278394878 -0.0013635485889002517 -0.000701544084396423 -0.001211031916461777 -0.9464565908342588 0.23207889814405303
572.0 -0.5618734461480509 0.8056850614666399 1.0582681828938044e-05 -0.0018601938895539284 -0.00014266682182968794 -0.000824558274326245 -0.9507794879166355 0.1978841064855883
577.9000000000001 -0.5055555758148266 0.8218481562532366 0.0007352581144429548 -0.0007730128196846276 -0.0001758728543177135 -0.00024658131116041585 -0.9439407632770055 0.25864705085884987
583.8 -0.4755298549578444 0.8143901147306725 0.0003419430339246669 -0.0016943555628134506 0.0004992363263087639 -0.0007418044867609971 -0.9243163614941521 0.27582203177086173
589.7 -0.48532528097164784 0.8372095672492021 0.0006686808629338657 -0.0007215614432480015 0.00038927651474975923 -0.0007826052782952673 -0.9359970079376791 0.26543963108072155
595.6 -0.4911273233635487 0.8504805347286496 0.0016084899439692882 -0.000556377457235463 6.047941856824736e-05 -8.430788405059441e-05 -0.9359213869961898 0.25797617595423883
601.5 -0.48356944896438875 0.8583354725065012 0.0011794635707965283 -0.0004247936193146625 0.0004760183818739621 0.00017033775075369617 -0.9381882199088455 0.2574318248144232
607.4000000000001 -0.46314805849303786 0.8625826906360405 0.001157560669422637 -0.00013308151045056374 0.0006525196432546922 -0.00021062301519478356 -0.937085652515276 0.2732604573988113
613.3000000000001 -0.40108678587764734 0.8843789482034324 0.0016794102908709839 0.0005306880237489548 5.8437678722791026e-05 -0.00024545035555483306 -0.9162157379565855 0.3259111069511373
619.2 -0.3989691361331773 0.8783158836544545 0.0021590022313099353 0.000907249501177741 0.0011284131605806334 0.0001373602852740657 -0.9182666132205961 0.32421298978525925
625.1 -0.42326080222814416 0.8760039664375144 0.002003748845853311 0.0007249695258666365 0.0011220217572944868 0.0008887326340320575 -0.9264893846299125 0.29244817155377106
631.0 -0.37990843533450597 0.8934650768649106 0.0026857248947095218 0.0014399677127590773 0.001977625798322322 0.0009444192342060018 -0.9142471415149462 0.32590425131389894
636.9 -0.38181056235244687 0.8826303481504361 0.003928596425593707 0.001146056421438865 0.0014032189032344093 0.0011649609210489253 -0.9101859695625614 0.32253508639614525
642.8000000000001 -0.37949545418018643 0.9107132412553962 0.0028776230549271147 0.0009814676942559017 0.0016019461845065465 0.0007821904211989639 -0.9170935299479598 0.32366512089552324
648.7 -0.33916743348328543 0.9005893129046663 0.0033318296919516025 0.0010310656798913518 0.0018322970086686126 0.0013200343565378603 -0.9052753650722568 0.3512106670982629
654.6 -0.3471477107664121 0.9383740634571516 0.002999360375519809 0.001703796981971828 0.003168677664888231 0.0014419110408614127 -0.9238206310039221 0.33232909735578925
660.5 -0.3225542982235764 0.9272792217197947 0.003425513175848363 0.002094471532773793 0.002661961198251518 0.0016071458138742422 -0.911717138639071 0.3542219040414216
666.4000000000001 -0.3432081496608517 0.9266052087433507 0.004736661154610347 0.0012426364843970993 0.0026528014276390147 0.0009458393449719676 -0.9259093890354068 0.32375095562793904
672.3000000000001 -0.29323338930374293 0.9416623311071122 0.003660237229322569 0.0012614166860410248 0.00236205102980364 0.0014186109524856215 -0.9073660049285412 0.3668235242071758
678.2 -0.30566627725426193 0.9163481937177901 0.003320450867094199 0.002565951709475675 0.0032931552648350145 0.00144312951786583 -0.9125494007030714 0.3467769235883108
684.1 -0.24647872566657117 0.9034166292371762 0.0034454397419792387 0.0024639947585779415 0.0027885981454192368 0.00148848877739243 -0.874872457007154 0.4088565519430775
690.0 -0.2524036213659503 0.9452822973062006 0.003456431404998753 0.002406760115678267 0.003462132278885452 0.0018309342434706776 -0.8972476449643361 0.38093372152553373
695.9000000000001 -0.22777929541484104 0.9597736108777076 0.00428883077348069 0.002981716892578797 0.003196475626306537 0.002247541850361628 -0.8923779446937616 0.3973843753791049
701.8000000000001 -0.17832265399016412 0.9231828907756566 0.0042007954503755504 0.0034754309798078614 0.003528373664916283 0.0026084594929974 -0.857752584596318 0.44516593183361214
707.7 -0.20432491956999024 0.9430395860268723 0.004883447586730356 0.0031660696317557238 0.003927253742199184 0.002095623021532471 -0.8798959271536577 0.40660125662875507
713.6 -0.2306556240443076 0.9410826373803468 0.004737691717408613 0.0033853622559121125 0.00457350276520248 0.0031166104213179694 -0.8929026336773054 0.37702085091957027
719.5 -0.15834023620407922 0.9326733122916709 0.005181138357916538 0.0035445703872033474 0.004720446375612282 0.002162219944635018 -0.8567468151002534 0.4423155112548367
725.4000000000001 -0.1734054524201582 0.9487785252846919 0.005240398596351554 0.0038071488488394907 0.004231315235244702 0.002357413917316104 -0.8762406796128667 0.4148367931576612
731.3000000000001 -0.19753493426352786 0.9729130556233048 0.005512163408896239 0.003498375330896894 0.004795069905618127 0.0028353584689402196 -0.8935399307360979 0.3801938282710556
737.2 -0.14159904374293164 0.9588696944338098 0.006354520306073129 0.0030214194354264675 0.005055343192831288 0.0024273004083867644 -0.8682886141941278 0.4283012514087584
743.1 -0.12882744844187557 0.9875146456479904 0.006962047148917973 0.002744694084669922 0.005156003952540294 0.0024749369095259303 -0.8783793194810139 0.42444789609578254
749.0 -0.0832987136695685 0.9514104796344931 0.005534280033053033 0.003506128653012621 0.0054357410396597 0.0017660803583272073 -0.8377942413845942 0.4757202569016479
754.9000000000001 -0.09241364605082372 0.9535965391026023 0.006354358285009796 0.0027788133138195556 0.006650579528539016 0.002678993320038557 -0.8502578134136717 0.4591912349949379
