# MHZ S DB R 50								
!  frequency      S11 dB        S11 Deg 								
   10.000000    -0.0136364   179.1375758								
   20.000000    -0.0145714   179.0137143								
   30.000000    -0.0154054   178.8964865								
   40.000000    -0.0161538   178.7851282								
   50.000000    -0.0168293   178.6785366								
   60.000000    -0.0174419   178.5761628								
   70.000000    -0.0180000   178.4772222								
   80.000000    -0.0185106   178.3818085								
   90.000000    -0.0189796   178.2888776								
  100.000000    -0.0193878   178.2124490								
  110.000000    -0.0194286   178.2045102								
  120.000000    -0.0194694   178.1965714								
  130.000000    -0.0195102   178.1886327								
  140.000000    -0.0195510   178.1806939								
  150.000000    -0.0195919   178.1727551								
  160.000000    -0.0196327   178.1648163								
  170.000000    -0.0196735   178.1568775								
  180.000000    -0.0197143   178.1489388								
  190.000000    -0.0197551   178.1410000								
  200.000000    -0.0197959   178.1330612								
  210.000000    -0.0206122   177.9681633								
  220.000000    -0.0214286   177.7964286								
  230.000000    -0.0224490   177.6191837								
  240.000000    -0.0234694   177.4374490								
  250.000000    -0.0242857   177.2521429								
  260.000000    -0.0255102   177.0629592								
  270.000000    -0.0265306   176.8703061								
  280.000000    -0.0273469   176.6760204								
  290.000000    -0.0281633   176.4875510								
  300.000000    -0.0287755   176.3044898								
  310.000000    -0.0291837   176.1268367								
  320.000000    -0.0295918   175.9543878								
  330.000000    -0.0296939   175.8311224								
  340.000000    -0.0297959   175.7078571								
  350.000000    -0.0300000   175.5845918								
  360.000000    -0.0300000   175.4612245								
  370.000000    -0.0300000   175.3381633								
  380.000000    -0.0300000   175.2147959								
  390.000000    -0.0300000   175.0917347								
  400.000000    -0.0300000   174.9686735								
  410.000000    -0.0300000   174.8457143								
  420.000000    -0.0300000   174.7225510								
  430.000000    -0.0300000   174.5994898								
  440.000000    -0.0300000   174.4766327								
  450.000000    -0.0300000   174.3537755								
  460.000000    -0.0300000   174.2307143								
  470.000000    -0.0300000   174.1074490								
  480.000000    -0.0300000   173.9841837								
  490.000000    -0.0303061   173.8612245								
  500.000000    -0.0306122   173.7379592								
  510.000000    -0.0310204   173.6148980								
  520.000000    -0.0313265   173.4917347								
  530.000000    -0.0315306   173.3685714								
  540.000000    -0.0319388   173.2453061								
  550.000000    -0.0323469   173.1218367								
  560.000000    -0.0327551   172.9987755								
  570.000000    -0.0329592   172.8754082								
  580.000000    -0.0333673   172.7523469								
  590.000000    -0.0337755   172.6290816								
  600.000000    -0.0341837   172.5062245								
  610.000000    -0.0345918   172.3830612								
  620.000000    -0.0350000   172.2597959								
  630.000000    -0.0354082   172.1366327								
  640.000000    -0.0358163   172.0135714								
  650.000000    -0.0362245   171.8905102								
  660.000000    -0.0366327   171.7674490								
  670.000000    -0.0370408   171.6440816								
  680.000000    -0.0374490   171.5209184								
  690.000000    -0.0378571   171.3978571								
  700.000000    -0.0382653   171.2745918								
  710.000000    -0.0386735   171.1515306								
  720.000000    -0.0390816   171.0282653								
  730.000000    -0.0392857   170.9053061								
  740.000000    -0.0393878   170.7822449								
  750.000000    -0.0394898   170.6592857								
  760.000000    -0.0394898   170.5361224								
  770.000000    -0.0396939   170.4132653								
  780.000000    -0.0397959   170.2903061								
  790.000000    -0.0397959   170.1675510								
  800.000000    -0.0397959   170.0442857								
  810.000000    -0.0398980   169.9212245								
  820.000000    -0.0400000   169.7985714								
  830.000000    -0.0400000   169.6755102								
  840.000000    -0.0400000   169.5526531								
  850.000000    -0.0400000   169.4297959								
  860.000000    -0.0400000   169.3074490								
  870.000000    -0.0400000   169.1850000								
  880.000000    -0.0400000   169.0625510								
  890.000000    -0.0400000   168.9366327								
  900.000000    -0.0400000   168.8047959								
  910.000000    -0.0400000   168.6684694								
  920.000000    -0.0400000   168.5275510								
  930.000000    -0.0400000   168.3814286								
  940.000000    -0.0400000   168.2302041								
  950.000000    -0.0400000   168.0736735								
  960.000000    -0.0400000   167.9126531								
  970.000000    -0.0400000   167.7465306								
  980.000000    -0.0401020   167.5755102								
  990.000000    -0.0402041   167.3990816								
 1000.000000    -0.0405102   167.2181633								
 1010.000000    -0.0405102   167.1259184								
 1020.000000    -0.0405102   167.0323469								
 1030.000000    -0.0407143   166.9376531								
 1040.000000    -0.0409184   166.8418367								
 1050.000000    -0.0411224   166.7444898								
 1060.000000    -0.0413265   166.6459184								
 1070.000000    -0.0415306   166.5463265								
 1080.000000    -0.0417347   166.4453061								
 1090.000000    -0.0419388   166.3434694								
 1100.000000    -0.0421429   166.2400000								
 1110.000000    -0.0423469   166.1355102								
 1120.000000    -0.0425510   166.0295918								
 1130.000000    -0.0427551   165.9226531								
 1140.000000    -0.0429592   165.8144898								
 1150.000000    -0.0431633   165.7048980								
 1160.000000    -0.0433673   165.5940816								
 1170.000000    -0.0435714   165.4822449								
 1180.000000    -0.0437755   165.3689796								
 1190.000000    -0.0439796   165.2544898								
 1200.000000    -0.0441837   165.1385714								
 1210.000000    -0.0443878   165.0215306								
 1220.000000    -0.0445918   164.9032653								
 1230.000000    -0.0447959   164.7836735								
 1240.000000    -0.0450000   164.6627551								
 1250.000000    -0.0452041   164.5409184								
 1260.000000    -0.0454082   164.4189796								
 1270.000000    -0.0456122   164.2969388								
 1280.000000    -0.0458163   164.1753061								
 1290.000000    -0.0460204   164.0537755								
 1300.000000    -0.0462245   163.9321429								
 1310.000000    -0.0464286   163.8104082								
 1320.000000    -0.0466327   163.6887755								
 1330.000000    -0.0468367   163.5669388								
 1340.000000    -0.0470408   163.4451020								
 1350.000000    -0.0472449   163.3234694								
 1360.000000    -0.0474490   163.2017347								
 1370.000000    -0.0476531   163.0803061								
 1380.000000    -0.0478571   162.9587755								
 1390.000000    -0.0480612   162.8374490								
 1400.000000    -0.0482653   162.7158163								
 1410.000000    -0.0484694   162.5942857								
 1420.000000    -0.0486735   162.4728571								
 1430.000000    -0.0488776   162.3514286								
 1440.000000    -0.0490816   162.2301020								
 1450.000000    -0.0491837   162.1086735								
 1460.000000    -0.0493878   161.9874490								
 1470.000000    -0.0494898   161.8663265								
 1480.000000    -0.0494898   161.7451020								
 1490.000000    -0.0495918   161.6237755								
 1500.000000    -0.0497959   161.5023469								
 1510.000000    -0.0500000   161.3808163								
 1520.000000    -0.0500000   161.2592857								
 1530.000000    -0.0500000   161.1376531								
 1540.000000    -0.0500000   161.0164286								
 1550.000000    -0.0500000   160.8950000								
 1560.000000    -0.0500000   160.7737755								
 1570.000000    -0.0500000   160.6525510								
 1580.000000    -0.0500000   160.5312245								
 1590.000000    -0.0500000   160.4102041								
 1600.000000    -0.0500000   160.2892857								
 1610.000000    -0.0502041   160.1682653								
 1620.000000    -0.0504082   160.0471429								
 1630.000000    -0.0506122   159.9261224								
 1640.000000    -0.0508163   159.8051020								
 1650.000000    -0.0508163   159.6841837								
 1660.000000    -0.0510204   159.5628571								
 1670.000000    -0.0510204   159.4419388								
 1680.000000    -0.0510204   159.3209184								
 1690.000000    -0.0510204   159.2001020								
 1700.000000    -0.0511224   159.0793878								
 1710.000000    -0.0512245   158.9584694								
 1720.000000    -0.0514286   158.8377551								
 1730.000000    -0.0515306   158.7168367								
 1740.000000    -0.0515306   158.5958163								
 1750.000000    -0.0516327   158.4748980								
 1760.000000    -0.0516327   158.3539796								
 1770.000000    -0.0517347   158.2333673								
 1780.000000    -0.0519388   158.1126531								
 1790.000000    -0.0521429   157.9922449								
 1800.000000    -0.0523469   157.8717347								
 1810.000000    -0.0525510   157.7512245								
 1820.000000    -0.0527551   157.6306122								
 1830.000000    -0.0529592   157.5100000								
 1840.000000    -0.0531633   157.3892857								
 1850.000000    -0.0533673   157.2687755								
 1860.000000    -0.0535714   157.1481633								
 1870.000000    -0.0537755   157.0276531								
 1880.000000    -0.0539796   156.9071429								
 1890.000000    -0.0541837   156.7865306								
 1900.000000    -0.0543878   156.6662245								
 1910.000000    -0.0545918   156.5458163								
 1920.000000    -0.0546939   156.4254082								
 1930.000000    -0.0547959   156.3046939								
 1940.000000    -0.0550000   156.1844898								
 1950.000000    -0.0552041   156.0640816								
 1960.000000    -0.0554082   155.9437755								
 1970.000000    -0.0556122   155.8233673								
 1980.000000    -0.0558163   155.7030612								
 1990.000000    -0.0560204   155.5828571								
 2000.000000    -0.0562245   155.4627551								
 2010.000000    -0.0564286   155.3425510								
 2020.000000    -0.0566327   155.2224490								
 2030.000000    -0.0568367   155.1021429								
 2040.000000    -0.0570408   154.9820408								
 2050.000000    -0.0572449   154.8617347								
 2060.000000    -0.0574490   154.7416327								
 2070.000000    -0.0576531   154.6215306								
 2080.000000    -0.0578571   154.5015306								
 2090.000000    -0.0580612   154.3812245								
 2100.000000    -0.0580612   154.2610204								
 2110.000000    -0.0580612   154.1411224								
 2120.000000    -0.0580612   154.0210204								
 2130.000000    -0.0580612   153.9010204								
 2140.000000    -0.0582653   153.7808163								
 2150.000000    -0.0582653   153.6608163								
 2160.000000    -0.0584694   153.5407143								
 2170.000000    -0.0586735   153.4205102								
 2180.000000    -0.0588776   153.3006122								
 2190.000000    -0.0589796   153.1806122								
 2200.000000    -0.0590816   153.0608163								
 2210.000000    -0.0590816   152.9410204								
 2220.000000    -0.0591837   152.8216327								
 2230.000000    -0.0593878   152.7018367								
 2240.000000    -0.0594898   152.5822449								
 2250.000000    -0.0596939   152.4625510								
 2260.000000    -0.0597959   152.3426531								
 2270.000000    -0.0597959   152.2229592								
 2280.000000    -0.0597959   152.1031633								
 2290.000000    -0.0597959   151.9835714								
 2300.000000    -0.0597959   151.8639796								
 2310.000000    -0.0597959   151.7445918								
 2320.000000    -0.0597959   151.6250000								
 2330.000000    -0.0597959   151.5056122								
 2340.000000    -0.0597959   151.3862245								
 2350.000000    -0.0597959   151.2670408								
 2360.000000    -0.0597959   151.1478571								
 2370.000000    -0.0597959   151.0286735								
 2380.000000    -0.0597959   150.9098980								
 2390.000000    -0.0597959   150.7909184								
 2400.000000    -0.0598980   150.6719388								
 2410.000000    -0.0602041   150.5529592								
 2420.000000    -0.0605102   150.4341837								
 2430.000000    -0.0607143   150.3152041								
 2440.000000    -0.0609184   150.1964286								
 2450.000000    -0.0611224   150.0775510								
 2460.000000    -0.0613265   149.9587755								
 2470.000000    -0.0615306   149.8402041								
 2480.000000    -0.0617347   149.7216327								
 2490.000000    -0.0619388   149.6029592								
 2500.000000    -0.0621429   149.4843878								
 2510.000000    -0.0623469   149.3659184								
 2520.000000    -0.0625510   149.2475510								
 2530.000000    -0.0627551   149.1293878								
 2540.000000    -0.0629592   149.0112245								
 2550.000000    -0.0631633   148.8931633								
 2560.000000    -0.0633673   148.7751020								
 2570.000000    -0.0635714   148.6568367								
 2580.000000    -0.0637755   148.5388776								
 2590.000000    -0.0639796   148.4208163								
 2600.000000    -0.0641837   148.3026531								
 2610.000000    -0.0643878   148.1847959								
 2620.000000    -0.0645918   148.0669388								
 2630.000000    -0.0647959   147.9492857								
 2640.000000    -0.0650000   147.8316327								
 2650.000000    -0.0652041   147.7138776								
 2660.000000    -0.0654082   147.5963265								
 2670.000000    -0.0656122   147.4785714								
 2680.000000    -0.0658163   147.3609184								
 2690.000000    -0.0660204   147.2432653								
 2700.000000    -0.0662245   147.1255102								
 2710.000000    -0.0664286   147.0080612								
 2720.000000    -0.0666327   146.8907143								
 2730.000000    -0.0668367   146.7733673								
 2740.000000    -0.0670408   146.6562245								
 2750.000000    -0.0672449   146.5388776								
 2760.000000    -0.0676531   146.4215306								
 2770.000000    -0.0678571   146.3039796								
 2780.000000    -0.0682653   146.1864286								
 2790.000000    -0.0684694   146.0687755								
 2800.000000    -0.0688776   145.9511224								
 2810.000000    -0.0692857   145.8338776								
 2820.000000    -0.0696939   145.7163265								
 2830.000000    -0.0701020   145.5989796								
 2840.000000    -0.0705102   145.4815306								
 2850.000000    -0.0707143   145.3641837								
 2860.000000    -0.0711224   145.2469388								
 2870.000000    -0.0715306   145.1294898								
 2880.000000    -0.0719388   145.0122449								
 2890.000000    -0.0722449   144.8951020								
 2900.000000    -0.0724490   144.7780612								
 2910.000000    -0.0726531   144.6609184								
 2920.000000    -0.0728571   144.5433673								
 2930.000000    -0.0730612   144.4259184								
 2940.000000    -0.0732653   144.3086735								
 2950.000000    -0.0734694   144.1915306								
 2960.000000    -0.0736735   144.0742857								
 2970.000000    -0.0738776   143.9570408								
 2980.000000    -0.0740816   143.8402041								
 2990.000000    -0.0742857   143.7231633								
 3000.000000    -0.0744898   143.6060204								
 3010.000000    -0.0746939   143.4889796								
 3020.000000    -0.0748980   143.3718367								
 3030.000000    -0.0751020   143.2547959								
 3040.000000    -0.0753061   143.1376531								
 3050.000000    -0.0755102   143.0205102								
 3060.000000    -0.0757143   142.9034694								
 3070.000000    -0.0759184   142.7864286								
 3080.000000    -0.0761224   142.6695918								
 3090.000000    -0.0763265   142.5524490								
 3100.000000    -0.0765306   142.4355102								
 3110.000000    -0.0767347   142.3185714								
 3120.000000    -0.0769388   142.2017347								
 3130.000000    -0.0771429   142.0848980								
 3140.000000    -0.0773469   141.9681633								
 3150.000000    -0.0777551   141.8515306								
 3160.000000    -0.0780612   141.7348980								
 3170.000000    -0.0782653   141.6180612								
 3180.000000    -0.0784694   141.5013265								
 3190.000000    -0.0786735   141.3845918								
 3200.000000    -0.0790816   141.2674490								
 3210.000000    -0.0793878   141.1507143								
 3220.000000    -0.0797959   141.0338776								
 3230.000000    -0.0802041   140.9170408								
 3240.000000    -0.0806122   140.8004082								
 3250.000000    -0.0808163   140.6837755								
 3260.000000    -0.0812245   140.5671429								
 3270.000000    -0.0814286   140.4507143								
 3280.000000    -0.0818367   140.3344898								
 3290.000000    -0.0820408   140.2184694								
 3300.000000    -0.0822449   140.1022449								
 3310.000000    -0.0824490   139.9862245								
 3320.000000    -0.0826531   139.8701020								
 3330.000000    -0.0828571   139.7540816								
 3340.000000    -0.0832653   139.6379592								
 3350.000000    -0.0834694   139.5218367								
 3360.000000    -0.0836735   139.4058163								
 3370.000000    -0.0838776   139.2896939								
 3380.000000    -0.0840816   139.1736735								
 3390.000000    -0.0842857   139.0576531								
 3400.000000    -0.0844898   138.9418367								
 3410.000000    -0.0846939   138.8262245								
 3420.000000    -0.0848980   138.7108163								
 3430.000000    -0.0851020   138.5951020								
 3440.000000    -0.0853061   138.4795918								
 3450.000000    -0.0855102   138.3641837								
 3460.000000    -0.0857143   138.2487755								
 3470.000000    -0.0859184   138.1329592								
 3480.000000    -0.0861224   138.0174490								
 3490.000000    -0.0863265   137.9020408								
 3500.000000    -0.0865306   137.7868367								
 3510.000000    -0.0867347   137.6717347								
 3520.000000    -0.0869388   137.5565306								
 3530.000000    -0.0871429   137.4415306								
 3540.000000    -0.0873469   137.3265306								
 3550.000000    -0.0875510   137.2116327								
 3560.000000    -0.0877551   137.0968367								
 3570.000000    -0.0879592   136.9817347								
 3580.000000    -0.0881633   136.8671429								
 3590.000000    -0.0883673   136.7520408								
 3600.000000    -0.0885714   136.6373469								
 3610.000000    -0.0887755   136.5226531								
 3620.000000    -0.0889796   136.4080612								
 3630.000000    -0.0892857   136.2933673								
 3640.000000    -0.0894898   136.1788776								
 3650.000000    -0.0897959   136.0643878								
 3660.000000    -0.0902041   135.9500000								
 3670.000000    -0.0906122   135.8356122								
 3680.000000    -0.0910204   135.7216327								
 3690.000000    -0.0912245   135.6078571								
 3700.000000    -0.0915306   135.4939796								
 3710.000000    -0.0917347   135.3802041								
 3720.000000    -0.0919388   135.2664286								
 3730.000000    -0.0921429   135.1527551								
 3740.000000    -0.0923469   135.0390816								
 3750.000000    -0.0925510   134.9255102								
 3760.000000    -0.0927551   134.8120408								
 3770.000000    -0.0929592   134.6985714								
 3780.000000    -0.0931633   134.5848980								
 3790.000000    -0.0933673   134.4716327								
 3800.000000    -0.0935714   134.3582653								
 3810.000000    -0.0937755   134.2447959								
 3820.000000    -0.0939796   134.1315306								
 3830.000000    -0.0941837   134.0181633								
 3840.000000    -0.0943878   133.9048980								
 3850.000000    -0.0945918   133.7918367								
 3860.000000    -0.0947959   133.6789796								
 3870.000000    -0.0950000   133.5662245								
 3880.000000    -0.0952041   133.4532653								
 3890.000000    -0.0954082   133.3405102								
 3900.000000    -0.0956122   133.2276531								
 3910.000000    -0.0958163   133.1146939								
 3920.000000    -0.0960204   133.0018367								
 3930.000000    -0.0962245   132.8888776								
 3940.000000    -0.0964286   132.7760204								
 3950.000000    -0.0966327   132.6633673								
 3960.000000    -0.0970408   132.5511224								
 3970.000000    -0.0974490   132.4389796								
 3980.000000    -0.0978571   132.3268367								
 3990.000000    -0.0982653   132.2142857								
 4000.000000    -0.0986735   132.1017347								
 4010.000000    -0.0990816   131.9893878								
 4020.000000    -0.0994898   131.8769388								
 4030.000000    -0.0998980   131.7644898								
 4040.000000    -0.1003061   131.6522449								
 4050.000000    -0.1007143   131.5398980								
 4060.000000    -0.1011224   131.4278571								
