!Created with skrf (http://scikit-rf.org).
# Hz S RI R 50.0 
!freq ReS11 ImS11 ReS21 ImS21 ReS12 ImS12 ReS22 ImS22
100.0 0.07605344734357028 -0.03131778747496114 0.9430740560159544 0.41931329770887193 0.6338155040177529 0.8271777458834296 0.05332701224470211 -0.045651094383461835
125.106383 0.0764838864073085 -0.03315849116477339 0.9445085578677811 0.41453833763649595 0.6380744031413803 0.8256369763773419 0.05365023077297316 -0.046577441154479496
150.212766 0.07628216696943332 -0.03278635326771042 0.9450064264422122 0.411214136848944 0.6404078379297362 0.8209994291123827 0.05292773855609689 -0.04731745315541835
175.31914899999998 0.07769566977372797 -0.033651332136907144 0.9458536995826605 0.40703748435259357 0.6449881715529254 0.8191327394508039 0.053034656753705556 -0.046881328554461726
200.425532 0.07783857065560228 -0.03494630216220949 0.9472156458701572 0.40301582847141315 0.6482355964131632 0.817482076719551 0.05310716750355952 -0.04816233530559554
225.531915 0.07754857900295499 -0.03656437476920659 0.9499639585835233 0.39828886841424427 0.6514148665313785 0.8139598764081676 0.05356168551643259 -0.04772596655426675
250.638298 0.07742936680632621 -0.03644842312755803 0.9528040850974244 0.3935621388288131 0.6543525777234726 0.8111360825827196 0.05362528797238858 -0.04935362981983096
275.744681 0.07811484533529443 -0.03748877615924912 0.9528805727083023 0.3913247850213917 0.6586244766354876 0.8094694549309666 0.05341317698246369 -0.048950059914685644
300.851064 0.07723786828268389 -0.03826794021927736 0.9550721102196936 0.38570045934591696 0.6619887486272965 0.8068956604151185 0.05346986636623121 -0.04842953446819488
325.957447 0.07764754589107872 -0.039816383635702675 0.9569623207136045 0.3831115210658973 0.664332053911461 0.802725752092844 0.052477344650486625 -0.0501659907213437
351.06383 0.07856431811183981 -0.04052081994344616 0.9588887888673571 0.3785783748067137 0.667924260386422 0.8014016634917475 0.05294027118224004 -0.050557275950142554
376.170213 0.07766320750866718 -0.04102008184590973 0.9604891884542572 0.375291100666086 0.6697839014150455 0.7969458680357029 0.05364347399968266 -0.05044879351207464
401.276596 0.07924057085825083 -0.041738086696880776 0.9600171624802064 0.3706703868145257 0.6737031057570404 0.7948592001407747 0.053496862059604654 -0.05163968699762337
426.382979 0.07929903192721013 -0.04316410152890359 0.9624522995029605 0.3675002123217695 0.6765158440503838 0.7920567408933994 0.0541605597815981 -0.050637799901249766
451.48936199999997 0.0791581417964133 -0.044082100775547445 0.9641954459920803 0.36209343652012016 0.6802509133411663 0.7887768201640202 0.05338765376113403 -0.051349738505877554
476.59574499999997 0.07889225305670353 -0.04508777893744632 0.9645162408226643 0.35925558018674053 0.6827712052439044 0.7863307735782185 0.05418006489684602 -0.05258251668426905
501.70212799999996 0.07905905028870623 -0.04679524940959077 0.9664203553590572 0.35464764140846483 0.6852117494081988 0.7830749763106635 0.053437810950937685 -0.05330274952976672
526.808511 0.0789268510868162 -0.04669840790430434 0.9677463619093547 0.3520226269163524 0.6904618593581241 0.7788608855806277 0.053137416505827914 -0.05257398444318364
551.914894 0.07894645357358875 -0.04810169735948584 0.9700028417797849 0.3455152307959057 0.6916422340193747 0.777039234237762 0.05351269794512797 -0.053401511936003704
577.0212769999999 0.07915395521872817 -0.049279039449740894 0.9716083351681689 0.342867181951903 0.6968586201122156 0.7745500569905033 0.053729130060527326 -0.05447392707032945
602.12766 0.07958507570493914 -0.04988243063877957 0.9718348424609091 0.3379497188549073 0.6987472276904445 0.7734272997222257 0.052976958086608406 -0.05385981209881966
627.2340429999999 0.07933289276451076 -0.051147177383978816 0.9729199235675846 0.3342002823687519 0.702030752733249 0.7683538347848822 0.05282186606948752 -0.05412450743589291
652.340426 0.07953442640512721 -0.05144170185400377 0.973693567089111 0.3297766532119361 0.7041832530872625 0.7661801991377853 0.051349712325463176 -0.0557337583726121
677.4468089999999 0.07896962040797455 -0.05299317982260403 0.9762611551918589 0.32691312599363376 0.7079432556351022 0.7634128631598179 0.052905200838320385 -0.0563959962370115
702.553191 0.07810878281696135 -0.05372222841233819 0.9775116049128837 0.3224520793463377 0.7102664690586757 0.7583301457817383 0.05295900060159111 -0.05573164143343795
727.659574 0.07908176822501017 -0.055386457609884324 0.9774501603610855 0.3188859079896659 0.7147678105746266 0.75623373117267 0.05311547510613792 -0.05789320474377223
752.765957 0.0792835196515786 -0.05597518372169496 0.9791927301930238 0.3138479116226446 0.7181569880831645 0.7534587837889007 0.05296359490519508 -0.05663033986672386
777.87234 0.07928123304871909 -0.05622743019702832 0.979733801401845 0.309708382882403 0.7217713269760059 0.7517350405796069 0.05371989247902112 -0.05758919227756548
802.978723 0.07884364881617632 -0.05731149113581276 0.982220211494547 0.30665831602047106 0.7243633467410314 0.7484768821075332 0.05247016016177083 -0.058154387360392225
828.085106 0.07901235377929806 -0.05847969994946103 0.9830879688270325 0.30136834966888665 0.7264968865335366 0.7451159425980521 0.0527321040820507 -0.05974776524335317
853.1914889999999 0.07932447981157756 -0.05952357038201036 0.984725362662488 0.297297811419197 0.7281086682197195 0.7402235550646895 0.053177343413196396 -0.059109812091314946
878.297872 0.07899037757407754 -0.060170424771642396 0.9847162669107885 0.29426151349259355 0.7331307305236197 0.7382499859605391 0.05279018644072879 -0.05952564699769918
903.4042549999999 0.07794668461899108 -0.06194303918206795 0.9860175673067418 0.28878836717826034 0.7363822671146999 0.7360569714260944 0.05257007432764975 -0.06059834521413551
928.510638 0.07834050351300396 -0.06239579162298935 0.9865765419894396 0.28604517437926724 0.73820864090699 0.7334807881717664 0.05209148164031854 -0.06152040663561596
953.6170209999999 0.07785567912462166 -0.06310825581260902 0.9880849067294328 0.28165714213439097 0.7408287446131873 0.7295190426003701 0.05183726107003029 -0.06244653417034822
978.723404 0.077725528215235 -0.06462400698327234 0.9878693174657194 0.27610253396236106 0.7434202155290518 0.724574345034225 0.05258090741053964 -0.06216913950683669
1003.829787 0.07755755836458278 -0.06612832969001291 0.9907567791824513 0.27398115641299436 0.7461293481817143 0.7238755887241436 0.05179700180079341 -0.06257441754024419
1028.93617 0.07758067116824997 -0.06693958785041969 0.9916248444076317 0.26986203357669597 0.7492331666894798 0.7201421529031691 0.05208519623985107 -0.06312609079520097
1054.042553 0.07785354123593642 -0.0665681308127303 0.99147778809562 0.26585481273803563 0.7526014756399679 0.7176002093339373 0.051656694794218715 -0.06362539201946779
1079.148936 0.07818588487428527 -0.06788314749154295 0.9936081861328661 0.2607969903495008 0.755752171322419 0.714316546055019 0.05132071524523063 -0.06388916949605895
1104.2553189999999 0.07710591156850055 -0.06907103283657078 0.9927339306835002 0.25693116847729325 0.7574079349069963 0.7117490006505597 0.05177129970859547 -0.06456899080288388
1129.361702 0.07608488949376561 -0.06955377860725145 0.9945104232723213 0.2519943362575707 0.7606741272157235 0.70796995582855 0.05243832894490289 -0.0661295375329731
1154.468085 0.07645328549919589 -0.07084775997807789 0.9954679592340159 0.2488634524678244 0.7641794216108292 0.7040510781824781 0.051781391774150316 -0.06570056192525178
1179.574468 0.07594348060355076 -0.07144117758557375 0.9973210683968114 0.24462515888086997 0.7675871802484344 0.7009041255103713 0.05135551355292949 -0.06532883753151254
1204.6808509999998 0.07629193860858051 -0.07299199285473412 0.9970484217232652 0.24017880620433038 0.7698750929330967 0.698303756522694 0.05152768801522475 -0.06793310846417705
1229.787234 0.07497962212941853 -0.07353166931046455 0.9968515595454842 0.2355859248302145 0.7716296906854465 0.693880240757095 0.05044786510261164 -0.0671407031032169
1254.893617 0.07555360835758493 -0.07484765818433982 0.9990895842157554 0.23236968116168985 0.7754688118391156 0.6916014841640816 0.051457185457263924 -0.06872641470284557
1280.0 0.07466639998431715 -0.07483570161023252 0.9992521220104669 0.22779335659485292 0.7774258027100145 0.6886583450397079 0.05030636130228176 -0.06858612697963036
1305.106383 0.07359164831888014 -0.07637742560269974 1.0005814883472606 0.22373401924497943 0.7804734862943865 0.6847909598435604 0.05116154754538083 -0.06880489971863545
1330.2127659999999 0.07410770225620766 -0.07733091031562944 1.0019393134253196 0.21943678322556454 0.7817147683604434 0.68202461832463 0.05091781987664537 -0.0691102570626801
1355.319149 0.07418315349449826 -0.07823501182537829 1.0029192196042216 0.21515904845438164 0.7869656573716315 0.6781360249118294 0.05035163660500759 -0.06888627790501542
1380.425532 0.07370039349440782 -0.07912458225075945 1.0038067964694457 0.21197845896826328 0.7888743094670777 0.6750216081449963 0.05082765547446011 -0.07088263612370614
1405.531915 0.07241698195545253 -0.07966131930925348 1.002774335585362 0.20671322058398073 0.7922907775754165 0.6715064500156096 0.050252440273687804 -0.07108305101731215
1430.6382979999998 0.0725808690498588 -0.08124764274183578 1.0035663458586053 0.20379066753459546 0.793818361179832 0.6677997255523986 0.050061677559205896 -0.07153394588401386
1455.744681 0.07204522465858607 -0.08198004106548461 1.0050101719232059 0.20011705800009347 0.7973843449253875 0.6651148692380593 0.048887854803373106 -0.07263557344409129
1480.851064 0.07160085991384194 -0.08269350555944092 1.0074969790260029 0.1959615383580338 0.8003768759132669 0.6611984683990305 0.049908048146461895 -0.07252008581643393
1505.957447 0.07033758193906016 -0.08382996143565774 1.0063114691861892 0.19079708407898952 0.8031966277508921 0.6588114899937507 0.048468968426593255 -0.07368504444741965
1531.0638299999998 0.07023802283817841 -0.08385543624840848 1.006866685539973 0.18647035069555465 0.8041195812178746 0.6555070575862535 0.04931530799017918 -0.07297025153113926
1556.1702129999999 0.07012140712743563 -0.08515432475211188 1.0085700548225986 0.18231163771588862 0.8084844543177174 0.6524383539078512 0.0487625109298349 -0.07493236451075258
1581.276596 0.07005706058121922 -0.08645811786002935 1.0085607358691346 0.1790729337988421 0.8107002547888529 0.6472867349170215 0.0494318481173922 -0.07585709976638348
1606.382979 0.06910603254664202 -0.08707389159730358 1.0104044522168645 0.17396404872646565 0.8131883280281069 0.6431877902200395 0.04788534240660702 -0.07610830808672032
1631.489362 0.06964510976695062 -0.08777749453423184 1.010594157419331 0.17030555908772252 0.8146214024770025 0.6418671432172823 0.04806647115233374 -0.07600327283260641
1656.5957449999999 0.06836228994192098 -0.0889687186747355 1.0113751424995268 0.16628191131172043 0.8182216348685435 0.6380665478470614 0.04919511342987975 -0.07617637282482069
1681.702128 0.06762343744210536 -0.0897576562433908 1.0108545649502148 0.16218760126447193 0.8197565412059966 0.6346891646497609 0.04822858224766909 -0.0775292340465621
1706.808511 0.06726962096221191 -0.09103851790431654 1.011362595851858 0.15836904740141775 0.8232473816813507 0.6318979977827324 0.04788062721575605 -0.07851617014540369
1731.914894 0.06671235657983118 -0.0913321845649644 1.0122204323052648 0.15321777344069487 0.8252938468886041 0.6289460546627983 0.047228537644592346 -0.07924356874367405
1757.0212769999998 0.06643766990818971 -0.09180558671426639 1.012978620627925 0.14890913694961366 0.8271097365854626 0.6252211111921083 0.04690888207100258 -0.07965112533161589
1782.1276599999999 0.06596396681620731 -0.0929538824242524 1.0136768679148767 0.1449590776852022 0.8296879053445664 0.6221871210689227 0.04740481592205802 -0.08004827315357184
1807.234043 0.0649835808225271 -0.09409910350659557 1.0134821527516518 0.14035445075527886 0.8327694827993042 0.6185928412731247 0.04653291117779537 -0.08039954895866254
1832.340426 0.06416362300201092 -0.0954850955573146 1.0141136100926618 0.13662104065518318 0.8346777614053756 0.6134428020000106 0.046879465093981616 -0.08159312184286256
1857.4468089999998 0.0638852868856526 -0.09570263683231335 1.0155903646847864 0.1323328062304713 0.8364298081906596 0.6105545724731956 0.045285591030045265 -0.08261455663933484
1882.553191 0.06377900870668309 -0.0971130804300671 1.0155120405254134 0.12924111038962535 0.8403148291378724 0.6077461152668109 0.04625041087673471 -0.08223110012253439
1907.659574 0.06286991470488616 -0.0974404648325878 1.016435020929324 0.12497474562329365 0.8425739710772269 0.6045820980686145 0.044732462128797106 -0.08275232254696566
1932.7659569999998 0.06201301464513898 -0.09860908233209939 1.016968713014079 0.12038043398249051 0.8442893989867517 0.5998122507263467 0.043906454633642726 -0.08424108756092365
1957.87234 0.06214098851715219 -0.10005851701907588 1.016130031913286 0.11675271106402704 0.847136183512674 0.596697265718935 0.044115871997468456 -0.08450303604684546
1982.978723 0.06099328895198365 -0.09976457031047407 1.0173731620332782 0.11136037481570435 0.8493632533194482 0.593742588191395 0.04410175138483636 -0.08533238978324766
2008.085106 0.060039801142579265 -0.10075181676261495 1.0167480341049986 0.1081298358357633 0.8508585481455008 0.5887508353613861 0.044816492982669334 -0.08475222343382267
2033.1914889999998 0.059646459865412955 -0.10212239786530404 1.0177483104070102 0.10362542285360977 0.8539901997528352 0.5861859178491362 0.04394401563360306 -0.08550374518962167
2058.297872 0.0587617674801059 -0.10304905901604024 1.0191598028991338 0.09899790616999286 0.8568476680016632 0.5825334999997147 0.04338901102340638 -0.08591850869011992
2083.404255 0.05874047365136602 -0.1030957275913638 1.0181310125937697 0.09544108659771051 0.8598123037884157 0.5797138040701765 0.04272330703627653 -0.08704968957027208
2108.5106379999997 0.057999177266467764 -0.10368747475863822 1.0183076916709783 0.09116044151353851 0.8600523961686928 0.574406762193246 0.0422930097706635 -0.08754016952455179
2133.617021 0.05706985888971895 -0.10476081229889936 1.0195240030864394 0.08651786085534971 0.8627123033671276 0.5710873438461003 0.04231431214269339 -0.0876594032153238
2158.723404 0.056768771376458804 -0.1060127178272081 1.0190355592478708 0.08350284485377771 0.8662148523242759 0.5678801822797701 0.0417410084961319 -0.08878329856975235
2183.829787 0.055408139159455506 -0.10709702537956947 1.0199222503308054 0.07753919162875199 0.8678300769212545 0.5654566326852433 0.041212225822137634 -0.0893935931392924
2208.93617 0.0544538559530495 -0.10763595508476813 1.0200133177348238 0.07429674237428523 0.8697770281674494 0.561018039042956 0.041027419449929464 -0.09070831377396975
2234.0425529999998 0.05422808234697388 -0.10833419645282336 1.0192612276868873 0.0702610528724046 0.8711910775222653 0.5575154560024598 0.04093544603062586 -0.09032946040311082
2259.148936 0.05403265247851502 -0.10904732610609337 1.0210312960478996 0.0660496534009798 0.8742419804199391 0.5537717173400474 0.039644027643948504 -0.09141023342150799
2284.255319 0.053256229013433215 -0.10989352211510486 1.0211558853845824 0.06229796779583498 0.87638440346352 0.551371767696459 0.0405155608644844 -0.09104190084432617
2309.3617019999997 0.05212007487751396 -0.11035749154766447 1.0202426879729474 0.057062937945864055 0.8787274897504209 0.5481804257768561 0.0403595369434007 -0.09257335918017826
2334.468085 0.051503647656933806 -0.11141972332570645 1.0210723709501501 0.05480921243122451 0.8819848211877045 0.5435973027824941 0.03959687488319633 -0.09230790477813289
2359.574468 0.051305022700885855 -0.11186424897824873 1.0218966865998647 0.04956394329243668 0.8826289745410922 0.5395277123434253 0.03950963173927882 -0.09379975356021114
2384.680851 0.05062841872278354 -0.11344582635490671 1.021196341412895 0.04632612922942388 0.8834140045283028 0.5348497524981084 0.03883936646623389 -0.09305242809471201
2409.787234 0.0502346355893554 -0.11361292613303346 1.0216673574602937 0.041731809870318055 0.8872964923340532 0.5319404443931918 0.038232296757808155 -0.09430402074042107
2434.8936169999997 0.049365071742408666 -0.11449646938703381 1.0204547618575988 0.03772491021691286 0.8883524009947107 0.5287578026024513 0.0378734561356418 -0.09448110830882601
2460.0 0.04760776417951793 -0.11622821692594112 1.0226855500897627 0.03336290925978302 0.8921234837579506 0.5253951095348478 0.03792919221810071 -0.09537244752493006
2485.106383 0.04713153720599267 -0.11663580096209254 1.0227904608012268 0.02920382046069515 0.8939679885909027 0.5205852241883164 0.036263324752750306 -0.09645320545252326
2510.212766 0.045916979148333266 -0.11730576203065085 1.0219311102943565 0.02493547116067264 0.8958395784639072 0.5175639560223965 0.03582753536307539 -0.09780536342149894
2535.319149 0.04495344361036965 -0.11866053775979153 1.0217526335702665 0.019564108220478015 0.8973170890762069 0.5145669370309287 0.03593945322529427 -0.09764913446611927
2560.4255319999997 0.04461711328695133 -0.11929988039956309 1.0218126090536228 0.016219565759560586 0.8995235614534224 0.5100953477568873 0.035438890481943805 -0.09822750491558103
2585.531915 0.04416590225300708 -0.11962681181017422 1.0217905258531381 0.011942545642709416 0.9007944471715039 0.5058589878130069 0.034382111397362185 -0.09880762007884172
2610.638298 0.04249371369852893 -0.11994384185293074 1.021516528586975 0.00823191274608998 0.9031840354085217 0.5019835052952584 0.034343002778773314 -0.09881565833690675
2635.7446809999997 0.04197668087205569 -0.12149207410371839 1.0202928079086184 0.0038142660058298155 0.9058060803573512 0.4986546066134461 0.03288754877977923 -0.09960923367539305
2660.851064 0.0410845852783409 -0.12179872952570472 1.0217881450614306 -0.00018388320957809314 0.9072647269388451 0.4954419363037145 0.03290745857762805 -0.09986670665362005
2685.957447 0.04084678963640372 -0.12189248095862282 1.0217289196552164 -0.005291881151166629 0.9089555092579604 0.4916585113385099 0.033071704270959255 -0.10066312981972377
2711.06383 0.03948979585931107 -0.12351289607189068 1.0213375255079853 -0.008197259970867829 0.9103250656224542 0.4875943468640494 0.030969568406635013 -0.10052483258751997
2736.170213 0.03884303069817931 -0.12423843133169735 1.022484505528755 -0.012439124365641546 0.9141375923196006 0.48437431220178645 0.03180453693715911 -0.10267545360825883
2761.2765959999997 0.03757857770532717 -0.12488997892230054 1.0209896417711897 -0.017119817694978355 0.9157470624845154 0.4800572950294733 0.03107532266645135 -0.10228042410958318
2786.382979 0.03675320609997214 -0.12536130980053753 1.0223735356925334 -0.02077918860538683 0.9173931072184643 0.476802434472992 0.030640594289825126 -0.10214635761071118
2811.489362 0.03516136314188936 -0.12549196393100986 1.0212349045992328 -0.025641182908985722 0.920478721101133 0.47160072924608853 0.029246075582382132 -0.10272265125051766
2836.595745 0.03476262802946209 -0.12691400147746193 1.0204549963960496 -0.030050146427393416 0.9200697160681532 0.46955728600865726 0.028974685690958634 -0.10333806892429477
2861.702128 0.03367687036028969 -0.12794549581617295 1.0211045236793437 -0.03390028067278744 0.920646844707826 0.4651375379256625 0.029127264306138635 -0.10356491128689625
2886.8085109999997 0.03297841119869269 -0.12871729107297553 1.020640979802654 -0.03717302430270172 0.9231779013508266 0.46155575484967687 0.027796296063232407 -0.1043507697661903
2911.914894 0.03210350568798304 -0.12893326825670992 1.0185811334948671 -0.04232436431169484 0.9246677443603524 0.457487348745665 0.028058620179578136 -0.104793006403765
2937.021277 0.030383327678250152 -0.12962602155084726 1.0198558333729555 -0.046236933640388306 0.9286393261080116 0.45463521309793914 0.025962647348933342 -0.10541085263425068
2962.1276599999997 0.03071828395952342 -0.12998992167148285 1.020630543521937 -0.04963605242449543 0.9299078175277238 0.4506228307911828 0.02529515473713788 -0.10572983777757582
