!Mini Circuits and Vayyar, UVNA-63
!Date: Mon 17-Dec-2018 08:48:16
!S1P File: Measurement: S11:
!Part No: B20-64-F6+
!Part Description: UVNA-63 SMA Female Open Standard
# MHZ S DB R 50
!  frequency      S11 dB        S11 Deg 
   10.000000     0.0000000    -0.2703030
   20.000000     0.0000000    -0.3042857
   30.000000     0.0000000    -0.3364865
   40.000000     0.0000000    -0.3674359
   50.000000     0.0000000    -0.3968293
   60.000000     0.0000000    -0.4251163
   70.000000    -0.0000000    -0.4522222
   80.000000     0.0000000    -0.4787234
   90.000000     0.0000000    -0.5040816
  100.000000     0.0000000    -0.5255102
  110.000000    -0.0000000    -0.5276735
  120.000000     0.0000000    -0.5298367
  130.000000     0.0000000    -0.5320000
  140.000000    -0.0000000    -0.5341633
  150.000000    -0.0000000    -0.5363266
  160.000000    -0.0000000    -0.5384898
  170.000000    -0.0000000    -0.5406531
  180.000000     0.0000000    -0.5428164
  190.000000    -0.0000000    -0.5449796
  200.000000     0.0000000    -0.5471429
  210.000000     0.0000000    -0.5918367
  220.000000    -0.0000000    -0.6387755
  230.000000     0.0000000    -0.6875510
  240.000000    -0.0000000    -0.7387755
  250.000000     0.0000000    -0.7908163
  260.000000     0.0000000    -0.8434694
  270.000000     0.0000000    -0.8967347
  280.000000    -0.0000000    -0.9516327
  290.000000     0.0000000    -1.0042857
  300.000000     0.0000000    -1.0553061
  310.000000     0.0000000    -1.1051020
  320.000000     0.0000000    -1.1536735
  330.000000     0.0000000    -1.1881633
  340.000000     0.0000000    -1.2226531
  350.000000     0.0000000    -1.2577551
  360.000000    -0.0000000    -1.2926531
  370.000000    -0.0000000    -1.3273469
  380.000000     0.0000000    -1.3617347
  390.000000     0.0000000    -1.3962245
  400.000000     0.0000000    -1.4305102
  410.000000     0.0000000    -1.4656122
  420.000000    -0.0000000    -1.5003061
  430.000000     0.0000000    -1.5350000
  440.000000     0.0000000    -1.5694898
  450.000000    -0.0000000    -1.6039796
  460.000000     0.0000000    -1.6378571
  470.000000     0.0000000    -1.6713265
  480.000000     0.0000000    -1.7052041
  490.000000    -0.0000000    -1.7390816
  500.000000     0.0000000    -1.7731633
  510.000000     0.0000000    -1.8068367
  520.000000     0.0000000    -1.8411224
  530.000000     0.0000000    -1.8747959
  540.000000    -0.0000000    -1.9086735
  550.000000     0.0000000    -1.9425510
  560.000000    -0.0000000    -1.9764286
  570.000000     0.0000000    -2.0101020
  580.000000    -0.0000000    -2.0440816
  590.000000     0.0000000    -2.0783673
  600.000000     0.0000000    -2.1120408
  610.000000     0.0000000    -2.1455102
  620.000000     0.0000000    -2.1786735
  630.000000     0.0000000    -2.2117347
  640.000000     0.0000000    -2.2454082
  650.000000    -0.0000000    -2.2789796
  660.000000    -0.0000000    -2.3122449
  670.000000     0.0000000    -2.3464286
  680.000000     0.0000000    -2.3807143
  690.000000     0.0000000    -2.4152041
  700.000000    -0.0000000    -2.4497959
  710.000000     0.0000000    -2.4844898
  720.000000     0.0000000    -2.5193878
  730.000000     0.0000000    -2.5536735
  740.000000    -0.0000000    -2.5880612
  750.000000     0.0000000    -2.6223469
  760.000000     0.0000000    -2.6568367
  770.000000     0.0000000    -2.6915306
  780.000000    -0.0000000    -2.7259184
  790.000000     0.0000000    -2.7600000
  800.000000     0.0000000    -2.7932653
  810.000000     0.0000000    -2.8261224
  820.000000     0.0000000    -2.8584694
  830.000000     0.0000000    -2.8910204
  840.000000     0.0000000    -2.9240816
  850.000000     0.0000000    -2.9577551
  860.000000     0.0000000    -2.9922449
  870.000000     0.0000000    -3.0274490
  880.000000     0.0000000    -3.0625510
  890.000000     0.0000000    -3.0984694
  900.000000     0.0000000    -3.1363265
  910.000000     0.0000000    -3.1746939
  920.000000    -0.0000000    -3.2141837
  930.000000     0.0000000    -3.2552041
  940.000000     0.0000000    -3.2978571
  950.000000    -0.0000000    -3.3410204
  960.000000     0.0000000    -3.3840816
  970.000000     0.0000000    -3.4277551
  980.000000     0.0000000    -3.4728571
  990.000000    -0.0000000    -3.5203061
 1000.000000     0.0000000    -3.5690816
 1010.000000     0.0000000    -3.5939796
 1020.000000     0.0000000    -3.6191837
 1030.000000    -0.0000000    -3.6446939
 1040.000000     0.0000000    -3.6706122
 1050.000000     0.0000000    -3.6972449
 1060.000000     0.0000000    -3.7243878
 1070.000000    -0.0000000    -3.7521429
 1080.000000    -0.0000000    -3.7801020
 1090.000000     0.0000000    -3.8084694
 1100.000000    -0.0000000    -3.8371429
 1110.000000     0.0000000    -3.8661224
 1120.000000     0.0000000    -3.8953061
 1130.000000     0.0000000    -3.9247959
 1140.000000     0.0000000    -3.9545918
 1150.000000     0.0000000    -3.9845918
 1160.000000     0.0000000    -4.0154082
 1170.000000    -0.0000000    -4.0462245
 1180.000000     0.0000000    -4.0774490
 1190.000000     0.0000000    -4.1090816
 1200.000000    -0.0000000    -4.1411224
 1210.000000     0.0000000    -4.1731633
 1220.000000    -0.0000000    -4.2058163
 1230.000000     0.0000000    -4.2387755
 1240.000000     0.0000000    -4.2720408
 1250.000000    -0.0000000    -4.3057143
 1260.000000     0.0000000    -4.3394898
 1270.000000     0.0000000    -4.3731633
 1280.000000    -0.0000000    -4.4064286
 1290.000000    -0.0000000    -4.4396939
 1300.000000     0.0000000    -4.4733673
 1310.000000     0.0000000    -4.5072449
 1320.000000     0.0000000    -4.5411224
 1330.000000     0.0000000    -4.5750000
 1340.000000    -0.0000000    -4.6086735
 1350.000000     0.0000000    -4.6419388
 1360.000000    -0.0000000    -4.6750000
 1370.000000     0.0000000    -4.7078571
 1380.000000     0.0000000    -4.7413265
 1390.000000     0.0000000    -4.7747959
 1400.000000     0.0000000    -4.8089796
 1410.000000     0.0000000    -4.8428571
 1420.000000     0.0000000    -4.8771429
 1430.000000     0.0000000    -4.9114286
 1440.000000     0.0000000    -4.9459184
 1450.000000    -0.0000000    -4.9797959
 1460.000000     0.0000000    -5.0134694
 1470.000000     0.0000000    -5.0469388
 1480.000000    -0.0000000    -5.0804082
 1490.000000     0.0000000    -5.1142857
 1500.000000     0.0000000    -5.1481633
 1510.000000     0.0000000    -5.1819388
 1520.000000     0.0000000    -5.2161224
 1530.000000     0.0000000    -5.2504082
 1540.000000     0.0000000    -5.2844898
 1550.000000    -0.0000000    -5.3187755
 1560.000000     0.0000000    -5.3530612
 1570.000000    -0.0000000    -5.3879592
 1580.000000     0.0000000    -5.4234694
 1590.000000     0.0000000    -5.4592857
 1600.000000    -0.0000000    -5.4950000
 1610.000000    -0.0000000    -5.5315306
 1620.000000     0.0000000    -5.5680612
 1630.000000     0.0000000    -5.6041837
 1640.000000    -0.0000000    -5.6401020
 1650.000000    -0.0000000    -5.6756122
 1660.000000     0.0000000    -5.7111224
 1670.000000     0.0000000    -5.7466327
 1680.000000     0.0000000    -5.7821429
 1690.000000     0.0000000    -5.8175510
 1700.000000     0.0000000    -5.8534694
 1710.000000     0.0000000    -5.8889796
 1720.000000     0.0000000    -5.9246939
 1730.000000     0.0000000    -5.9604082
 1740.000000     0.0000000    -5.9966327
 1750.000000     0.0000000    -6.0333673
 1760.000000     0.0000000    -6.0702041
 1770.000000    -0.0000000    -6.1081633
 1780.000000     0.0000000    -6.1461224
 1790.000000     0.0000000    -6.1842857
 1800.000000     0.0000000    -6.2222449
 1810.000000     0.0000000    -6.2608163
 1820.000000     0.0000000    -6.2990816
 1830.000000     0.0000000    -6.3374490
 1840.000000     0.0000000    -6.3754082
 1850.000000     0.0000000    -6.4135714
 1860.000000     0.0000000    -6.4516327
 1870.000000     0.0000000    -6.4892857
 1880.000000    -0.0000000    -6.5272449
 1890.000000     0.0000000    -6.5648980
 1900.000000     0.0000000    -6.6028571
 1910.000000     0.0000000    -6.6406122
 1920.000000     0.0000000    -6.6783673
 1930.000000     0.0000000    -6.7159184
 1940.000000     0.0000000    -6.7535714
 1950.000000    -0.0000000    -6.7913265
 1960.000000    -0.0000000    -6.8286735
 1970.000000     0.0000000    -6.8660204
 1980.000000     0.0000000    -6.9027551
 1990.000000    -0.0000000    -6.9392857
 2000.000000     0.0000000    -6.9760204
 2010.000000     0.0000000    -7.0123469
 2020.000000     0.0000000    -7.0490816
 2030.000000    -0.0000000    -7.0863265
 2040.000000     0.0000000    -7.1234694
 2050.000000     0.0000000    -7.1606122
 2060.000000     0.0000000    -7.1973469
 2070.000000     0.0000000    -7.2336735
 2080.000000     0.0000000    -7.2697959
 2090.000000    -0.0000000    -7.3061224
 2100.000000    -0.0000000    -7.3417347
 2110.000000     0.0000000    -7.3774490
 2120.000000     0.0000000    -7.4127551
 2130.000000     0.0000000    -7.4478571
 2140.000000     0.0000000    -7.4825510
 2150.000000     0.0000000    -7.5174490
 2160.000000    -0.0000000    -7.5519388
 2170.000000    -0.0000000    -7.5864286
 2180.000000    -0.0000000    -7.6208163
 2190.000000    -0.0000000    -7.6548980
 2200.000000     0.0000000    -7.6889796
 2210.000000    -0.0000000    -7.7226531
 2220.000000     0.0000000    -7.7557143
 2230.000000     0.0000000    -7.7878571
 2240.000000     0.0000000    -7.8193878
 2250.000000    -0.0000000    -7.8505102
 2260.000000    -0.0000000    -7.8807143
 2270.000000     0.0000000    -7.9108163
 2280.000000     0.0000000    -7.9406122
 2290.000000     0.0000000    -7.9707143
 2300.000000     0.0000000    -8.0003061
 2310.000000     0.0000000    -8.0300000
 2320.000000    -0.0000000    -8.0600000
 2330.000000     0.0000000    -8.0904082
 2340.000000     0.0000000    -8.1210204
 2350.000000     0.0000000    -8.1522449
 2360.000000    -0.0000000    -8.1835714
 2370.000000     0.0000000    -8.2150000
 2380.000000    -0.0000000    -8.2464286
 2390.000000     0.0000000    -8.2776531
 2400.000000     0.0000000    -8.3086735
 2410.000000     0.0000000    -8.3394898
 2420.000000     0.0000000    -8.3707143
 2430.000000    -0.0000000    -8.4018367
 2440.000000     0.0000000    -8.4332653
 2450.000000     0.0000000    -8.4651020
 2460.000000     0.0000000    -8.4971429
 2470.000000     0.0000000    -8.5294898
 2480.000000     0.0000000    -8.5621429
 2490.000000    -0.0000000    -8.5945918
 2500.000000     0.0000000    -8.6275510
 2510.000000    -0.0000000    -8.6602041
 2520.000000    -0.0000000    -8.6926531
 2530.000000     0.0000000    -8.7250000
 2540.000000     0.0000000    -8.7572449
 2550.000000    -0.0000000    -8.7895918
 2560.000000     0.0000000    -8.8214286
 2570.000000     0.0000000    -8.8532653
 2580.000000    -0.0000000    -8.8851020
 2590.000000     0.0000000    -8.9174490
 2600.000000     0.0000000    -8.9501020
 2610.000000     0.0000000    -8.9837755
 2620.000000     0.0000000    -9.0179592
 2630.000000     0.0000000    -9.0527551
 2640.000000     0.0000000    -9.0875510
 2650.000000     0.0000000    -9.1222449
 2660.000000    -0.0000000    -9.1567347
 2670.000000     0.0000000    -9.1912245
 2680.000000    -0.0000000    -9.2257143
 2690.000000    -0.0000000    -9.2602041
 2700.000000    -0.0000000    -9.2946939
 2710.000000     0.0000000    -9.3297959
 2720.000000     0.0000000    -9.3651020
 2730.000000     0.0000000    -9.4007143
 2740.000000     0.0000000    -9.4364286
 2750.000000     0.0000000    -9.4725510
 2760.000000     0.0000000    -9.5087755
 2770.000000     0.0000000    -9.5461224
 2780.000000     0.0000000    -9.5833673
 2790.000000     0.0000000    -9.6205102
 2800.000000    -0.0000000    -9.6577551
 2810.000000     0.0000000    -9.6946939
 2820.000000    -0.0000000    -9.7314286
 2830.000000     0.0000000    -9.7681633
 2840.000000     0.0000000    -9.8043878
 2850.000000     0.0000000    -9.8409184
 2860.000000     0.0000000    -9.8778571
 2870.000000     0.0000000    -9.9152041
 2880.000000     0.0000000    -9.9530612
 2890.000000     0.0000000    -9.9914286
 2900.000000     0.0000000   -10.0303061
 2910.000000     0.0000000   -10.0687755
 2920.000000     0.0000000   -10.1074490
 2930.000000     0.0000000   -10.1460204
 2940.000000     0.0000000   -10.1845918
 2950.000000     0.0000000   -10.2231633
 2960.000000     0.0000000   -10.2613265
 2970.000000     0.0000000   -10.2995918
 2980.000000    -0.0000000   -10.3378571
 2990.000000     0.0000000   -10.3756122
 3000.000000     0.0000000   -10.4129592
 3010.000000    -0.0000000   -10.4503061
 3020.000000     0.0000000   -10.4877551
 3030.000000     0.0000000   -10.5253061
 3040.000000     0.0000000   -10.5631633
 3050.000000     0.0000000   -10.6018367
 3060.000000     0.0000000   -10.6404082
 3070.000000    -0.0000000   -10.6793878
 3080.000000    -0.0000000   -10.7179592
 3090.000000    -0.0000000   -10.7561224
 3100.000000     0.0000000   -10.7939796
 3110.000000     0.0000000   -10.8314286
 3120.000000     0.0000000   -10.8686735
 3130.000000     0.0000000   -10.9054082
 3140.000000     0.0000000   -10.9424490
 3150.000000     0.0000000   -10.9790816
 3160.000000     0.0000000   -11.0154082
 3170.000000     0.0000000   -11.0515306
 3180.000000     0.0000000   -11.0874490
 3190.000000     0.0000000   -11.1232653
 3200.000000     0.0000000   -11.1590816
 3210.000000     0.0000000   -11.1948980
 3220.000000     0.0000000   -11.2304082
 3230.000000     0.0000000   -11.2662245
 3240.000000    -0.0000000   -11.3014286
 3250.000000     0.0000000   -11.3361224
 3260.000000     0.0000000   -11.3693878
 3270.000000     0.0000000   -11.4024490
 3280.000000     0.0000000   -11.4353061
 3290.000000    -0.0000000   -11.4681633
 3300.000000    -0.0000000   -11.5010204
 3310.000000     0.0000000   -11.5340816
 3320.000000     0.0000000   -11.5668367
 3330.000000     0.0000000   -11.5996939
 3340.000000     0.0000000   -11.6325510
 3350.000000    -0.0000000   -11.6650000
 3360.000000     0.0000000   -11.6972449
 3370.000000     0.0000000   -11.7293878
 3380.000000     0.0000000   -11.7618367
 3390.000000    -0.0000000   -11.7941837
 3400.000000     0.0000000   -11.8269388
 3410.000000     0.0000000   -11.8601020
 3420.000000    -0.0000000   -11.8929592
 3430.000000     0.0000000   -11.9258163
 3440.000000     0.0000000   -11.9588776
 3450.000000    -0.0000000   -11.9926531
 3460.000000     0.0000000   -12.0267347
 3470.000000    -0.0000000   -12.0610204
 3480.000000     0.0000000   -12.0957143
 3490.000000     0.0000000   -12.1308163
 3500.000000     0.0000000   -12.1657143
 3510.000000    -0.0000000   -12.2008163
 3520.000000    -0.0000000   -12.2357143
 3530.000000     0.0000000   -12.2706122
 3540.000000     0.0000000   -12.3054082
 3550.000000     0.0000000   -12.3405102
 3560.000000     0.0000000   -12.3752041
 3570.000000     0.0000000   -12.4097959
 3580.000000     0.0000000   -12.4441837
 3590.000000     0.0000000   -12.4783673
 3600.000000     0.0000000   -12.5128571
 3610.000000     0.0000000   -12.5470408
 3620.000000    -0.0000000   -12.5814286
 3630.000000     0.0000000   -12.6159184
 3640.000000    -0.0000000   -12.6508163
 3650.000000     0.0000000   -12.6861224
 3660.000000     0.0000000   -12.7216327
 3670.000000     0.0000000   -12.7574490
 3680.000000    -0.0000000   -12.7934694
 3690.000000     0.0000000   -12.8292857
 3700.000000     0.0000000   -12.8653061
 3710.000000    -0.0000000   -12.9015306
 3720.000000     0.0000000   -12.9377551
 3730.000000    -0.0000000   -12.9743878
 3740.000000     0.0000000   -13.0111224
 3750.000000    -0.0000000   -13.0478571
 3760.000000    -0.0000000   -13.0845918
 3770.000000     0.0000000   -13.1213265
 3780.000000     0.0000000   -13.1581633
 3790.000000     0.0000000   -13.1951020
 3800.000000     0.0000000   -13.2320408
 3810.000000     0.0000000   -13.2688776
 3820.000000     0.0000000   -13.3059184
 3830.000000     0.0000000   -13.3426531
 3840.000000     0.0000000   -13.3793878
 3850.000000     0.0000000   -13.4162245
 3860.000000    -0.0000000   -13.4529592
 3870.000000     0.0000000   -13.4892857
 3880.000000    -0.0000000   -13.5259184
 3890.000000     0.0000000   -13.5624490
 3900.000000     0.0000000   -13.5986735
 3910.000000     0.0000000   -13.6348980
 3920.000000     0.0000000   -13.6707143
 3930.000000    -0.0000000   -13.7067347
 3940.000000     0.0000000   -13.7420408
 3950.000000     0.0000000   -13.7772449
 3960.000000    -0.0000000   -13.8124490
 3970.000000     0.0000000   -13.8479592
 3980.000000     0.0000000   -13.8834694
 3990.000000     0.0000000   -13.9191837
 4000.000000     0.0000000   -13.9543878
 4010.000000     0.0000000   -13.9903061
 4020.000000     0.0000000   -14.0262245
 4030.000000     0.0000000   -14.0621429
 4040.000000    -0.0000000   -14.0980612
 4050.000000     0.0000000   -14.1339796
 4060.000000     0.0000000   -14.1702041
 4070.000000     0.0000000   -14.2067347
 4080.000000     0.0000000   -14.2436735
 4090.000000    -0.0000000   -14.2803061
 4100.000000     0.0000000   -14.3174490
 4110.000000     0.0000000   -14.3548980
 4120.000000     0.0000000   -14.3924490
 4130.000000     0.0000000   -14.4301020
 4140.000000     0.0000000   -14.4676531
 4150.000000     0.0000000   -14.5059184
 4160.000000    -0.0000000   -14.5442857
 4170.000000     0.0000000   -14.5828571
 4180.000000     0.0000000   -14.6215306
 4190.000000     0.0000000   -14.6604082
 4200.000000     0.0000000   -14.6991837
 4210.000000     0.0000000   -14.7381633
 4220.000000     0.0000000   -14.7772449
 4230.000000     0.0000000   -14.8168367
 4240.000000     0.0000000   -14.8567347
 4250.000000     0.0000000   -14.8962245
 4260.000000     0.0000000   -14.9359184
 4270.000000     0.0000000   -14.9747959
 4280.000000     0.0000000   -15.0139796
 4290.000000     0.0000000   -15.0532653
 4300.000000     0.0000000   -15.0927551
 4310.000000     0.0000000   -15.1325510
 4320.000000    -0.0000000   -15.1721429
 4330.000000     0.0000000   -15.2117347
 4340.000000    -0.0000000   -15.2511224
 4350.000000     0.0000000   -15.2904082
 4360.000000     0.0000000   -15.3297959
 4370.000000     0.0000000   -15.3683673
 4380.000000    -0.0000000   -15.4071429
 4390.000000     0.0000000   -15.4458163
 4400.000000     0.0000000   -15.4845918
 4410.000000     0.0000000   -15.5233673
 4420.000000     0.0000000   -15.5615306
 4430.000000     0.0000000   -15.5997959
 4440.000000    -0.0000000   -15.6378571
 4450.000000     0.0000000   -15.6756122
 4460.000000     0.0000000   -15.7126531
 4470.000000     0.0000000   -15.7498980
 4480.000000     0.0000000   -15.7871429
 4490.000000     0.0000000   -15.8244898
 4500.000000    -0.0000000   -15.8615306
 4510.000000    -0.0000000   -15.8981633
 4520.000000     0.0000000   -15.9343878
 4530.000000     0.0000000   -15.9708163
 4540.000000    -0.0000000   -16.0070408
 4550.000000     0.0000000   -16.0430612
 4560.000000     0.0000000   -16.0790816
 4570.000000     0.0000000   -16.1151020
 4580.000000     0.0000000   -16.1511224
 4590.000000    -0.0000000   -16.1867347
 4600.000000     0.0000000   -16.2218367
 4610.000000     0.0000000   -16.2563265
 4620.000000     0.0000000   -16.2906122
 4630.000000     0.0000000   -16.3251020
 4640.000000     0.0000000   -16.3590816
 4650.000000     0.0000000   -16.3930612
 4660.000000     0.0000000   -16.4271429
 4670.000000     0.0000000   -16.4612245
 4680.000000    -0.0000000   -16.4950000
 4690.000000     0.0000000   -16.5285714
 4700.000000     0.0000000   -16.5617347
 4710.000000     0.0000000   -16.5942857
 4720.000000     0.0000000   -16.6265306
 4730.000000     0.0000000   -16.6586735
 4740.000000     0.0000000   -16.6908163
 4750.000000     0.0000000   -16.7229592
 4760.000000     0.0000000   -16.7559184
 4770.000000     0.0000000   -16.7883673
 4780.000000     0.0000000   -16.8208163
 4790.000000     0.0000000   -16.8530612
 4800.000000     0.0000000   -16.8853061
 4810.000000     0.0000000   -16.9177551
 4820.000000     0.0000000   -16.9502041
