!Created with skrf (http://scikit-rf.org).
# MHz S RI R 50.0 
!freq ReS11 ImS11 ReS21 ImS21 ReS12 ImS12 ReS22 ImS22
100.0 0.03262291409443797 0.019970679915709375 0.018611137107628885 -0.2029885091545324 0.014272137254034258 -0.20187343246750422 0.04039141400025532 0.01298032115010071
105.9 0.035793526727072804 0.01697979649523994 -0.00778208502491764 -0.20241198692840826 -0.011018562726561895 -0.20234286714167268 0.042473462131459055 0.011377656874935306
111.8 0.03448854312496459 0.06204263534108427 -0.1552892102324601 -0.12855930694033957 -0.14775210323924004 -0.13408470903560507 0.03389975794076553 0.06955148382822929
117.7 0.038131264396358694 0.057124574224547614 -0.171523012077726 -0.1078477726067811 -0.16458153467221656 -0.11409155326965764 0.03778446433890765 0.06571328402982132
123.6 0.04214417632639702 0.05157307268110021 -0.1846216018967417 -0.08493384927150513 -0.17837214753503744 -0.09219716322206299 0.04169621475791233 0.060636242244125824
129.5 0.04507416890862606 0.04721307215381247 -0.19404969960489798 -0.060358093731085145 -0.1891498527603343 -0.0687814637631049 0.04478716177081589 0.055049416287670676
135.4 0.04686704046552447 0.04125709764971193 -0.19937554411085856 -0.03483317323264297 -0.1955630645959034 -0.044199455191739484 0.04779162843756117 0.05001148950031925
141.3 0.048786488453579815 0.03594287862903345 -0.20216220400302218 -0.008946715312769535 -0.1993521931477992 -0.017853665658058588 0.04901623128133691 0.04418642257149648
147.2 0.049168593628494114 0.030738117241823185 -0.20188984690800937 0.01843780805167476 -0.20071788512581573 0.007653219041685735 0.051000714404813796 0.03867832819118431
153.1 0.05056546317027051 0.02521729603639883 -0.1985649118323661 0.044230029829177085 -0.19758708774123757 0.03275733031746863 0.050974526277567433 0.03421544469836885
159.0 0.04997853916355241 0.02103450603239487 -0.1907336074883294 0.06982455557233608 -0.19208224737061408 0.05870607355605669 0.05210960919265129 0.028535890547471028
164.9 0.04957738326305419 0.015594207561054441 -0.18020531435992826 0.09389745001566124 -0.1828218372249053 0.0830169315704782 0.051418368134299654 0.023562351578770065
170.8 0.04894431531651884 0.010368106898426684 -0.1667645595237337 0.11615631765941078 -0.17189598220448213 0.1045824007919342 0.051075287811151546 0.01890720983117217
176.7 0.04819744069112566 0.006945906591614598 -0.15004516764278283 0.13630124713987515 -0.15655305781409085 0.1262811344047485 0.05232931226120939 0.014390766817573421
182.60000000000002 0.04692117061369536 0.002829377809253779 -0.13052948019730737 0.15506096087378257 -0.13908794432657817 0.14404897174347978 0.0502311134359677 0.009679140367006997
188.5 0.045672086259229416 -0.0011847754503725853 -0.11077102812314651 0.1701421088405689 -0.11915268072043644 0.16173925597900096 0.04936039371257561 0.006533050655102209
194.4 0.04428519147871586 -0.003707790851469416 -0.08724030464347582 0.1828209115641345 -0.09823915913519474 0.17604599399080323 0.04919653080867918 0.001767202255348258
200.3 0.04254557634333614 -0.009345851796272916 -0.062378631633349 0.19283077695722337 -0.0736061911728112 0.18693632470843952 0.04775023137227984 -0.0022514875161640233
206.2 0.04011296993833299 -0.012285748012079644 -0.038365034152375355 0.19993475584307954 -0.04963183375189334 0.19488506971900868 0.045594073580873536 -0.006245521118627809
212.10000000000002 0.03733976806711366 -0.01505892208331945 -0.01194450655868407 0.20349436667382395 -0.02508189934553896 0.19946927101039147 0.04323658276830691 -0.00999238302049851
218.0 0.033430887780839934 -0.019369753663943754 0.01423643157047209 0.20274323183247048 0.0016123556408343968 0.2010576234505288 0.04064999914179164 -0.01360213215866748
223.9 0.030482170726484868 -0.02093314689644476 0.04067680000727985 0.19877048185424276 0.026701184048654843 0.2004811270505102 0.03840519990341206 -0.017077882256559127
229.8 0.026309256451239084 -0.023643870278501938 0.06579629267671401 0.19284784503611518 0.05252753857669952 0.19461943882262334 0.03455508651677842 -0.019510767059212716
235.70000000000002 0.02183490779228575 -0.024400964484711705 0.09000744250737384 0.1820468398502724 0.07642739032853148 0.18650290591358532 0.031216910592340535 -0.022206554885252968
241.60000000000002 0.018914810255907605 -0.025831944795687473 0.11315272886195926 0.16884333340328114 0.10093189231099883 0.1759729189690548 0.027339389135985315 -0.024722054115309772
247.5 0.014436056934090927 -0.0269412843293262 0.13376207114901886 0.15340613544681578 0.12223045875738883 0.16139172190875126 0.02358861508839126 -0.0260107447392312
253.4 0.010495189706578612 -0.025910932744612696 0.15252507795434522 0.1345101268199935 0.1413432434437249 0.14494334474309456 0.019446867303657227 -0.025707038008005577
259.3 0.00706487086643047 -0.02548945844092469 0.1678079154992281 0.11279713436624662 0.1600521018091484 0.1252874619851682 0.014337023948693699 -0.027591069041561927
265.20000000000005 0.0028869490628183475 -0.024221746582912828 0.18267429535211466 0.09138665436957327 0.17399816982668143 0.10440622418465119 0.010348236551064233 -0.026630493233518567
271.1 -0.0016450298045017674 -0.023118992423996204 0.19143376073934876 0.06606618760474706 0.18521850688600583 0.07927467452659513 0.006680927080068034 -0.024043558986302404
277.0 -0.0036142652196054035 -0.020604520428967453 0.19984551956940913 0.04085492521397304 0.19392571457106814 0.055264201080715114 0.00305469736728483 -0.022295259178803675
282.9 -0.0065743604839385026 -0.018021310790577703 0.20248927018412335 0.01528555482069681 0.19912929446161234 0.030111615169096967 -0.0007026686745932204 -0.020296456552662656
288.8 -0.0075393567550344235 -0.016114563457709126 0.2031385114400231 -0.012301732981219159 0.20202003202078211 0.0032608107846994207 -0.0032772724962180084 -0.017587426077395257
294.70000000000005 -0.010310584214710667 -0.013781585109793383 0.19975041829703355 -0.03748522450457069 0.20075733258153633 -0.0221601375311486 -0.006262133591807314 -0.016528410908655183
300.6 -0.014540833417682846 -0.01055698532014165 0.19346895803277617 -0.0632877807676042 0.19650643703215764 -0.047846332186201615 -0.006804495743928517 -0.014057711848255595
306.5 -0.01364705536767338 -0.0076726811912399325 0.1836488319847715 -0.08820032125224615 0.18865886025928508 -0.07212349554143742 -0.009783907806176995 -0.009174935278762963
312.4 -0.014993085041613582 -0.004766112110699718 0.16995553271723185 -0.11096082575825934 0.17789225301855666 -0.09483713413496057 -0.01103931783756759 -0.0063867278003453525
318.3 -0.015475360749818905 -0.001181889776829782 0.1542665710832689 -0.13183588606261837 0.16457918440380848 -0.11675551958428838 -0.012863095009424468 -0.004100050241063653
324.20000000000005 -0.014539324727094015 0.0019880072869629213 0.13597099084427203 -0.15039139582939431 0.14830032029018556 -0.1375761133274378 -0.012674851068968512 0.00041615778198353235
330.1 -0.015783052556052925 0.005328165418632825 0.11387956444694503 -0.16734021087818865 0.1292142867793717 -0.15644097293867398 -0.01303653447301695 0.004291639700053652
336.0 -0.013982489621616091 0.008161721141869588 0.09275562723888138 -0.1803218479229453 0.10795001710117859 -0.17232723388375448 -0.012961431523564685 0.007778260159658701
341.9 -0.011497748636812733 0.012234152672543621 0.06827344665763413 -0.191479795605627 0.08586202520818874 -0.18339971361879834 -0.011117502580577516 0.011298942311231817
347.8 -0.010496428626175105 0.014399418389259533 0.04382965168098627 -0.1990296976439998 0.06100703658150308 -0.192380165037416 -0.010158728990857107 0.01572097455693548
353.70000000000005 -0.009392859533970493 0.017879155007003066 0.016569914457704733 -0.20134741540045076 0.03618925365310206 -0.19910951702918545 -0.007410787839246426 0.018945288122553992
359.6 -0.005528059693446174 0.020627218995327674 -0.008329134440435211 -0.20323124329642844 0.01022001474853124 -0.20210402211796977 -0.005070698799296617 0.02171961761106551
365.5 -0.0025698767593088055 0.022255474624066445 -0.03529710939674255 -0.20065723286589154 -0.01612000305452151 -0.20209092085914682 -0.0015322759302293452 0.02465651482558905
371.40000000000003 0.0008195817056163842 0.024513203826539504 -0.06033375429582772 -0.19290266389029403 -0.041625016997805596 -0.19852355035473984 0.0006701524353317375 0.02619851873828506
377.3 0.004965836963253268 0.025545503082687163 -0.08508309946181601 -0.18421368121302178 -0.06716979888017997 -0.19178872570653827 0.005075491687220067 0.02885572902622564
383.20000000000005 0.008352077252173278 0.02700323980919746 -0.1079021787203254 -0.17084448076125452 -0.09137435507442995 -0.18125089289062465 0.010406867277047977 0.030859364206554347
389.1 0.012062213389727083 0.026503223605442425 -0.12932709520683155 -0.15592713684820142 -0.11342315270003361 -0.16831328780474736 0.014335117906225792 0.02978988021215782
395.0 0.01609580517696475 0.02692353352110715 -0.1482899846506069 -0.13735608896064 -0.13373035312601456 -0.15195228814697184 0.01970894214238904 0.030123797398330328
400.90000000000003 0.019815064687746645 0.025590819519509832 -0.16470396722050795 -0.11672203088368069 -0.15244946638531925 -0.13273288429083901 0.023386387576287172 0.0295414944125096
406.8 0.023678291536428347 0.024041517086598584 -0.17850474178508058 -0.09466656545684968 -0.168122941000691 -0.11278847420478676 0.027707495661122777 0.027845613003884412
412.70000000000005 0.027697436969375096 0.021855572127248823 -0.18965067497229787 -0.07019091832978176 -0.1810063254143282 -0.09010111874215714 0.03134620865156117 0.02557581850183015
418.6 0.030425130193716114 0.019928927040868252 -0.19626600061505714 -0.04515196718505739 -0.19051453332659557 -0.06600258728089123 0.03464137725487375 0.02375178069518612
424.5 0.033322307311696754 0.016362670388059934 -0.20062543929790058 -0.01886405072809179 -0.19727671830675966 -0.04178566041805903 0.03784850196559895 0.0204859677301604
430.40000000000003 0.03648852024369999 0.01417172039116554 -0.19842475854268618 0.00744360385315519 -0.19895729982831817 -0.013855129732173996 0.04106075309947977 0.017926434592026762
436.3 0.03899945700690247 0.011545076903316312 -0.19669598491806636 0.032616958287593034 -0.19982460903622137 0.010296797029792517 0.0442407325514327 0.014150050274499427
442.20000000000005 0.04161653362885015 0.0073172097585029895 -0.1910022938924802 0.05803863492162251 -0.1965456726433726 0.03745159515431285 0.046907287368264605 0.009819539865922516
448.1 0.04380496848825371 0.0025877832711824647 -0.1806757900342799 0.08232120722560057 -0.19058951799579196 0.06178520299310941 0.047617678078105595 0.005757832319458528
454.0 0.044526569131514045 -0.001351568726915357 -0.1691240206090201 0.10564519453337354 -0.1801502792899004 0.08459544357756514 0.050381466261164055 0.0021963198261745888
459.90000000000003 0.046369134202891085 -0.005859794157440745 -0.1535313517218476 0.12561863025165607 -0.1684338556295913 0.10750002722760295 0.05153306237901686 -0.0030201971926449695
465.8 0.04681383520945846 -0.010122979267751594 -0.13657253599048483 0.1442635304981839 -0.15350452686089663 0.1282492477106777 0.05245259286544093 -0.007890692335529657
471.70000000000005 0.04698330325375032 -0.015915075553986885 -0.11671763945824482 0.16056674280015254 -0.13580301185899643 0.14695547937239736 0.05353039859898639 -0.012893684184406142
477.6 0.04545172820903949 -0.02065692505227464 -0.0950900642463561 0.1742207994553059 -0.11523997710136903 0.16185740772148752 0.05420897915631026 -0.018494661049020616
483.5 0.045178014360176405 -0.02520857869778659 -0.07219820361080653 0.18501970499112969 -0.09361584353106793 0.17544517460499562 0.053865208676919345 -0.02403832622626336
489.40000000000003 0.04306140219729634 -0.0309143987870512 -0.047257306006241354 0.19329706928408483 -0.0708298617798855 0.18625733534933206 0.05220677485382777 -0.028797626112864596
495.3 0.04059581384113991 -0.034859613053922725 -0.022366440683205226 0.19677458113291707 -0.046934151072688536 0.19357667049916744 0.04922121935530486 -0.034583553851395735
501.20000000000005 0.03702857267691576 -0.03953931152759922 0.003985066415928478 0.1980639750385416 -0.020816778986550315 0.19826669186103904 0.04741331901540029 -0.03995999177603228
507.1 0.0329344266100426 -0.04365791792229403 0.02832492540481414 0.19574012726919307 0.0033244444242555462 0.1986249637104552 0.04451919057258834 -0.045568998486531564
513.0 0.029083836609078574 -0.04707789030564871 0.05391760849553596 0.19052553458532404 0.029716833953118013 0.19788380837453012 0.04145141365152433 -0.04993888801342194
518.9000000000001 0.023740559166885652 -0.04977672474185979 0.07818698136900214 0.18141960582153996 0.05421742469044188 0.19160174300546395 0.0368268276955556 -0.054231708886240175
524.8 0.01969796659071963 -0.05239026837537993 0.10069476015714096 0.16954055606430396 0.07821596667965552 0.18308314290031388 0.03284815844886972 -0.05754401405303481
530.7 0.014502385688170697 -0.05467393094304034 0.12198927676270621 0.15565697442860885 0.10088855366875304 0.1723895680742485 0.02672148374896251 -0.05957263551356873
536.6 0.009836804237972825 -0.05534415638931288 0.1394645309918626 0.1388531164635766 0.1224066137365564 0.15778343736743905 0.022345746277497736 -0.06273768801553066
542.5 0.003827269665037146 -0.055623666109081524 0.15662790685460093 0.11933439187639883 0.14056656872309184 0.1411170908038842 0.016925476974522423 -0.06509312854651611
548.4000000000001 0.0003370645323665108 -0.0565664055493853 0.1707787739668164 0.09787374413146999 0.15872097659424902 0.12115404064930844 0.011796895831901688 -0.06697528160513282
554.3 -0.004776425283802329 -0.05580548633634524 0.18200730581687116 0.07550226581466347 0.17263281826642066 0.10036165567216523 0.005386947757223901 -0.06774357831118184
560.2 -0.009547407686351416 -0.05590457317324215 0.18988064090045584 0.05137339992304369 0.18344689383360793 0.07866913427566415 4.546971030602789e-05 -0.06869830093188047
566.1 -0.01481672840183436 -0.054547872295232926 0.19471819096083318 0.026442644752746557 0.19192222696530709 0.05472666367318172 -0.0056576206060801265 -0.06847798910353943
572.0 -0.01915234418323273 -0.05341526953910982 0.1966691705707081 0.0011833980740040008 0.19803771824597013 0.0288086041340959 -0.011471785937103083 -0.06863193740639693
577.9000000000001 -0.02433418825680231 -0.05158558146610867 0.19438888462783196 -0.023699025072310972 0.19974271014499534 0.004624175327948508 -0.016504756329389077 -0.06862605730263475
583.8 -0.029338111494234754 -0.048811582889500646 0.1907279186136818 -0.04891600614037681 0.19906379438115765 -0.02157853124030089 -0.02341890338581333 -0.06616030608521126
589.7 -0.03274145809823462 -0.046656146178094764 0.1820136087722792 -0.07222601002667974 0.19494888469627833 -0.04628262935550411 -0.0288159920051187 -0.06455554502869587
595.6 -0.03642129689881888 -0.04283260573234177 0.17186084171240035 -0.09489858715527233 0.18433760265829016 -0.06919839108511693 -0.034863409315532834 -0.06343044045449055
601.5 -0.04088574729488741 -0.04006293056238468 0.15902488226513284 -0.11529776975578826 0.17459660199467372 -0.09110102566430721 -0.04001441970564424 -0.059732209359116314
607.4000000000001 -0.04297973317690611 -0.03433204206277549 0.14213575087374547 -0.1346203121440962 0.16101588328929675 -0.11231835484210703 -0.04478261709143632 -0.0554632815446147
613.3000000000001 -0.04590738240937305 -0.0293838621807434 0.12466416854977647 -0.1519918180912609 0.14617845350548467 -0.13292651606748856 -0.049978440469487184 -0.05104522263761464
619.2 -0.04856608431789423 -0.0251011306845565 0.10347036198712178 -0.16685401753751664 0.1278109041080001 -0.1507477549517822 -0.0544502462481993 -0.046777769956661636
625.1 -0.04962403643247889 -0.020403292528967023 0.08213063452389863 -0.1782383492313408 0.10751387219551606 -0.16550781141144652 -0.05750995039087401 -0.040874181160012735
631.0 -0.051201837712953724 -0.014404364349675028 0.05795588635655689 -0.18792752150006858 0.08591429335609077 -0.17732473028359086 -0.0604433861942483 -0.035093177784204996
636.9 -0.05106117573731568 -0.009779846870778573 0.03271650909940067 -0.19432923484298878 0.06350977577163511 -0.18719037430161964 -0.06256934799361132 -0.030239012871541834
642.8000000000001 -0.05069257247267013 -0.004500940781853313 0.00906869340098469 -0.19663311276999773 0.038750105405536577 -0.1945246618240567 -0.06402116522501876 -0.024071203236556843
648.7 -0.04835836110406503 -0.00021432267667757655 -0.017232119366330973 -0.1961356100731305 0.014216053531877512 -0.197737956766114 -0.06412879231942789 -0.019092509304277777
654.6 -0.04655236671858421 0.004170235339528289 -0.04278517318417524 -0.19259420021451332 -0.01303524239756635 -0.19857489352388497 -0.06415277816231775 -0.012303128590595798
660.5 -0.043742637559772986 0.00809516314042593 -0.06749515856633485 -0.18672474754636145 -0.03766816141428421 -0.19507380916665912 -0.0629259536883286 -0.007404574727277881
666.4000000000001 -0.04126016656275038 0.011597859467430582 -0.09064283100442745 -0.17679143640371534 -0.0623917851265906 -0.18858341209583385 -0.0634766965916572 -0.0015420747449937412
672.3000000000001 -0.03960203675849027 0.014254710041668417 -0.11291770546520018 -0.16348857472416614 -0.08572412505215957 -0.18012075947066958 -0.06151709456594096 0.002679278685032756
678.2 -0.036851538974993624 0.015832689653294103 -0.13514498943461525 -0.14658713646455268 -0.10806683657057202 -0.16727338991365798 -0.05945502230240303 0.006090060288956382
684.1 -0.033852916398781 0.018333255331907168 -0.15160192409048906 -0.1288816452102566 -0.1282926036419417 -0.152311135421517 -0.05681368952635559 0.0094988706079844
690.0 -0.031471346591522995 0.019972080911651823 -0.16772845904384018 -0.10849518493121829 -0.14697395404345356 -0.13444540680041683 -0.05539351269701646 0.014044874634662993
695.9000000000001 -0.029077023635890237 0.019307488920729927 -0.17955325641928527 -0.08584845623011181 -0.16402834861400306 -0.11494176800662226 -0.05333930104797541 0.016972912733225626
701.8000000000001 -0.026466458097748783 0.0207264527121681 -0.18996341602603575 -0.061090733145239405 -0.1780893143609882 -0.09266220726465872 -0.051417137131559675 0.020534150466813256
707.7 -0.02534539273143517 0.02194750113720181 -0.19600237295653825 -0.03671102825158614 -0.18856553544779828 -0.06897025492139172 -0.05019747051282543 0.02351248921729887
713.6 -0.02292445068927276 0.022040217407352444 -0.19983912248030927 -0.010625076616420455 -0.19555812202095266 -0.044416632926711656 -0.04749811808406025 0.026872783876429475
719.5 -0.020308238710029052 0.024229404191506987 -0.20126039781194285 0.01581913313271443 -0.2001220375742911 -0.017175907844608148 -0.044304043888688686 0.030021193911174294
725.4000000000001 -0.018168197531856656 0.023993295542803012 -0.19674879079863097 0.04253401659572679 -0.20111170643896883 0.007567970638671845 -0.04204495635343719 0.03313636367367154
731.3000000000001 -0.015733987973967935 0.02451120887922986 -0.1889501815940478 0.06664409452439143 -0.19857807789655058 0.03327212392766786 -0.03799654767868896 0.03616691698347491
737.2 -0.012566480158673168 0.024460520191487086 -0.17884702572378378 0.09142516494427998 -0.19296803541736188 0.058197844384243885 -0.034070897133412666 0.037767140754045664
743.1 -0.010273079370729724 0.02387172838152856 -0.1652107830148945 0.11415133664288174 -0.18284217430461402 0.08333206974512565 -0.030340829454311415 0.039944340112642994
749.0 -0.007773969958830402 0.023719374404856018 -0.14924550558216082 0.13363924743877956 -0.17164286861919228 0.10596097454391751 -0.0269844977967501 0.04118081312957829
754.9000000000001 -0.005070706413202223 0.0240195301428819 -0.1299739771405104 0.15351948904083737 -0.15590846665412675 0.12676323453925492 -0.022511377899550974 0.042725224198768966
760.8000000000001 -0.0028450738357542306 0.021349478714843786 -0.10976539285842697 0.16965740759944253 -0.13868639299729194 0.14377359146050162 -0.01785442833546873 0.04375579076482128
