!Created with skrf (http://scikit-rf.org).
# MHz S RI R 50.0 
!freq ReS11 ImS11 ReS21 ImS21 ReS12 ImS12 ReS22 ImS22
100.0 0.011528679211266166 0.0009193033333774148 0.16550671375876597 0.06031247058183941 0.16550207816338783 0.05646494553348049 0.00740179441706826 -0.0071131829204397895
105.9 0.012910669713280384 0.002579543999262292 0.16671398630348327 0.05676908338855099 0.16630430348083375 0.05647765850410049 0.010503758322861954 -0.004595466323575476
111.8 0.010733203954096195 0.004784567509168179 0.17242490959691828 -0.0354597293125051 0.17126739284406425 -0.0327567015043799 0.015596804651683172 0.009215872527422161
117.7 0.014878171399820221 0.0020693798788114248 0.1733830709047543 -0.037359855300885494 0.1725106598590886 -0.03169377911802127 0.019955118021497322 0.007625785364587481
123.6 0.007461991416368548 -0.0021551251563168314 0.17518866702970173 -0.03193474876019543 0.17260016827598898 -0.03516582404834474 0.01192387807894337 0.004431886908821444
129.5 0.01007474952879573 -0.0007917989899819349 0.1747350634954923 -0.030865865609660984 0.17183343930600614 -0.03696987428246527 0.013248494584992708 0.005275705911233674
135.4 0.006016191776286608 -0.00022258578175183037 0.17369818986973362 -0.033255896452101454 0.17042496966518816 -0.03817842491840706 0.009749514202532108 0.006489149296073869
141.3 0.0066571365840298775 -0.00047859214191284596 0.17075700387490902 -0.03973166280496082 0.16860109413888955 -0.039844710115071215 0.008937297841318899 0.006289071001760155
147.2 0.004850665550984947 0.00089857227305461 0.17022109827103157 -0.0514489103344517 0.17115714984837382 -0.03920743908607736 0.007770280414870162 0.007409607565170517
153.1 0.003653689345230427 0.002581678280146404 0.17400313008747978 -0.03856677021797207 0.17145016204947056 -0.03668522415666732 0.004190884875072475 0.010451679015612447
159.0 0.013145103189665707 -0.0013495610648324029 0.17291380740374135 -0.03908140619694441 0.16858378293734352 -0.045036828217642155 0.014458829669893623 0.005312687032559161
164.9 0.010214860567559039 0.00046723974428199665 0.17153859084811682 -0.04507193662665402 0.16991178238046586 -0.0396552021550961 0.010335024445526602 0.007588488300950556
170.8 0.007805251004640606 -0.00090858053919445 0.16863107857286533 -0.05513259488166497 0.16767077066016126 -0.049667203012101625 0.007568107711584991 0.006753713476742055
176.7 0.007818728332623632 0.0028609182494855265 0.16836865614199845 -0.05205032833065488 0.16666367161692477 -0.05340965043357991 0.008584128778841406 0.01022678190572451
182.60000000000002 0.008160535559244756 0.0014510143501790837 0.16945910396645408 -0.049701398296574675 0.1672860984551087 -0.04704678279005525 0.00745310704667688 0.008028319077389516
188.5 0.004320366623585424 0.00040268390266401453 0.1671568184051806 -0.05647152186874741 0.1659810016850799 -0.051059012351974624 0.0027976864829267335 0.007658616483066487
194.4 0.006077398667520278 0.003037439027861531 0.16612906538705074 -0.058012917083329486 0.165034247436632 -0.057130618775443474 0.005899481802925955 0.009415291379898308
200.3 0.008372036907207727 -0.000999273926532821 0.1677391000483444 -0.056027173846399436 0.16698858476869782 -0.05156718981814004 0.0062319488306323955 0.006361895041595606
206.2 0.006772966416022112 -0.0025314502479911677 0.165563929679727 -0.05924974007367661 0.1624925082447767 -0.058586054770357436 0.004902061418929978 0.004240209986111366
212.10000000000002 0.008886229698054672 0.0019547265702740037 0.1670403898934774 -0.05714554602725844 0.1620086538676569 -0.06082563120834305 0.007072745331386811 0.008417766732825176
218.0 0.0092985402828703 -0.0024912295860561712 0.1636937492766853 -0.06532688876686092 0.16047218694076631 -0.06648621149080354 0.006730355591965193 0.005082969273761431
223.9 0.00719205413000569 -0.0006077808381177467 0.16417907272962615 -0.06621403699598563 0.16412437300726346 -0.06226008821866143 0.0053171163532405065 0.0068271526015201275
229.8 0.009182064163125222 -0.0014834917069235269 0.16298122468630194 -0.06877790465281904 0.16122646508324862 -0.06384112266831944 0.006279853028175241 0.005940310930196829
235.70000000000002 0.0038532987492986485 -0.002505090017876515 0.1627789343774669 -0.06556700337507335 0.16247506344195134 -0.061604694833432554 0.0015458938739960017 0.005484692254925199
241.60000000000002 0.013021073441294126 9.49800204989461e-05 0.16427744078063608 -0.06340638508056107 0.16205574113103002 -0.06601449265271377 0.010787316904814496 0.00709279395034687
247.5 0.01326504015022851 -0.0015929471404616936 0.16354478421704852 -0.06661291363765298 0.16021158236201438 -0.06841562036682737 0.01025192473287717 0.005762852297813984
253.4 0.011740658198463084 -0.0036824370077076646 0.16287616390132226 -0.06821073667918025 0.15905598996639017 -0.07086125323241825 0.008547544799466476 0.003365969910864806
259.3 0.010336220218431518 -0.0014276061243350543 0.16041430542958368 -0.07230335039043988 0.16191951248472763 -0.0675704737977666 0.008699820902945552 0.0049258147556174615
265.20000000000005 0.01140689013707976 -0.0012570638824753726 0.16308989091199316 -0.06818932807771395 0.15843535091011043 -0.07128844886106508 0.009112005689983858 0.005089800110360132
271.1 0.010955117813091816 -0.0011769587324670845 0.1557414392236888 -0.07943875099540065 0.15681248743847903 -0.07373651552289064 0.006666060997432491 0.004629222201102562
277.0 0.010048878122736391 0.0003030704753404788 0.15781407158968086 -0.07870037343098378 0.15639981179019533 -0.07423822975572686 0.006556884458396264 0.005092636720987037
282.9 0.015222593512377374 -0.001102264661169785 0.15693500892705387 -0.07879016678350284 0.15778251371590796 -0.06977430455278463 0.011952979608289843 0.0032202653718821543
288.8 0.007823175927582032 0.0017048936463372087 0.15897487737628466 -0.07585747698746925 0.15762303860215704 -0.07259217219659737 0.004975572229028064 0.00435215284670685
294.70000000000005 0.014798262549262309 0.00040976018003528205 0.1558328874893475 -0.07967390278954077 0.15576982307198678 -0.07594748139362904 0.01222241572544844 0.003733942801127519
300.6 0.012833511439527538 -0.0028434551689856913 0.15795201038730333 -0.07554274323027811 0.1526802509212473 -0.08213060454251671 0.006887571419107837 0.0013768415329872268
306.5 0.014163582622978116 0.0033222374698835574 0.15416832468236266 -0.0853837288584829 0.15211548687308046 -0.0827166068013234 0.010975303307550057 0.004927145698455164
312.4 0.012135233297271593 0.001359986318821276 0.15340066509444777 -0.08402089596306983 0.15213274488224077 -0.08276070057546545 0.008687410110608048 0.002636431284358044
318.3 0.016275270262292692 -0.004748757812618586 0.15427803773013668 -0.08256455682619183 0.1497459547744538 -0.08661156634611637 0.01367055695359492 -0.0026145114030597097
324.20000000000005 0.011469980099699222 0.0002618946982068284 0.15175477013676653 -0.0880587354165446 0.15040594923716072 -0.08622066144165046 0.009562582743945065 0.0011408086045768698
330.1 0.016051030339404897 -0.002235562360133651 0.14846932688961545 -0.0931574414527154 0.14978099589632454 -0.0889221974719941 0.013520383954749308 -0.002280893927696126
336.0 0.010609884249918903 -0.0007193485658600948 0.14712319157717352 -0.09629846893877382 0.14791028069910314 -0.09338333413920157 0.0096749869836468 -0.0008347587819782085
341.9 0.011933386058648734 -0.004150841793096943 0.15363280644463975 -0.08418556718731157 0.15173211786295865 -0.0818834780053505 0.011175347080614137 -0.003734670549101561
347.8 0.008562611677532852 -0.0011326757884185534 0.1512929292420938 -0.09143720563462208 0.14765325951754976 -0.09077577738634071 0.0091386402943476 -0.002159412628720509
353.70000000000005 0.015854822912117157 -0.001056711151504846 0.14564726138239337 -0.09666329814876021 0.1485134119946333 -0.08940202108913062 0.015467311766628347 -0.0029551214201372785
359.6 0.015293609153625055 -0.007052197306055873 0.1461686353972021 -0.09698180294208626 0.14701347913953006 -0.09091355424362338 0.015867278573065573 -0.007891284391482468
365.5 0.01383350622461696 -0.0032739669325855297 0.14520536804244483 -0.10026105036846991 0.14372486813190383 -0.0980877385071068 0.015265820392676491 -0.005015898201882213
371.40000000000003 0.011866399737886882 0.0005595463594163026 0.14210421118530112 -0.10249403713595938 0.14238217462232652 -0.09893384231213022 0.01326897621044554 0.00016726524393564075
377.3 0.008887033573942197 -0.00634940649703614 0.14180537255262127 -0.10475873498964518 0.14274933311000423 -0.10048669013633145 0.01164238641522413 -0.0071213157418731675
383.20000000000005 0.00981929809144551 -0.005186675899354806 0.14408219747353734 -0.10039457072089242 0.14201031626309693 -0.10008977679307048 0.01295967678682548 -0.007269897984348446
389.1 0.009915419074508956 -0.0012619765572972912 0.14662353390956992 -0.09664122577874196 0.1444085970021886 -0.09704535205286986 0.012852893487481115 -0.003061193712467855
395.0 0.011739153276469537 -0.007425767150626556 0.14221437128659098 -0.10252462527597338 0.13732744172357184 -0.10613142065461632 0.014883399639993466 -0.010153219258751008
400.90000000000003 0.010580636497531304 -0.002451482190002402 0.13959500191908025 -0.1078347776250836 0.13727144765210939 -0.10743103323246209 0.014656234895791476 -0.004633503161141915
406.8 0.008637353967059537 -0.005083291378943731 0.13995358859609627 -0.1054647012878595 0.13412443422746723 -0.11000784140979522 0.01294085786060197 -0.007156549831656825
412.70000000000005 0.010747158670322636 -0.007689949962593234 0.1392333700913788 -0.1066063129247454 0.13616978606726568 -0.10711464604171567 0.015072522608652016 -0.00890132159643299
418.6 0.007945788693123866 -0.0068549125169543035 0.13670193810801629 -0.10985494850745717 0.13720252309406153 -0.1056266168928815 0.012759523576095241 -0.007880037175164651
424.5 0.00536902365778323 0.0026330073066231008 0.1397345364144197 -0.10572152259390472 0.13725498131092276 -0.10586678340102251 0.010651377650302206 0.002290540661839505
430.40000000000003 0.007909984393107845 0.002392353711222441 0.13627817716445736 -0.10758563159928856 0.1313897293246918 -0.11097699935738314 0.013047047471301483 0.002323989585656856
436.3 0.010743306648235213 0.0023360900660723202 0.13692702407997967 -0.10915251698561786 0.1364779096843279 -0.10641638373304015 0.015819820780745255 0.0018345679771516624
442.20000000000005 0.007645972102105432 -0.003932399695451002 0.1321149334768569 -0.11465890419534149 0.12927905352119634 -0.11467654834790668 0.012734221858321869 -0.004119558359749043
448.1 0.008040895605689153 -0.005467837324911426 0.12647365743002753 -0.11974380974088795 0.12980040801784815 -0.11399693398972374 0.012127782498591892 -0.004091863868965239
454.0 0.010035837422017947 -0.003778130101823154 0.1326717513607407 -0.11487202423571409 0.13104084634980104 -0.111265412349117 0.015673401080976028 -0.0018175110478035779
459.90000000000003 0.007605098358444194 -0.0027756836027633676 0.1277721938974595 -0.11810261859552713 0.13123417669901405 -0.11232792794895372 0.012326386319824106 -0.0007648067017986864
465.8 0.011261696465946358 -0.004703173300695906 0.12340779890361536 -0.12361014440727018 0.12181579391187768 -0.12296197299125029 0.016243023416657492 -0.0029231825837037124
471.70000000000005 0.008668389141877371 -0.0068394653955770055 0.1290856869193567 -0.11716287524903621 0.12585833105677002 -0.11812804049000127 0.0139504237235475 -0.0034499653404603007
477.6 0.008604290995682416 -0.003628569570407849 0.12762922815259378 -0.11990025276063954 0.12636635425398404 -0.11721964902638694 0.015519487985558586 0.00017324541968171352
483.5 0.006964710184014988 -0.0050491390640856285 0.1278113890573304 -0.11839208380661909 0.12595867292636606 -0.1181263198388179 0.013591120045469694 -0.001225497994509961
489.40000000000003 0.013785062672622209 -0.00499555602519108 0.1262567179198614 -0.12187747489325788 0.12384262028097096 -0.12061864383226448 0.019921625429579447 0.0004596261487539098
495.3 0.012312129847197097 -0.006398970879615595 0.1251634991364525 -0.12271838983708296 0.12651100571851864 -0.11818882804859981 0.018274138301348535 -0.0017354246112923947
501.20000000000005 0.015741409360279447 -0.007526797193659736 0.123183344420605 -0.1253885621843982 0.12253430180194078 -0.12297220719419547 0.022744421413840546 -0.0016600524442727375
507.1 0.00957316346514206 -0.007520057547548373 0.12129491340822965 -0.1266784999513999 0.11959028035282715 -0.12539678507839197 0.01760646188721612 -0.0010314593812512831
513.0 0.013557553122476505 -0.008760434174794047 0.11756371487111393 -0.13021471140414617 0.11914751583533792 -0.12642502727924235 0.021852515764690224 -0.0013346192191676137
518.9000000000001 0.009466960447092634 -0.006993271660158371 0.11773149026706639 -0.12973787926673752 0.11615583325273122 -0.12910516953956003 0.018379005467080604 0.0012758958752492504
524.8 0.013084828684607051 -0.006060455368891888 0.11931548587582812 -0.12851146163875404 0.11954533725793401 -0.12614392924385504 0.021300176454130095 0.0032867347380139415
530.7 0.011800621860994872 -0.007041527492069418 0.1183958299814642 -0.13006160786314094 0.11879901658598808 -0.12707040170546294 0.018436248351524673 0.0024556559335047806
536.6 0.0129298463750189 -0.009713433758121486 0.11483358959885939 -0.13229761955582478 0.11362384332654353 -0.1316885344401465 0.020850376530265915 0.0003345573859997488
542.5 0.013159442662328352 -0.004542474313809252 0.11156895324877303 -0.13534332610430533 0.10769471773324073 -0.13557389303840084 0.02193368465247949 0.0066509519589201425
548.4000000000001 0.01585829068306164 -0.013447999387453715 0.11759943634796859 -0.13002891896166896 0.11377449356166085 -0.13149058002348296 0.023548899719475533 -0.002189684009978976
554.3 0.007636499081410187 -0.01184771101934571 0.10965462207267676 -0.13740406106755937 0.10834042374426539 -0.13569586384724838 0.01601327585778216 -0.0008692152749461083
560.2 0.011399622018975151 -0.005925740171011674 0.11043713659380636 -0.13651025844400588 0.10280813493882868 -0.1401353787767958 0.019423854517385306 0.0056655591447011865
566.1 0.014037662581930076 -0.010441373201817374 0.10222758094005224 -0.14289275932324896 0.10932360204168334 -0.13531919950838245 0.0216710941023119 0.0021421552198809587
572.0 0.012095855934176588 -0.007566846717067785 0.1069588175679128 -0.13803484781302955 0.10788971461374713 -0.13517456671245037 0.019413307933410694 0.005448464966622847
577.9000000000001 0.014875658247263173 -0.006820293406403652 0.10509607002774651 -0.14085980753327776 0.10660953180312195 -0.13780688596214002 0.021961405917963833 0.008180379831181347
583.8 0.01589745430632718 -0.007930430115883822 0.10418497071617773 -0.1411251391370087 0.10380079746051996 -0.13876241710442302 0.02251033999638259 0.006744227030002287
589.7 0.012598208414193636 -0.005939491335526086 0.10564689474278953 -0.13929825839131474 0.09814283476215495 -0.14367265939925195 0.019256892160821562 0.008757512829615809
595.6 0.013076983822006972 -0.0007355081930964003 0.10143229402390372 -0.14185136047707492 0.09910048890998563 -0.1396994743723888 0.02088683630052048 0.015657011146436053
601.5 0.0091989704651454 -0.006410801800595338 0.09993795743220393 -0.14210219178462452 0.0973791388185369 -0.14168533209659084 0.015372157651908048 0.009750651009769979
607.4000000000001 0.011326963241944793 -0.003424368512816308 0.10070024310242742 -0.14205767570816463 0.09621167536854236 -0.14152716375085433 0.017999626733849746 0.014017344440712745
613.3000000000001 0.01173964814148761 -0.006942266842480701 0.09166376497321699 -0.14788709225434002 0.0901171300700463 -0.1459315274750055 0.019113801377900943 0.010914679865902627
619.2 0.013236769912851394 -0.006548747592257924 0.09498208151597068 -0.14554314617735994 0.08978208695161173 -0.14706172835658585 0.019650680271104608 0.012111341507309708
625.1 0.012353864061716954 -0.0070718328695120345 0.09742335044611695 -0.14404931527140466 0.09354793762515758 -0.14396460163603245 0.017791330119608248 0.011405157626157122
631.0 0.01649956799099738 -0.005612852527158363 0.09117161933289337 -0.14758532874165034 0.08909919077969061 -0.1451549548560074 0.02126631766537961 0.0135902090186684
636.9 0.012421500284577917 -0.00737546071909011 0.09255120736265211 -0.14730453196800675 0.09044394977866836 -0.14546709523983734 0.016514739903607585 0.012743259681566988
642.8000000000001 0.010766852033842008 -0.0021458052292419806 0.08783897652112564 -0.14923728980486095 0.08969660843319753 -0.14642341772233558 0.014434953575872109 0.018189779487782217
648.7 0.010872987532408526 -0.009971315842050655 0.08904500647551122 -0.14838931547582332 0.08498259716656709 -0.14892531102824708 0.014258175905333712 0.01120732182073105
654.6 0.014860839841159098 -0.007492818364297347 0.08656195633305608 -0.1502505211364177 0.08425880413460894 -0.15042802394344718 0.018207355358552193 0.01327613992147365
660.5 0.01099717732688878 -0.007166740409992094 0.08479466347115058 -0.1515087211579808 0.08429571059709477 -0.14860018248154522 0.013329767733810245 0.014091896952884368
666.4000000000001 0.010410648419232914 -0.009692561920629771 0.08761596771973895 -0.14946956036876807 0.08791857581076866 -0.14651005530574068 0.012747280337847468 0.012540461784772096
672.3000000000001 0.008529769125555038 -0.012650795164521554 0.08134381803883942 -0.15318745468308798 0.07865598248337922 -0.15255328332752852 0.010212654230012339 0.008762580841519855
678.2 0.009776458236277843 -0.015852570724701382 0.08624803955403067 -0.15132692496520295 0.08516479655029585 -0.1490802098912094 0.009479736256501708 0.005506591572423017
684.1 0.015209808041523406 -0.006923917216018182 0.08685930772387485 -0.14998477582426695 0.07975807010007534 -0.15120053098003716 0.013408296483719247 0.014272865788290866
690.0 0.012710858335970753 -0.010733561950779182 0.07929589962970249 -0.1542285172441166 0.07847267283263365 -0.1519694671014048 0.011411015701500165 0.010505128058664307
695.9000000000001 0.013911341121249495 -0.004662357560892437 0.0777303590002282 -0.1545377486584247 0.07590567403964205 -0.15443120556652995 0.013305769222993483 0.01639184093281138
701.8000000000001 0.011730366030727411 -0.010624263457423063 0.07006567692491585 -0.1581058925420277 0.07585819469235935 -0.15420389906746698 0.010668860493043155 0.010840825102723885
707.7 0.010688206663381473 -0.009181130986583968 0.07523163296104808 -0.15507370385115152 0.0750467728471924 -0.15469983227276188 0.00810469974438341 0.012086119321775125
713.6 0.010907385933957526 -0.008141273612869796 0.08166124019230092 -0.15293238499223233 0.07873466783092539 -0.15342938160109987 0.007679595814717546 0.013232798239645802
719.5 0.013055015690473366 -0.009996448856095855 0.07196696714867394 -0.15946181376360838 0.07089734709479428 -0.1567672719273104 0.009165710002529259 0.010912922775998653
725.4000000000001 0.010960242593317602 -0.011323346145504721 0.07321985742232585 -0.15896088616672563 0.07279691556927723 -0.15675703744939404 0.00672793105164401 0.010360361066882777
731.3000000000001 0.010013364538421067 -0.0050566035523981435 0.07800157660567236 -0.15442758454760236 0.07095755405235357 -0.15618589903492314 0.005366190714533459 0.01599062921151895
737.2 0.01522006990209258 -0.008726342406125373 0.0695114670252002 -0.1595300604028039 0.07155270756563933 -0.15691716317927995 0.009875637520833501 0.012380687243084191
743.1 0.010081909400387688 -0.007444417545695331 0.06729884024126742 -0.15998317491761313 0.06361117705166537 -0.15856426914274527 0.005042554634614489 0.014012366228234588
749.0 0.00526943638729089 -0.010176602817002035 0.05954336819117564 -0.16280068847294352 0.061435226798261314 -0.16058461457145254 -0.0005041808797431708 0.011357857499285083
754.9000000000001 0.015728501413359575 -0.004999989522301416 0.06421255985824974 -0.16105540848390906 0.06692962712815767 -0.15892418703170907 0.008308690780963293 0.0157071427511549
