!Created with skrf (http://scikit-rf.org).
# MHz S RI R 50.0 
!freq ReS11 ImS11 ReS21 ImS21 ReS12 ImS12 ReS22 ImS22
100.0 0.011581034082438045 0.0003610427383901296 0.17365892560780816 0.034205748405323526 0.17306263270665645 0.030385484953456547 0.007511068527217516 -0.007585036433740751
105.9 0.013718780968286721 0.001174096758973608 0.1722588945729601 0.03610493105344203 0.17189384570542904 0.03586052819306027 0.011318013262775891 -0.005882093499654157
111.8 0.010818340431801786 0.005134150779696786 0.17274943453745148 -0.036840816223860484 0.17158650978294182 -0.034118407656631815 0.015818899637583393 0.00968747292458885
117.7 0.014763914505088271 0.0013884774890056467 0.1731530958276135 -0.038156913634212475 0.17227892164680025 -0.03241130503235405 0.019683230765383298 0.006897715784231989
123.6 0.0070929855804112586 -0.002184124731320587 0.17443217276471695 -0.03469739860892702 0.17175801514155492 -0.037866104940847654 0.011633495492440209 0.004052115840315498
129.5 0.009909500311153419 -0.000782510729663777 0.17439575156222695 -0.03367734031114124 0.17137500923513443 -0.03975670132106088 0.013225011683540868 0.004957177210898298
135.4 0.005838209720229995 -0.00023039566905305367 0.17352109684379755 -0.036712668255767 0.1701270449217828 -0.041587571563824914 0.009740315459572413 0.00634065949932659
141.3 0.00616176979790439 -0.0009546493307320419 0.1725126213582419 -0.04122934944124132 0.17024995306543697 -0.041303889289051335 0.008474090745386189 0.005534536830789742
147.2 0.005172059886307711 0.0018571616492739785 0.17023580305836017 -0.050735490625177695 0.17123804341538926 -0.038525336484206175 0.007852471831472639 0.007899586825853924
153.1 0.0041429650497009024 0.0034811957523605847 0.17200898707141227 -0.046038800974978665 0.1696180578344719 -0.04407481354935872 0.004606286397517671 0.01111637810316379
159.0 0.013018716280705186 -0.0012321172694967615 0.1723240845675315 -0.04380502152764854 0.16778135378808612 -0.04966675354636709 0.01423785776763326 0.005072311155033314
164.9 0.01056775031900545 0.0009334149350048608 0.170838604290364 -0.05010184489415872 0.16937829516018083 -0.044651259381497825 0.010517138864859719 0.007729061884310811
170.8 0.007702854942451147 -0.000992281963265434 0.17055833920322386 -0.04973005078083592 0.16935038515942744 -0.04424887912532492 0.007218287643065131 0.006381913920995162
176.7 0.007810464973574397 0.002750438664314244 0.16906526471026312 -0.05109014562354953 0.16736819833651237 -0.05245899419336046 0.00853667970593059 0.010144100558518216
182.60000000000002 0.008440559327022715 0.0020202849873106037 0.16943786826136986 -0.05027349745424366 0.16729413979783522 -0.04758958387296207 0.007885206932369214 0.00843338692349644
188.5 0.004370008778646933 0.0005919630584366719 0.16668286272518604 -0.060324300187408586 0.16562303246213836 -0.05486076320682967 0.0028009819367357277 0.007872144950294367
194.4 0.006219209433830609 0.0027786117371811953 0.16788449921182924 -0.05461035952310332 0.16673608291156772 -0.053735247673130856 0.00593178299353686 0.009048863054190089
200.3 0.007981546180996524 -0.001227498509806989 0.16568169506159353 -0.06222834798456336 0.1650250550120516 -0.05777750615928902 0.00600242426435736 0.005917899369375817
206.2 0.007106732925546518 -0.00201445284419735 0.16885107894653031 -0.056020873881105306 0.1657420882535375 -0.05541537549995321 0.005285908984688643 0.004505142864282259
212.10000000000002 0.009307485375969279 0.002639203962863929 0.16977410310017582 -0.052413950883890274 0.16491544509552228 -0.056284034967463696 0.007334456280634871 0.0086541441761602
218.0 0.009374234173442271 -0.002205048471482621 0.16582279255610244 -0.06256287459469557 0.16260823916323494 -0.06378912125453728 0.00681225356596564 0.005323762885829503
223.9 0.006750974795902727 -0.0006593518354064053 0.16502312443802739 -0.06371373858487814 0.16482799143577698 -0.05976852194863072 0.004974543166072298 0.006525621242885441
229.8 0.008688487570184103 -0.0016038007296909028 0.163811454583026 -0.06921716682841136 0.16204057580664466 -0.06433685985045944 0.006099921213377051 0.005870050214316574
235.70000000000002 0.004114047530251364 -0.0019324967102595598 0.16338287840330523 -0.06624194419581683 0.16315853114189327 -0.06223739114591194 0.0015139157964601288 0.005967454606755078
241.60000000000002 0.012762930409693125 0.00035195236675513103 0.16356447975971602 -0.06728918199225432 0.16125273780780927 -0.06984154560901806 0.010601336790329312 0.0071323268648192505
247.5 0.013232931746646288 -0.0010096600622221332 0.16304229990883842 -0.06918354185574163 0.15965908786006136 -0.07091903253520092 0.010460048832276993 0.006229635906495316
253.4 0.01244838275144867 -0.0023525340556374862 0.1623448486624477 -0.06981274824987758 0.15858490970850977 -0.0723424676038848 0.00942032404390554 0.004486801323264371
259.3 0.011051213077152509 -0.0004668015552121534 0.15946005225348814 -0.07378394507580827 0.1610348012986151 -0.06906370304901097 0.009517699702071683 0.005806409581351915
265.20000000000005 0.011258401216886784 -0.0011935505795615368 0.16254303755094382 -0.07061030508300656 0.15780751337986854 -0.07367876842836714 0.009332058096978652 0.0050359719488016
271.1 0.010652239642062954 -0.0010347527303788274 0.15792723207648812 -0.07665857531614187 0.15887725504380057 -0.07088247439011974 0.006327600881894799 0.0046971542785538755
277.0 0.009853732399786574 0.000525972287164589 0.15821020235995398 -0.07953460699846811 0.1567084281753853 -0.07504875911505103 0.006705666216755803 0.004936072370022792
282.9 0.014829213838604489 -0.0012093119074181838 0.1552588389385671 -0.08316193546461115 0.156294501371174 -0.07409659283347005 0.011477957638858654 0.002864615632454411
288.8 0.008127050837931266 0.002200871058598961 0.15621845910076962 -0.08155163134245265 0.15496974581722311 -0.07820151241256894 0.005529737572942826 0.004628881044182825
294.70000000000005 0.014741589682861283 0.00018920198564936237 0.1536386909193696 -0.08453146863043644 0.1536824269581322 -0.08082128253458512 0.012361865250068238 0.003609283842151027
300.6 0.012952061062567794 -0.0027369832971956957 0.15616148096204613 -0.08020934234063157 0.1506523051155211 -0.08665043073987928 0.0072483666644103245 0.001364870531634949
306.5 0.013895361426465839 0.0030182501300354677 0.1537636087406976 -0.08557314537760405 0.15166772779189774 -0.08291386844933739 0.010948565429689066 0.004487086703101722
312.4 0.011717536956235251 0.0009646987767149058 0.15113866582730814 -0.0881575535985656 0.1498216455548153 -0.08691376541520122 0.00861903318502395 0.002014622243381654
318.3 0.016290094284680645 -0.005003062466787092 0.15406159932572935 -0.08332138577008445 0.14948946109936131 -0.0873522551501694 0.013741421531480957 -0.002915433121067855
324.20000000000005 0.011745344296173814 0.0004722976977040875 0.15248237249899627 -0.08649189622617386 0.1510916096455135 -0.08459905864319872 0.010047635165959759 0.0009725687278673131
330.1 0.01569252292414102 -0.002662202796593417 0.15079555622443783 -0.08914956617908358 0.15197759272560468 -0.08486704932611314 0.013164163916256006 -0.002831348379386523
336.0 0.010008217881822242 -0.0011340163169974785 0.14876355897145704 -0.09202221213317135 0.14937628819440008 -0.08908823507456906 0.00915786412118853 -0.001576476324296978
341.9 0.013306480698015362 -0.0029515631896112706 0.14912271015881012 -0.09366226667776288 0.14741684811197886 -0.09101247923110406 0.012792139636032915 -0.002858398750015007
347.8 0.008449704762233858 -0.0014056470229898207 0.14977789160575083 -0.09284337818035271 0.14615089555748012 -0.09210523916704168 0.008998768429863238 -0.002580736645854878
353.70000000000005 0.015871176489478743 -0.0011688940933784506 0.14549224532987168 -0.09652169907967452 0.14835192390255636 -0.08923630195391022 0.015523847048454368 -0.0032522031228968697
359.6 0.015741132348862787 -0.006790874052359959 0.14650470161114845 -0.09783369618377223 0.1473265228321148 -0.09169793013125564 0.01652568206990134 -0.007705980017664228
365.5 0.013453945669946076 -0.003930753703318279 0.14699428167609482 -0.09695062547165986 0.1455198458264322 -0.09482814555240798 0.014954053606746395 -0.005424888722509693
371.40000000000003 0.012001729336448988 4.6088107820417386e-05 0.14185414645048897 -0.10325840469363265 0.14213687370355338 -0.09973860921930601 0.013348308394543354 -8.555693066345497e-05
377.3 0.009200255048956963 -0.006605548057496006 0.14362588732695045 -0.10166937986891547 0.1444692709530438 -0.0974086094188425 0.011950381813341692 -0.007250783164682837
383.20000000000005 0.009894138408080734 -0.005532518421606123 0.14564009479123388 -0.09858843145709027 0.14356786787499443 -0.09831130864846646 0.012995285419339855 -0.007555196694157342
389.1 0.009705847795358458 -0.0018149377427242612 0.14342217263224286 -0.1023931803543181 0.14119263418793976 -0.10270581018159793 0.012546749700465152 -0.0036788901208005334
395.0 0.011416971811525019 -0.007806129213066491 0.14434922007605094 -0.1006242111415224 0.13948879251811974 -0.10434869175613998 0.014765836345014573 -0.0105072167437226
400.90000000000003 0.010323322136254915 -0.002986465713022928 0.14247020503580451 -0.10302713657921125 0.1401611619606327 -0.1027600075640451 0.01447643019758176 -0.00472933331916184
406.8 0.008521456546660575 -0.005372597269335766 0.14116586747514964 -0.10577562542041563 0.135308566048423 -0.11042546376411552 0.01289253520235967 -0.007086885710395444
412.70000000000005 0.01148354234449998 -0.007839204729602745 0.14071623530042093 -0.10705226516251093 0.137596271119625 -0.10765727970478123 0.01570788387413795 -0.008785580588819949
418.6 0.007947403875193538 -0.00734831348418068 0.13679687026991824 -0.11110855384061279 0.13732421787533655 -0.1068953443194988 0.012695063186216337 -0.008108810514949159
424.5 0.005444535354974577 0.0021769050894495504 0.135573412719662 -0.11224765278330855 0.13297616535690332 -0.11235228978505205 0.010894736980185426 0.002302088542214604
430.40000000000003 0.008632590036336513 0.0020920409179139223 0.13894273002510796 -0.10657083278231434 0.13387429653724095 -0.11021399537592924 0.01375770893675473 0.0025774141389332244
436.3 0.010015038716733867 0.0017211727096515532 0.13538168830619937 -0.1125927947401625 0.13498751621096253 -0.10985215706348908 0.015162763770721463 0.0015499854640810492
442.20000000000005 0.007873088868211212 -0.004271185962199995 0.13526985872577296 -0.11321254254843544 0.13240578729429117 -0.11333313944657611 0.012855415752191976 -0.004248265957070011
448.1 0.0077596866982077226 -0.005691241828083638 0.1290810478481983 -0.11945343023519549 0.13235894800564366 -0.11366678296138367 0.01195283036881047 -0.003902785305504588
454.0 0.009778795851136909 -0.0041685299773641365 0.12858180441864506 -0.12153974182954956 0.12707578411596596 -0.11787381224166847 0.01547167703247508 -0.0018770152386860133
459.90000000000003 0.0075412055950853825 -0.0030603302831215587 0.1247823789956801 -0.1238262427212102 0.1284272794235377 -0.11815721068790516 0.012428986524101491 -0.0007827852811490928
465.8 0.011514107045977266 -0.004580607010024811 0.12754233157706785 -0.12199091524741129 0.125853269445542 -0.12141659721116506 0.016607276376754812 -0.0025005313180473158
471.70000000000005 0.009703937096814642 -0.00649850170811597 0.12853989077138842 -0.12098974482002109 0.12519443350504725 -0.12201153983376771 0.014971682958632396 -0.002807753298120004
477.6 0.00922575402152612 -0.003574191488004545 0.1273324775491144 -0.12264800827462687 0.1259550916437661 -0.12005489646086974 0.01619581150445783 0.0006662995441925188
483.5 0.006329639455602555 -0.004963024129128266 0.12469318886519923 -0.12454340797039314 0.12280431549543301 -0.12425511524256856 0.013089632257124896 -0.0008521430736289242
489.40000000000003 0.013321104249366037 -0.004733213588847255 0.12311828950885807 -0.12717645552142687 0.12073554274863867 -0.12582591731347867 0.019398311051179888 0.0008924456752648055
495.3 0.012168447597215718 -0.006136272497178661 0.11998630187291001 -0.1295859452749858 0.12158005856673533 -0.1251862846829342 0.01795310883467664 -0.0011151030044840968
501.20000000000005 0.014837535689022761 -0.007270377219395464 0.1180754445724339 -0.1315018866147253 0.11754949697462147 -0.12900056157417547 0.021735852861834763 -0.0011789068183352118
507.1 0.00910481748757555 -0.007255050622227149 0.12240272031332347 -0.12715115315434777 0.12058263624875695 -0.12591904513133764 0.017541748564392914 -0.00044747269761995673
513.0 0.013418527024335136 -0.008139433886490023 0.11738674569146841 -0.13311618484430465 0.11904058395620325 -0.12926942236037237 0.02181165097347846 -0.000698643065664584
518.9000000000001 0.009862438328552128 -0.006827685536552868 0.11716373174841395 -0.13219197485827977 0.11545828027171962 -0.13164840078207135 0.018914954941810697 0.0017880782542303282
524.8 0.01281306829035964 -0.005661539651248644 0.11794736478440694 -0.13099505687893284 0.11819295420846561 -0.12864621958842312 0.02113182497411925 0.0039056774853952077
530.7 0.011752099697126326 -0.006676722579789017 0.11647903632295578 -0.1346449049717148 0.117009819927837 -0.13166563382629523 0.018251830440167302 0.0028742846056539414
536.6 0.013474501713431666 -0.00931115063746276 0.11477335202273137 -0.1352911287957719 0.11366565102001103 -0.13471204393145603 0.021248466055689218 0.0006403058003643874
542.5 0.012854564742286372 -0.0042923345005793255 0.11303471687660173 -0.1363790482771282 0.10914905512766886 -0.1366433562713538 0.02151687266309422 0.006999972159017639
548.4000000000001 0.015613960237519021 -0.012969562270619855 0.11443961982743792 -0.13515706973549613 0.11061742490274064 -0.136495713387377 0.023044011970900946 -0.0019142886926257919
554.3 0.007846343101315937 -0.011632420390234217 0.10845330867692955 -0.14053470590403982 0.10717211146848671 -0.13879106474840264 0.016224155436783478 -0.0006950671854344271
560.2 0.010868044529870356 -0.005531649739495672 0.11229747607692953 -0.1372591652378548 0.10471248643710082 -0.14097931204075967 0.01844368814882488 0.006097920451316529
566.1 0.013909333067843905 -0.010190711625290033 0.10402452922880147 -0.14327568634669793 0.11118655501604227 -0.1356441440873833 0.021194718898259923 0.002436081864482413
572.0 0.012285342977192 -0.007319012200888379 0.10375862557684581 -0.1443983067223562 0.10489503502124854 -0.1416796457603302 0.019229576791503313 0.005736974549394546
577.9000000000001 0.01393929542718534 -0.006553713908790259 0.10362727895942313 -0.14270507137785313 0.10518358267629825 -0.1396262698407792 0.020727942099096095 0.0084125659401578
583.8 0.014521987674327913 -0.007491590269229642 0.10495037689777587 -0.1427167638280417 0.10454811249355228 -0.14021759807220152 0.020771244413813245 0.00722952399335694
589.7 0.01218142069892372 -0.005760143007745854 0.10615178115437804 -0.14112828671535693 0.09849432177482105 -0.1455653079790005 0.018743956417392443 0.009365249115343624
595.6 0.013047529848603788 -0.0005505826587336006 0.10007542050797394 -0.14614013178043894 0.09779441838424502 -0.1440450504135614 0.02047881800442641 0.015907521505398706
601.5 0.009485127501375373 -0.006459112937650311 0.0984367715799677 -0.14628978136392234 0.09581006637302997 -0.14592932409240553 0.015525830900664684 0.009872725511838293
607.4000000000001 0.011244248204455617 -0.0032521015760715033 0.09863860875272838 -0.14594178348285064 0.09411267308146168 -0.14531302314302677 0.017875316899571538 0.014200659214288666
613.3000000000001 0.011480541430484421 -0.00701801190309074 0.09484915622799647 -0.14833354652461808 0.0931685102611074 -0.1464231146629997 0.01871208538353812 0.011110318724997086
619.2 0.012744284765930746 -0.006274299586679877 0.09667157291546818 -0.14664876846294606 0.0914227761809347 -0.1481931837525642 0.019055327437731872 0.012312892057245324
625.1 0.012356967630195332 -0.006961171303444993 0.09170688355593802 -0.14991224281984486 0.08773678234636965 -0.14972069760895973 0.017599922364510613 0.01169999303954761
631.0 0.016210153966717853 -0.005670092092221897 0.0900705271419831 -0.15124622566010335 0.08787253640188615 -0.14878116461888993 0.020846645708377312 0.013797088880488919
636.9 0.012145321040240069 -0.007173533839340732 0.0923575018587518 -0.14972158543716343 0.09025502050088449 -0.1478455534791339 0.016124445705196822 0.01282794168091508
642.8000000000001 0.011207570083456572 -0.0023485137910692283 0.0846549055471113 -0.1542573892551628 0.08657383730559993 -0.15162172010924876 0.014676956644933892 0.01816536328975929
648.7 0.01059568014775925 -0.01015976554880184 0.08727032339460318 -0.15147539500127327 0.08306047624587763 -0.15192617882445628 0.01395739546537687 0.011221910280854975
654.6 0.015501108913826804 -0.00788300186948439 0.08588414609102914 -0.1521955119497633 0.08362699648270971 -0.1524459605381317 0.018826809781715532 0.012827219472556075
660.5 0.011176985325809088 -0.007602464568950125 0.0817802063259832 -0.15570289369427107 0.08126767409446482 -0.15286870008527007 0.013321251346870904 0.013736223308075099
666.4000000000001 0.011073765592809955 -0.010351406526387063 0.08022485623791961 -0.15545875692136205 0.08065952336904178 -0.15269918662590762 0.013202827237724268 0.011890566331549286
672.3000000000001 0.009120027827526215 -0.013103154221750513 0.08153105752090788 -0.15478453599029893 0.07884126811606192 -0.15424996979595626 0.010738298074790204 0.008327095616524852
678.2 0.009755476660471215 -0.016036103029707306 0.07901079074899245 -0.15656868991032105 0.07804137466911505 -0.15433423778491487 0.009394005676051004 0.005133546358979703
684.1 0.013557799926494857 -0.006692283331517625 0.08252889246893104 -0.15407282098098168 0.07518560773814825 -0.1548899860625579 0.011751819298300976 0.014615485305435216
690.0 0.01294967229950843 -0.011124691460370121 0.07766136728392024 -0.1568751387385463 0.07682116344306515 -0.15465953667660987 0.0115317036583249 0.010178782608769546
695.9000000000001 0.01389815354029501 -0.0047074975054462505 0.07603077681879843 -0.15670053992742444 0.07424440846962425 -0.15658515607633036 0.01333657755896693 0.016190440570291714
701.8000000000001 0.01062547122770724 -0.010356448990323331 0.07014490817918181 -0.160452945912309 0.07589760899784287 -0.1564829063934134 0.00953180458530222 0.011061727415923463
707.7 0.010407167653923022 -0.009151193791365366 0.07032455788240682 -0.15955308177502994 0.0701737431426999 -0.1591512882233456 0.008010372350203108 0.01201076944690027
713.6 0.010726533978035054 -0.008035042929688326 0.07171115725227092 -0.15923365424063224 0.06872936026313897 -0.1595204004951671 0.007521972110113251 0.013218930449523646
719.5 0.012096766043289346 -0.009538929642376478 0.06759850229709552 -0.1631599995875645 0.06647841146609003 -0.1603291371902931 0.008137530073837483 0.01123579429796306
725.4000000000001 0.010800725478536444 -0.011139012014833497 0.07032681551051662 -0.16142624216397228 0.06992387720332292 -0.15921154479378102 0.006510781489299813 0.010310115988707102
731.3000000000001 0.010643931995070856 -0.005047087088292639 0.07240540686094064 -0.15941004720308943 0.06536613825089548 -0.1609189620174067 0.0059879311843684165 0.015426249054122475
737.2 0.014879446036096478 -0.008429963286015276 0.06398576881579986 -0.1633372108256199 0.06611575933009015 -0.16078226706211646 0.009502403429541655 0.012357589521079175
743.1 0.010601476176182813 -0.007713125829015341 0.06318398773928821 -0.16382836049659424 0.05959402285443965 -0.16235241740506337 0.0053598431488620655 0.013307794364607715
749.0 0.004955698176856178 -0.00958977350470428 0.06383996858635314 -0.16293364689525616 0.06560063916163383 -0.16062366438531855 -0.0009573832789299302 0.011529088515848957
754.9000000000001 0.015025180143707005 -0.004263328603305351 0.06007255824472501 -0.16408704199370175 0.06268888401841556 -0.16198396802895104 0.007282907968700454 0.015961426433965975
760.8000000000001 0.01292341809473556 -0.009278866456001424 0.05973746716499969 -0.16525106150802168 0.05874275238926584 -0.16178993350956503 0.005834265310713533 0.012246749341819406
