!Created with skrf (http://scikit-rf.org).
# MHz S RI R 50.0 
!freq ReS11 ImS11 ReS21 ImS21 ReS12 ImS12 ReS22 ImS22
100.0 0.016248246020168763 -0.007241480364787712 -6.657031913291382 15.994737659787397 2.8459017690371862e-05 -0.03156683605672852 -0.0959937978970449 0.023411347993523738
105.9 0.019660968324495508 -0.006930630306206542 -4.458695861528142 16.806775528563264 -0.005808643409279219 -0.03349200800211967 -0.08493629652705198 0.04183976772399497
111.8 0.01223726666600322 -0.001995050796628385 14.869717463163925 9.116231126190124 -0.020161302254962248 -0.02130977871991625 0.07559449524860844 0.029658332876820372
117.7 -0.0006853222449091824 0.004904405362643362 16.069465335096567 6.9081044865182255 -0.02399321087059444 -0.020136890046328584 0.06977945108833634 0.020769483611171966
123.6 -0.00803134068006691 0.014196999057359237 16.84572839642007 4.619894982942699 -0.024524367159113557 -0.016874851701709635 0.07241372324359775 0.014631744027146497
129.5 -0.00891910602034489 0.02517972644115096 17.34366622644658 2.2219452894989806 -0.02757361831450884 -0.01234932425617878 0.06694518312091739 0.009659844339879882
135.4 -0.004784557004935014 0.03168851026417402 17.44391880627903 -0.17929912455520222 -0.030578676256745548 -0.009073644257153957 0.0675183133551 0.0027712368104751677
141.3 -0.0027192163572851784 0.038890635693425345 17.242592938778614 -2.629842152810235 -0.031766269240703 -0.011041409715073593 0.06969837275835077 -0.004468257887685776
147.2 0.006561666488779401 0.04371029326475364 16.688619442175593 -4.936502424790338 -0.03250291514245339 -0.0038229089569997675 0.06635204890280674 -0.012787218057488088
153.1 0.017610421857167605 0.0416490785588891 15.792895530477393 -7.260686282488796 -0.0317038290204501 0.002598661316185264 0.06801786064136293 -0.0237787820098903
159.0 0.02184387905301974 0.03942581141375637 14.605470025747522 -9.337762405023884 -0.03150464247092995 0.007583779165296539 0.06355997503260731 -0.035051493969828984
164.9 0.02968979863715642 0.03616522775349614 13.203792291863108 -11.260061352970336 -0.029182851215871716 0.009045866552664733 0.055653288072132406 -0.045676982360128855
170.8 0.03668069015310541 0.033142591838028604 11.464634881005285 -12.916323265243308 -0.029263301127692824 0.013225538308330415 0.04247140509417532 -0.05720412061346648
176.7 0.036058000290328546 0.024266150235271525 9.608261647888087 -14.338589527567457 -0.026556423561373332 0.01690698839487814 0.029600358210990677 -0.06913426616377798
182.60000000000002 0.03821919046425116 0.017879779731884808 7.539253444759693 -15.526890780042647 -0.02527396153295684 0.019734386792467584 0.011126825621298618 -0.07929244817367419
188.5 0.03587462130258878 0.008869303983913099 5.4370417165944565 -16.408913503757866 -0.022564889717428923 0.02430570355261002 -0.0076794312914873165 -0.07904377753033255
194.4 0.030534903867816047 0.004056257903284093 3.1045805673166886 -16.98095751705769 -0.019150321153522533 0.027664354353030343 -0.02752965648965291 -0.07559967953073624
200.3 0.022360670503384847 0.004933699678295145 0.7862247967804682 -17.241321889638176 -0.016157273744775675 0.028193138188770388 -0.04847574239048952 -0.07200477783683505
206.2 0.023640646356771298 0.006108784479804944 -1.6280393866149718 -17.183732197942263 -0.012024162878193346 0.027748196694927663 -0.0623557406564776 -0.059318238392474264
212.10000000000002 0.018074194229066986 0.0030408784259808043 -3.9869284249144186 -16.79364398401781 -0.005867192341998775 0.030911087617289272 -0.07825430969104721 -0.04481442828769935
218.0 0.017341228954630687 0.007920474556169593 -6.297742258558756 -16.10559693445738 -0.0018698121320414505 0.032428258875271024 -0.09113542931067314 -0.02799139991250596
223.9 0.014709954861113627 0.012760338422769878 -8.378793750098827 -15.063017999888782 0.0009943579312652769 0.032484069423133956 -0.09832275638995996 -0.005409915099715096
229.8 0.017092848812264024 0.012173810007806773 -10.45905151698286 -13.711300124371633 0.006777627222868248 0.034456443527166744 -0.09856891298608818 0.009212948219372071
235.70000000000002 0.01563779501739671 0.015551585429021991 -12.210567150983199 -12.158870091948595 0.00864101448925202 0.02980928942103244 -0.10081486556742131 0.02963964383336398
241.60000000000002 0.018798125735731922 0.015547490282951933 -13.736284492134201 -10.348107433875088 0.010667256908831885 0.02830250283066997 -0.09755408929753637 0.050202083831579536
247.5 0.02451260387029546 0.01291996670254303 -15.010750990114369 -8.360513219365345 0.01683068952373158 0.027057115099298396 -0.09277897623969326 0.06624770084731363
253.4 0.023091652845856323 0.01325715300146358 -16.068178847729158 -6.171465099889653 0.020618842727964524 0.02681010624135031 -0.0833906324585254 0.0856416349801451
259.3 0.02581008294190901 0.012655105763724092 -16.73582000521846 -3.9325261083655527 0.022187900607072274 0.025149247195678306 -0.07175554559554202 0.09844931585143163
265.20000000000005 0.025740333632599227 0.011799473166106434 -17.065425675874852 -1.5720221975644368 0.02483701846674536 0.020339306381760916 -0.05963258875464942 0.11373827938454154
271.1 0.024878395888321123 0.010633968408911907 -17.14053270665337 0.833308194735003 0.0273011740202433 0.015598205344969498 -0.04629895592635621 0.12441868970049477
277.0 0.020890965366267833 0.006055002669581905 -16.865165725586056 3.1589773242430583 0.027884665284318204 0.01284240647789893 -0.030524560446972722 0.1347656769444274
282.9 0.022283670523732195 0.006941644516163285 -16.307204678210407 5.413073937515109 0.03032232991878142 0.01009012920273916 -0.015033651152687993 0.14125324851051063
288.8 0.02245541146836093 0.010549798983126484 -15.343553591497791 7.576010568756172 0.033962234471011654 0.004498594699454025 0.0036343932279298686 0.14870524796631412
294.70000000000005 0.02076141477985342 0.012983883744996823 -14.146887274611537 9.639543944270013 0.03601258966402142 0.00013332002783831336 0.024875416977687935 0.15350220128494352
300.6 0.020905016903867694 0.011921372103834062 -12.691888412121946 11.47508973549069 0.034028454012488135 -0.004580416011080111 0.04604324962790549 0.15189839819092327
306.5 0.02219729655250071 0.013968175731833348 -10.986351839244033 13.118746625979536 0.030455298396103298 -0.0026459781532110625 0.06954514831348273 0.1525140497648663
312.4 0.021001134522649206 0.01502068211833936 -9.063571695026154 14.46846903674327 0.0325136671925244 -0.0098849318338432 0.09143751998935819 0.14664068466288316
318.3 0.028684567796344408 0.012423380061873416 -6.950757253237533 15.626591013763916 0.030808472656996638 -0.013306719207978221 0.11652583050228404 0.13738348839116976
324.20000000000005 0.0348635830921644 0.013937719076160558 -4.6876610325586645 16.4005284293322 0.027429069602927122 -0.019349149912500897 0.13594177036655428 0.12000554372439767
330.1 0.036503197518960986 0.00856738352202878 -2.4186218226865974 16.80332636977743 0.02572157480241193 -0.022605968608265973 0.1558842456716248 0.1050464862675083
336.0 0.041908755161329955 0.0016896661554048466 -0.0569211786521715 17.00146234448627 0.0194830898808277 -0.022395107496005057 0.17186986373524918 0.08277247703600327
341.9 0.04440420833743362 -2.9816412141188816e-05 2.2817521818705138 16.81198741735819 0.016044776045983516 -0.031861456777105696 0.1849295686304711 0.057413024450096314
347.8 0.040612501618715935 -0.0047433023773225304 4.576572440206677 16.364919896959908 0.01613570972202339 -0.0314720086882379 0.1964120474035523 0.033828563052459716
353.70000000000005 0.04251330070935213 -0.007612248791752987 6.73838373318451 15.5230037849952 0.01037844600346642 -0.029773085116516843 0.20081349797746945 0.0046214883909777215
359.6 0.043052952952820175 -0.015250217742524786 8.835285453187462 14.356659813531698 0.008743814001376256 -0.03573381341915339 0.20206442689971377 -0.026456347057244
365.5 0.039603010788110043 -0.016670479595530877 10.704844251426454 13.007003728188142 0.0020600850145357772 -0.034767937215724486 0.1976046402084903 -0.0559833825484568
371.40000000000003 0.03884532302167565 -0.022824561440559783 12.407622392495526 11.382463593441042 -0.001050210177598111 -0.035620372854230344 0.1883236170332111 -0.08450774753648635
377.3 0.033197810035491424 -0.02505676994800688 13.813907931950853 9.566631868159876 -0.002798314881215064 -0.035514035316492956 0.17630410739325109 -0.10867453106592126
383.20000000000005 0.0274584017257709 -0.029490828263314388 14.936005721070229 7.475854444658029 -0.00732190090486124 -0.03221728076628051 0.15526748355040482 -0.13483753072664248
389.1 0.02539310852185036 -0.0319642756692606 15.823289088544463 5.392929981989774 -0.01503805321518893 -0.03236686347510157 0.1382746220440367 -0.15528545638059627
395.0 0.022661278258590645 -0.029385166744279177 16.370045338172762 3.1359990881192226 -0.018600325101625303 -0.02892312862392656 0.11572170003201517 -0.16956508456938593
400.90000000000003 0.020252235988003027 -0.032609298753055786 16.57988504801362 0.873267128388863 -0.019156322920401692 -0.027979665999128604 0.09238579164741806 -0.18265157091861073
406.8 0.0179165896800645 -0.029612053374920826 16.52196260000005 -1.4109648525753338 -0.024889433950305087 -0.024269783063347376 0.06730678217835562 -0.19527762591204031
412.70000000000005 0.016207184190653257 -0.03516580376947016 16.14973301603766 -3.6003117557104303 -0.029866449214847605 -0.018498499141872283 0.042404383312533434 -0.2024824321180125
418.6 0.012688767071824791 -0.03499001075809676 15.479972073051183 -5.8237976335441415 -0.030586910156903544 -0.017826669209557194 0.012414266228950003 -0.2067127763944269
424.5 0.008490424645844458 -0.03669383462340828 14.494996352605446 -7.856605127756226 -0.03424083938125548 -0.012143365927451204 -0.015140221350895088 -0.20752948351517697
430.40000000000003 0.00241180368291704 -0.04186993000088124 13.12242391951924 -9.741462932061108 -0.03476167633436573 -0.0093120911113615 -0.04366634716861515 -0.20473354857033416
436.3 -0.0018546330780838467 -0.04135833589305778 11.635131374296368 -11.450529751501673 -0.03549185905668305 -0.0029835741038780356 -0.07218548892998276 -0.19965897657959458
442.20000000000005 -0.010098878185319715 -0.04218584762214695 9.976142705879528 -12.96414894796779 -0.03729847007767581 -0.0007953895261577405 -0.10140915356713737 -0.18931058771686066
448.1 -0.014887790357042971 -0.04090062075535376 8.059247048706759 -14.161247304871958 -0.03286191821654727 0.0057779621601562305 -0.12746550000967174 -0.17532221730144892
454.0 -0.022790481439375725 -0.0322805718028075 6.05828242535457 -15.151300555889556 -0.03227948762779769 0.007961066716407113 -0.1516472633196883 -0.154178436701264
459.90000000000003 -0.02858476587830426 -0.027174733182997592 3.87978756667195 -15.771679219953912 -0.03308093229365497 0.01212758771914877 -0.17420014357735814 -0.1324063946029855
465.8 -0.03493941592866893 -0.020700639708096668 1.6448039343447758 -16.11646596441791 -0.030872109696005914 0.018600784376768317 -0.19377888103819724 -0.10439400800531182
471.70000000000005 -0.04064983055720968 -0.009752477836740875 -0.6163127363367462 -16.148695591558408 -0.027899229925890095 0.02147032110847311 -0.20837262479565624 -0.0730781698013154
477.6 -0.04104559229610631 0.0009670568786039354 -2.8159696894383557 -15.841566727569498 -0.02612041660213949 0.02313366212622084 -0.21904351793644897 -0.040619530723237623
483.5 -0.03655642097109417 0.010982363656671084 -4.992068009955898 -15.260018932103476 -0.021834336173886516 0.02565241289171471 -0.22408420905193363 -0.005953413591053908
489.40000000000003 -0.0302866173017935 0.02196669468966777 -7.0018073494951905 -14.38412936152773 -0.01682540771468964 0.029878433089148854 -0.21907896389743362 0.02791525001049645
495.3 -0.02519445544246589 0.028823711231600973 -8.856501761558686 -13.215956738848574 -0.015450048350736743 0.0325564094508668 -0.21298114451077396 0.06204012458650169
501.20000000000005 -0.011517977032307145 0.035567708820078425 -10.601529142248033 -11.862803570440109 -0.010260791913865206 0.033991837994209635 -0.1988048965362252 0.09482382603502423
507.1 -0.0032637895694984714 0.036972733558916976 -11.98062683868307 -10.239600006105162 -0.0036900540693402054 0.035843117528930685 -0.18076406503170075 0.11978985021398414
513.0 0.005358935846461556 0.03574643032072889 -13.210789231570201 -8.453864019317638 -0.0016216493519041076 0.03457175342851206 -0.15845284034083867 0.14626860003924083
518.9000000000001 0.012298757960737492 0.03303564050451345 -14.199499652163 -6.512623287514672 0.0025151899710859813 0.03442560457060455 -0.1320740461864552 0.16825635025492167
524.8 0.023608151277033022 0.02526732819971688 -14.91501976986295 -4.528319429521721 0.006934460819875734 0.03403420734631456 -0.10658886713287054 0.18528924408955796
530.7 0.025235393106014043 0.02272593624195275 -15.331148122800014 -2.48127342785324 0.011138616421927792 0.03172508357918251 -0.07520833578069103 0.19873668560218252
536.6 0.029289696562852033 0.016817536272029854 -15.477801683859147 -0.3883358331273896 0.01363100351363147 0.030424015401515108 -0.04649439799465561 0.20693536555953176
542.5 0.032793269477166744 0.013813023279868166 -15.329799579724234 1.7597190510428702 0.019583342190427937 0.027943104671971353 -0.017938110559688455 0.21243434372002767
548.4000000000001 0.03362268129700209 0.009991284291857076 -14.914513143689927 3.746471570975377 0.02198616604780278 0.02597071012379256 0.01428941308660915 0.2125271681738059
554.3 0.03591082963538296 0.006958896537459627 -14.251878571570604 5.754404899064625 0.028029363011219135 0.021834345738696376 0.04350452840624557 0.21232790607547616
560.2 0.03506773075030182 0.004231947569778314 -13.34545685251127 7.591416993288395 0.029932746655569064 0.02119396615795976 0.07381318867065127 0.20688877753523555
566.1 0.03421161394084362 0.007404868262699474 -12.142247719392381 9.362894815674842 0.030675583841891847 0.01984616064524318 0.1043208382185059 0.19931731951330708
572.0 0.040020239556741666 0.003191508447274128 -10.778738628296358 10.90639014161313 0.03335425138758418 0.013052940811326194 0.13537742964654564 0.1819687667810693
577.9000000000001 0.045224334373139205 0.0019764108611543263 -9.16778814924149 12.24901580773678 0.03388844965499703 0.007021059250176979 0.16140742211250222 0.16510823275074984
583.8 0.04865625597485042 -0.0034712833526037413 -7.3802564006762 13.39510105125163 0.03611795780402425 0.005174396693075638 0.19034859160855563 0.14212822755868398
589.7 0.05340856727497657 -0.012826009835142501 -5.414348422711599 14.261600393696323 0.037874846570870896 -0.00040299823234159194 0.21524557721727983 0.116290069960455
595.6 0.05629033935458751 -0.01820258279621072 -3.4449835648129943 14.806983411056724 0.03477705146023344 -0.006822900950846141 0.23583779300568292 0.08160612880066483
601.5 0.06060545526363096 -0.029774091115207426 -1.3030127146462185 15.133072536290664 0.035034144353519404 -0.010593302354944493 0.2540242925436089 0.04565801651140285
607.4000000000001 0.061401716823282965 -0.03945965978911582 0.7296512702743594 15.09802179559949 0.033254918127910225 -0.016629604860499747 0.26470552064351577 0.00654280075818448
613.3000000000001 0.05562685800102905 -0.05734816810494423 2.8494700393029015 14.778262185378656 0.03241604131366901 -0.016772466200546916 0.26938764125393816 -0.03787651272372313
619.2 0.04883106338320847 -0.06876332185661237 4.826776283488802 14.229600668823116 0.030249052818116434 -0.02361872487866058 0.26358463970029106 -0.07952844529002043
625.1 0.035380918737745085 -0.08365604524625882 6.664323895751022 13.361898586374354 0.029764711511768835 -0.027340146548146992 0.2521246662296528 -0.12326926818022903
631.0 0.020990222582250227 -0.0870023248771956 8.36344975211214 12.256547718940638 0.022886869175177824 -0.028209162005639794 0.2330721048267176 -0.16258199630630527
636.9 0.0069687059592230816 -0.09424000025527378 9.901517330380635 10.971869107634902 0.016715763506942743 -0.034668860213867364 0.20581610849531776 -0.19732303921584995
642.8000000000001 -0.013792690814033576 -0.0961586375847829 11.24590092297576 9.458760969992316 0.015715343311516656 -0.03350534013725283 0.17344311806636975 -0.23023810319971444
648.7 -0.03069698407952317 -0.09276632278037228 12.30668731537064 7.8109702964433305 0.010051285765542354 -0.037009019156997336 0.13763151829516881 -0.2578189553804114
654.6 -0.05006115863065276 -0.08902850186208762 13.227224592706529 6.126450623998928 0.0066899302826164495 -0.03639037254892248 0.09932928807106249 -0.2751336205193743
660.5 -0.06451284769730989 -0.07875387747480853 13.884842632708347 4.317262676555592 0.0005246407299160051 -0.0361706836732245 0.059414624703305476 -0.28405446194718315
666.4000000000001 -0.07618223432308154 -0.06386440834953147 14.252196773019387 2.4576024443779323 -0.004511569906048908 -0.03538692958982864 0.01945162426933476 -0.2892859820290522
672.3000000000001 -0.08074106702082268 -0.048836085929532966 14.435294643540526 0.5827209601704904 -0.007815111406394121 -0.03812305897230039 -0.01693212819858041 -0.29021911603595324
678.2 -0.0835560286902346 -0.03347747458816165 14.352316032109652 -1.3488524128735224 -0.013382258487978353 -0.033599285046144164 -0.05430967465465986 -0.2799980981150355
684.1 -0.08418286418930175 -0.018778337305866324 14.065562958838768 -3.243906715165071 -0.0189583134242276 -0.03386967220441593 -0.08636604691233925 -0.2729625812474557
690.0 -0.07886190742925665 -0.009437651890130894 13.555969410927815 -5.031357368892032 -0.01937681983632038 -0.030990094427479017 -0.11731925829751275 -0.2601204924137826
695.9000000000001 -0.0757291116924662 0.0027126640055489567 12.732414999582549 -6.866007066227707 -0.02677039146626542 -0.02962166955768423 -0.14428987083854955 -0.2469852547597074
701.8000000000001 -0.06641826584094786 0.007408938779096689 11.74874990190315 -8.529633157140678 -0.02691992672812468 -0.025429984663352924 -0.16828265758228836 -0.2321645132893781
707.7 -0.05888030600075725 0.0057691304079585184 10.51592893556065 -10.03518779315563 -0.030595523358698085 -0.020848471524341754 -0.19163488345866123 -0.21326901288858066
713.6 -0.0552726373921454 0.0057765654342180695 9.087895409139415 -11.431533820616997 -0.03338220362174532 -0.019065751208152525 -0.21547801232543748 -0.194096919562816
719.5 -0.05667341764049645 0.0018786750138889458 7.436019598205192 -12.582550682310533 -0.03529574458079431 -0.013543644256211039 -0.24015652786958908 -0.17414473823301396
725.4000000000001 -0.055169749058211676 -0.0008421526563955273 5.691288512420406 -13.501598807037812 -0.03638342557905639 -0.009911598222279452 -0.2616780908611655 -0.15270916905939064
731.3000000000001 -0.059849978573373784 -0.004373985606262946 3.7346259201723453 -14.247538181672763 -0.039740478068854584 -0.00509511641661269 -0.283076935580068 -0.12619960919075893
737.2 -0.06449231855284987 -0.0032016178661303345 1.74404810888537 -14.62794921224912 -0.04047121380147324 0.0018964872776985376 -0.3070621194348636 -0.09577967701681232
743.1 -0.07053409347206643 -0.003247585375750428 -0.35512778086405045 -14.74136277751832 -0.03924503608841931 0.0057711000596443905 -0.32817554394919135 -0.06030476035941268
749.0 -0.08037447919849844 0.006515946529953107 -2.407094557583546 -14.551544868564301 -0.03805344020861077 0.010075254809776099 -0.34221283800822166 -0.017733694888243726
754.9000000000001 -0.08744037866934688 0.016761715990649215 -4.45496464679658 -14.02268129398464 -0.03411712047776582 0.01701317095790244 -0.34945138532182973 0.028138387999832738
760.8000000000001 -0.08584871758928854 0.03179730952387639 -6.387328850015764 -13.199380470690082 -0.03173105470407065 0.02027775898004341 -0.35430270817399634 0.07687368905707266
766.7 -0.08717000968863035 0.04889345092897177 -8.145105644131132 -12.112922504812062 -0.030316074167013762 0.022982470905996907 -0.3445759491826143 0.1303217005823096
772.6 -0.08132815274156081 0.06409571501290727 -9.751148400396707 -10.825351776635134 -0.025704877535538222 0.02765524511082247 -0.3313168646231862 0.18104891581282911
