!Created with skrf (http://scikit-rf.org).
# MHz S RI R 50.0 
!freq ReS11 ImS11 ReS21 ImS21 ReS12 ImS12 ReS22 ImS22
100.0 -0.02271478104845473 0.00672633808434281 -11.881741342491809 -9.123475637240757 0.0263641344762981 0.007056438128306123 -0.022104564472637332 0.10732655691672084
105.9 -0.007336304488018636 -0.0034549642578336945 -12.212830196627241 -8.836972488119757 0.02872860936354282 0.006137954341874641 -0.0011802404104239595 0.09625173574264718
111.8 -0.04500547538189138 -0.00989348146760791 -14.325303055450783 5.132204508679521 0.0254540203579731 -0.0028756639714682085 0.010752207900791223 -0.03658438874639868
117.7 -0.047155781718742296 -0.019174100552651136 -14.309410756619847 5.5435003496286495 0.027380212694589286 -0.0025176617385160075 0.006503375169680683 -0.052913704859847706
123.6 -0.0544998040903435 -0.007684467816811704 -14.407410713819422 5.18691822051242 0.026048485149558532 -0.0020129070853110854 0.002050006397270526 -0.04988661069275545
129.5 -0.044600615741698574 0.0009730871488611812 -14.347993401540386 5.236729329779408 0.026135403422919003 -0.003698696226551874 0.006198188968962032 -0.043698867729399994
135.4 -0.046874350387683734 0.006638207392746236 -14.190194211858264 5.563877712001251 0.0274471834021941 -0.004301682099561929 0.0012225972708081307 -0.04133546548930683
141.3 -0.04804547524204081 0.0008483077264297636 -13.771226510840354 6.260689413388085 0.029139624030422404 0.00030987591946113015 0.0008431911080456901 -0.05359475685546399
147.2 -0.03236341656509788 0.02698866311141869 -13.460337761372267 7.179128067065929 0.028519834047947983 -0.0019975686581777926 0.00940428658975573 -0.031638783300198384
153.1 -0.023573085749786702 0.02754035312236075 -13.834108037431198 6.3418891284443175 0.027600438456072268 -0.003559167860150618 0.019232673095549636 -0.030707369011233467
159.0 -0.01931449900925702 0.0055903366489290975 -13.697504971608854 6.460325800525139 0.027610708478656102 -0.005630830031031993 0.022215312075297235 -0.056145478768174634
164.9 -0.01131775170029433 0.013442330548610706 -13.417263437490169 7.031964283658008 0.026410190273133752 -0.002747338724190839 0.025669793481843776 -0.05155732238403881
170.8 -0.018842821715130485 0.006209735822866172 -12.849760505974494 7.936144136919844 0.02757073909234467 -0.004638644792737797 0.007404052753841899 -0.0682963923849106
176.7 -0.017235576483230285 0.007078195560109194 -12.861678350191687 7.774285833648969 0.026892825172096596 -0.005427835860474064 0.009440163785792455 -0.06999018606667086
182.60000000000002 -0.009149731123077752 0.0088617248303697 -12.95269543578268 7.65135352939634 0.027585022670138324 -0.003740049874930017 0.01550352506352287 -0.07535305049974776
188.5 -0.015587504275595599 -0.0012317817525303353 -12.552223987721689 8.293079580798972 0.028215643598942353 -0.005309262247469243 0.0006443055393777513 -0.08482997086253533
194.4 -0.01983096577007314 -0.009306002249480957 -12.403793099475267 8.517227554588965 0.02842094728920017 -0.006897965881884975 -0.0088925550582826 -0.09440650238066157
200.3 -0.028979949811144122 -0.01763534513080307 -12.547301607942002 8.451171766810761 0.02804382364262342 -0.004448488024045924 -0.013617052073455973 -0.10786307268956927
206.2 -0.020410164605653834 -0.005713870329655456 -12.061560384588551 8.780471949650726 0.02553373623038091 -0.004858966815378 -0.012548623714818439 -0.098515492811181
212.10000000000002 -0.014410540975996923 -0.002592174292070135 -12.138196749250506 8.709777073661725 0.025875361655006864 -0.00793997236388339 -0.012205037452290145 -0.09537989262576928
218.0 -0.027930611768740562 -0.00807108066703931 -11.6321259920296 9.502326089105928 0.02659142355888407 -0.009101610716971346 -0.030911307590213592 -0.10708532541605287
223.9 -0.044321690541932385 -0.012499124968312708 -11.594603678392419 9.665768616509647 0.027310935905549914 -0.007457704316630379 -0.04954316130426513 -0.11235731233039513
229.8 -0.043165756024371095 -0.009124915627011987 -11.21379237139653 9.99096844076111 0.028829187425279255 -0.009338311971053719 -0.050380936251882384 -0.10916761417105762
235.70000000000002 -0.042105413614396243 -0.004462124384761329 -11.233728897333306 9.766165613965208 0.025848672976202004 -0.006876454905295353 -0.049525226188466484 -0.10540037005420684
241.60000000000002 -0.035288418688432105 -0.007022367364973488 -11.33979500890476 9.701677373486723 0.025436780036221233 -0.005985964659212261 -0.047464197628595134 -0.11143312083717828
247.5 -0.031741025530458766 0.002120910674718404 -11.04386199750073 10.00193406678202 0.026052314157020126 -0.00850331652442827 -0.047586410390562564 -0.10801628531272457
253.4 -0.02274601835035781 0.007422329597278147 -10.851060459607975 10.187423399107711 0.027648411362034806 -0.008647914710942022 -0.04429158390343414 -0.10127074626114652
259.3 -0.029231333173344302 0.008491213017683533 -10.529651500843412 10.551170688735661 0.02818967686317585 -0.006113460315659779 -0.05040008642123421 -0.10168970267995772
265.20000000000005 -0.03850652359386962 -0.0027903203737366894 -10.62569787177176 10.365810555956992 0.0264220398466111 -0.0076576450907430245 -0.063436684532914 -0.11460076758712087
271.1 -0.045240780609960646 0.0025142902290804085 -9.663296253352911 11.235964961784873 0.025568066125988026 -0.00883841841413757 -0.07642450115330224 -0.10889235702534711
277.0 -0.03565650261415409 0.0026863283681625226 -9.724950092814034 11.198141791052825 0.02521055675398341 -0.007673742657333087 -0.07307080586106625 -0.11068749549190308
282.9 -0.034169688011756204 -0.003720537042758581 -9.622205537718402 11.351103376803351 0.02655267984635421 -0.006828576660189759 -0.06841935927951401 -0.11889523989142413
288.8 -0.03170244904283845 0.0039911797243919155 -9.773826280994907 11.068947502930309 0.02784576387013506 -0.009231447479223848 -0.06539139877832306 -0.11103397960259141
294.70000000000005 -0.03202124529811954 -0.005623634857333331 -9.265254169806965 11.468560660279575 0.029070961970670293 -0.01048089188220594 -0.07354058718832666 -0.11911903375099875
300.6 -0.030898962343582723 -0.0018756480146684107 -9.45267189345723 11.227438874001578 0.027097870167645016 -0.01127987377844941 -0.07561502354347047 -0.11515125956673353
306.5 -0.03286382144071196 -0.003385237779624827 -8.728478146211073 11.93384050955966 0.02550501555666699 -0.005896231774405678 -0.08564003347944209 -0.1177350650156189
312.4 -0.036800481930899555 -0.006948505600963353 -8.643950461395145 11.904687524575106 0.027780382058713044 -0.008975296946578976 -0.09449383546285561 -0.1217032791046543
318.3 -0.03262493428470722 -0.01080214237381024 -8.634834214247435 11.922117650092682 0.027236542786228786 -0.009102798294376402 -0.09152116842178075 -0.12791491380738515
324.20000000000005 -0.02993132367483165 -0.0035755920456140384 -8.08371548879048 12.252810090660402 0.026436920679747667 -0.010932261860125856 -0.08984617929599908 -0.1138263160139227
330.1 -0.0394343835799308 -0.008265947909040035 -7.631906392464805 12.533287698931238 0.027193929001611085 -0.011027436132482586 -0.10521285635664268 -0.12282845733862838
336.0 -0.05047301314355303 -0.0043564493778662965 -7.161615522320928 12.852494201413988 0.023290197734237433 -0.010342849218585236 -0.11858545838305401 -0.11746381475687155
341.9 -0.010480570584644132 -0.0009497497594448044 -8.062165729825018 11.969682304012084 0.02678902121980872 -0.0134594060122517 -0.0719700108863842 -0.11361967242276327
347.8 -0.04294378265197114 0.0016379085330851977 -7.400379994053645 12.633309389506156 0.02787775311771949 -0.01153669992129802 -0.11771678173238015 -0.11387767314918092
353.70000000000005 -0.030842846860247783 -0.003670439281827543 -6.814918777665452 12.83670006615162 0.024780130148511794 -0.01022674399222794 -0.10999127888501464 -0.11386445795691294
359.6 -0.02700927881225708 -0.0034334428203214246 -6.547371245503279 12.821430887552676 0.029050366337637086 -0.01115174068099959 -0.10868839204244388 -0.11152579228491635
365.5 -0.03942667816120563 -0.002706343260467385 -6.240450730418712 13.097388977581069 0.02653714916084543 -0.013394691436148371 -0.13209468111345857 -0.10710446388770964
371.40000000000003 -0.034266763108032026 0.005430681820336945 -5.8569306917652675 13.218866844762156 0.02738036656974425 -0.012676241888640893 -0.12886000068798828 -0.09488404344449526
377.3 -0.03677526873346806 0.0021512844284694846 -5.614363022333838 13.3220648612477 0.028378437747115112 -0.010629653890656555 -0.13569724718919096 -0.09943609186960163
383.20000000000005 -0.04137747517403624 0.0009720520591566307 -5.7972639243554145 13.174912834576176 0.026095793068814856 -0.01026479407219599 -0.14197920247714935 -0.09875383582570349
389.1 -0.040449726868459664 0.0022642203093039817 -6.0440898747814344 13.048924112825373 0.027494741883470692 -0.01287788774052322 -0.14087567573344698 -0.0995634667621918
395.0 -0.03599255297463429 -0.0022089007960912495 -5.3709881049127866 13.307373853561037 0.025508407374161723 -0.014350647762703986 -0.1449630402164221 -0.09639540240980055
400.90000000000003 -0.03775517866526067 0.0025469882843161895 -4.869758561780347 13.539780454683475 0.026553568066597668 -0.011663577921491917 -0.14851041339046123 -0.08843371488563867
406.8 -0.032876612375101144 0.001069313212183369 -4.873962684616595 13.39900801202828 0.025795830529048318 -0.01437411689784841 -0.15034909150210135 -0.0885289663939386
412.70000000000005 -0.02029398399314501 -0.01012278026201047 -4.817159648832298 13.363304338857159 0.025068003863926606 -0.016117529938801594 -0.13443403921398372 -0.0987801911531966
418.6 -0.03654113994499764 -0.007068237205206825 -4.293045991105481 13.636347352843737 0.026977460987498106 -0.013527747868846154 -0.1565145853495871 -0.09271290362858112
424.5 -0.031088620143195515 0.0013128828324039615 -4.640174494354063 13.42299079930223 0.026774863665271754 -0.015499199513709157 -0.15044693995368957 -0.08570140473685978
430.40000000000003 -0.024523206492862486 -0.004048054346697654 -4.264565390184454 13.470519666436656 0.02686872027916706 -0.014817776072651681 -0.1445080132335237 -0.086030748872167
436.3 -0.043592359936268706 -0.0034917681716287595 -3.9361360605285203 13.689461400397786 0.026381526323574357 -0.015515914924732503 -0.16837485850855946 -0.08672241624308012
442.20000000000005 -0.04113247133682853 -0.007897906216842922 -3.3266175377323868 13.806168024815682 0.0277714643605589 -0.01574082407384744 -0.16935592055649784 -0.08426180839525173
448.1 -0.04567967199327505 -0.008809122790734916 -2.6012023397991517 13.919797233639752 0.02378929268132827 -0.01569947470474944 -0.17806927635119826 -0.08158787557137408
454.0 -0.047271355451749 -0.005768202977233098 -3.157479221269277 13.887555412356665 0.02487898705666789 -0.01386107606237621 -0.17834660131835461 -0.08540996902937406
459.90000000000003 -0.04769718576559896 -0.0027112536782468145 -2.5558084967667356 13.871414261370873 0.0266113305901157 -0.01419101573288856 -0.18157637516872935 -0.08061807989925783
465.8 -0.041440342864598044 -0.0032208375926383107 -1.8690714570338252 13.959177334070223 0.024889779351093117 -0.018204930711021847 -0.1804590997069704 -0.07140946357264537
471.70000000000005 -0.0405888636746762 -0.004919522637810109 -2.4673298964843777 13.777752069940563 0.02513984874266001 -0.016280449814650703 -0.1749535001768628 -0.07995426504682808
477.6 -0.0455353359137903 0.003496460103069448 -2.1006022808634435 13.853468887739057 0.026056631280211916 -0.01461674957455509 -0.1840922985349017 -0.072112483758538
483.5 -0.06165855821610919 0.01268228625443299 -1.8705073551513582 13.78005838711067 0.0247906555138356 -0.014820703133792168 -0.20565771503527744 -0.06210341074374628
489.40000000000003 -0.05271117264068668 0.016283050858849398 -1.5602222889947646 13.864487423161943 0.023927619150246826 -0.0171157881744227 -0.19841624767989696 -0.05764539162205924
495.3 -0.049538714887805424 0.01584733869174044 -1.3505836149305233 13.84214409285974 0.026525274837705205 -0.015921542007673633 -0.19740310172812167 -0.05783843126504486
501.20000000000005 -0.052153013239331227 0.025061894567118537 -0.9380567002661603 13.944757014838704 0.025286351289582062 -0.017254598025392035 -0.20745752315808053 -0.04639586444793195
507.1 -0.04622520518265678 0.025891316603302454 -0.6759932313216316 13.786861396152222 0.024048332776239852 -0.01963007928181915 -0.20216132223191308 -0.042171100346740716
513.0 -0.03776251173874941 0.022364703313444145 -0.2334064408001651 13.738988037764543 0.024340535589762884 -0.01703868094847241 -0.19739645774234016 -0.039978074252240065
518.9000000000001 -0.03186653832289794 0.02129138691667451 -0.22517680312992455 13.68918951146826 0.024179899352183534 -0.017333129541461042 -0.19412638101176394 -0.035527417064873036
524.8 -0.03059395216901868 0.027240699289520467 -0.2213327769054617 13.711967687898781 0.024729810228617193 -0.016975997484199413 -0.19991713555747115 -0.03330143520271511
530.7 -0.03013032089181993 0.020626438890931402 -0.04984420602316551 13.670598622966416 0.023649077443726803 -0.016755245406519913 -0.19872949399524845 -0.03167391585841845
536.6 -0.02055939891123719 0.013922027736337475 0.3870877421893861 13.64375186452026 0.02364580313369166 -0.01636565615030087 -0.19301322623076048 -0.03204495936770338
542.5 -0.02675790452954295 0.022213345458076544 0.8944827759715751 13.599252566040873 0.02216768480285929 -0.019327782852781573 -0.2012505321497552 -0.017078684634328805
548.4000000000001 -0.027875309338166173 0.008037919795726059 0.2972690845266425 13.585573549190066 0.023723099234118285 -0.017362064753235238 -0.2004373238226922 -0.034673342816842014
554.3 -0.028888408751724458 0.0064891151420794655 1.2243672614831476 13.525593297139634 0.022417060811130513 -0.020828702056841657 -0.20494161781911038 -0.02735763892367748
560.2 -0.030524605902210747 0.014699686714879163 1.2450911971622005 13.521528053491618 0.02384065511187636 -0.020803247509236858 -0.20892553650294865 -0.010875232588893249
566.1 -0.03210850368044898 0.0008843432673692393 2.147629108628446 13.435566757505352 0.026396343270827412 -0.017386850147033457 -0.21012386656276802 -0.01805179478248218
572.0 -0.030550407482925188 -0.0032230698476661346 1.6191787710793928 13.40916787154464 0.02443291992432641 -0.018601618412567838 -0.2053809331206868 -0.02414252226369797
577.9000000000001 -0.04938124755182145 0.0062602844583705556 2.156198257419758 13.494701674089233 0.02250879575803332 -0.019888830704393342 -0.22504344387478342 -0.00914331583470613
583.8 -0.05397687147293117 0.010671611059744715 2.3880347453009763 13.355561210087075 0.024548998211246884 -0.01964924069132256 -0.23139535707225747 0.0017764915133318558
589.7 -0.04763339482858185 0.005181163946817123 2.2610545951436176 13.363207783110816 0.024273604492457506 -0.021957014306599014 -0.2288465077837041 -0.0031309995202954658
595.6 -0.04880402255501001 0.0033190581771188636 2.6402992660597993 13.191800847467583 0.022070556492303633 -0.02135964694193809 -0.2287002320295385 0.0021247344648158404
601.5 -0.053373418986088245 -0.0018195139581705562 2.937277536472415 13.065604834447567 0.023134664977702227 -0.0218936166573896 -0.2352082850741721 0.000684280543404762
607.4000000000001 -0.059725331345439725 0.005057317468580531 2.987237840175737 13.105466817409308 0.02238212438402581 -0.02343092209281224 -0.24309400181937668 0.011969273126519986
613.3000000000001 -0.05879961553543404 0.015381677433404415 4.0126116481839205 12.751102816094342 0.023490496782655558 -0.021424851147031635 -0.24670819091966945 0.033730598687857064
619.2 -0.06288923202741924 0.018676392146986187 3.818691622921069 12.811375554936765 0.023335709432772408 -0.024212615142603103 -0.251755296763202 0.037982971891174874
625.1 -0.05437165653531408 0.019151416489321088 3.7019208077204953 12.777534847448942 0.026457815719674444 -0.02344221063795744 -0.24822504334086873 0.0349818017239208
631.0 -0.051084582936918345 0.02267409615188876 4.254361246552597 12.50516413167235 0.02267834179533691 -0.02213188473040945 -0.2472930332269804 0.0521101002832224
636.9 -0.055770875967318376 0.029213593035967773 4.231000833617978 12.439209056236955 0.021394460485299475 -0.025892266590880376 -0.25070560403598835 0.05956503507567439
642.8000000000001 -0.04259684202421752 0.030851561065123833 4.67962547104382 12.189793745371986 0.02345153373956907 -0.02229739922940903 -0.24220022690963192 0.06778196280737155
648.7 -0.04725791010431063 0.0329519312178164 4.674455324548406 12.090300682064504 0.022133496743711616 -0.025225832297372467 -0.2497532370193683 0.08034476458369982
654.6 -0.030472810906562165 0.025752123254982846 4.8060595061889 12.107606671558214 0.022826188640057612 -0.023266703637587365 -0.2372111228811157 0.07150435689339196
660.5 -0.03497935106095171 0.03599403378218665 5.0660270692028 11.879540247920751 0.0210791775672933 -0.023535139744729684 -0.2403040475219163 0.0855084960129103
666.4000000000001 -0.02906151183387477 0.02863339198379811 4.825243400512407 11.875676109366323 0.021106006924335216 -0.022961128698688993 -0.23906117705678645 0.07723843388440743
672.3000000000001 -0.023460491363834986 0.02161819988928464 5.314999579165684 11.63645140154838 0.022586699279761337 -0.02536812605455576 -0.23337707000792987 0.08575685336448118
678.2 -0.027000340216785535 0.025001239627264343 4.990688531039342 11.741946643826351 0.02067099200963677 -0.023886452568647153 -0.23705320210546604 0.0843158435077523
684.1 -0.028462386920046552 0.05008014589140888 5.196135140518133 11.574288743934208 0.020599256566011602 -0.02657142543958039 -0.23990192917361178 0.11705621952545493
690.0 -0.016465613932146548 0.018984825326601496 5.565135974671422 11.430147565703376 0.021648578630435306 -0.02327005260030908 -0.22608340662075246 0.09135210850387156
695.9000000000001 -0.01209220694635678 0.022690311170328943 5.805767382926733 11.3241940012042 0.021892268415800557 -0.026945234697447154 -0.22602223902772775 0.09701381652432227
701.8000000000001 -0.023163153573516445 0.03026507847383294 6.471990582638067 10.909761323165167 0.0210947012979429 -0.02400822099402305 -0.23361060932803807 0.11280868806955671
707.7 -0.022576854532994888 0.014116552716262228 6.071589305428627 11.121737870874158 0.02047544954286894 -0.02456045743377527 -0.23014788711706088 0.09351257681334738
713.6 -0.024341179486455502 0.0124095808634935 5.7253975012174125 11.37508358359503 0.023049627727008255 -0.024000508518275968 -0.23443384812689505 0.08581479803359968
719.5 -0.034784880066630684 0.02297467920484814 6.637310748810644 10.86518033517461 0.020765571066998605 -0.025069709954187475 -0.23769145841224726 0.10855399322977047
725.4000000000001 -0.03592974055035002 0.009915794208709458 6.523499375048459 11.011584676953404 0.02171750975624202 -0.024227296206298043 -0.2421170919922055 0.09364785871924491
731.3000000000001 -0.037232719226715554 0.002038459282882099 6.184904582892018 11.173206317761128 0.022654214201610633 -0.025723868995518793 -0.24147526315412257 0.08114538938267883
737.2 -0.043356040183326915 0.013525324201516047 6.985229079721582 10.735612581090301 0.02148775953603512 -0.027361815430944302 -0.24889637536762033 0.10341799385290787
743.1 -0.04841398199462209 0.0017464366300373292 7.118461973724812 10.626427220379389 0.020885852996566645 -0.026635929752597685 -0.25332637704120364 0.09947745402661427
749.0 -0.0581960880768465 0.026746321806913654 7.856712966347827 10.006234802845503 0.02018323438611678 -0.026670951662998606 -0.2567620032528355 0.13280816819943447
754.9000000000001 -0.057982463036719376 0.03437823052574821 7.62510771152754 10.118372040521542 0.018553285026413267 -0.02690870097103291 -0.2594167793322726 0.13537881437618535
760.8000000000001 -0.05607544672757282 0.02865600364040038 7.654165760972382 9.980873994919131 0.018266562347878004 -0.026287456384604294 -0.26378011572431526 0.1330053856591903
766.7 -0.05497962159941804 0.027056037666781434 7.747650208201911 9.861251622995086 0.019699215511716182 -0.025794407118392152 -0.2601787578408152 0.1334472448951347
