!Created with skrf (http://scikit-rf.org).
# MHz S RI R 50.0 
!freq ReS11 ImS11 ReS21 ImS21 ReS12 ImS12 ReS22 ImS22
100.0 -0.025125955828127773 0.01375738310131451 -13.229593916071702 -7.2291969319173175 0.02727107665153505 0.002930902127904609 -0.025006845371636825 0.11307797681976547
105.9 -0.022374885166069173 0.014290958516647401 -13.247820408690387 -7.34034075076551 0.02924872186563532 0.002649474852300335 -0.016041881658678446 0.11227820290869253
111.8 -0.046372089769573875 -0.014254811061171806 -14.344153192232307 5.257100339206881 0.025519113133848588 -0.0030974998559524184 0.007545030848479742 -0.04237977756343312
117.7 -0.04498876449798304 -0.010083588228245037 -14.258664047308072 5.599331155995334 0.027340554976547592 -0.0025891850604278185 0.010827734519774736 -0.04330494091526093
123.6 -0.04978223042038574 -0.007509395924443173 -14.304347811673493 5.39915421848686 0.025981676969393432 -0.002401687236106178 0.005948124059316713 -0.04519501769432202
129.5 -0.04248688560922387 0.0006328123420088624 -14.277053430315473 5.465381303076947 0.026095360347621287 -0.004106512851250981 0.006924115384951104 -0.03963429832009941
135.4 -0.04443952927977541 0.006453947490943457 -14.121117131537485 5.849028639690073 0.02743638057112931 -0.004839109289267952 0.001590435828732994 -0.03932972400155162
141.3 -0.041184392398170455 0.008052902156498268 -13.880096898095605 6.396808698129086 0.029473336693329796 0.00018949545974210634 0.00706182512878368 -0.04233472074264912
147.2 -0.03739852758669394 0.013794748045756098 -13.493419605543895 7.126365142613582 0.028509111158089982 -0.0019093217483994185 0.007964204599943982 -0.0384303305995448
153.1 -0.031714048097205315 0.01629875986593053 -13.555071807195526 6.936233025028658 0.02738271759136566 -0.004771136576914864 0.01247639631074056 -0.03890847887077008
159.0 -0.017848702333232474 0.0037143422315622037 -13.56336939389232 6.836375924513507 0.027533674246261273 -0.006377138840547517 0.02575010178581152 -0.05335032096635588
164.9 -0.01648729669052873 0.007874913158859709 -13.279085182014825 7.444359166766505 0.02642159090588691 -0.0035164396162646857 0.023128207596031514 -0.053142064465194885
170.8 -0.0173285839103824 0.0071732281307685455 -13.11272170651182 7.522620340129717 0.027738321912110987 -0.003734133522747151 0.012719800451310973 -0.06381431795866617
176.7 -0.01693119734514531 0.008524125944051844 -12.93443918821471 7.708847789151771 0.026985876339733254 -0.0052645742188658536 0.010216673216682837 -0.06897569682620051
182.60000000000002 -0.013788829172838453 0.0015601249551658214 -12.963349022171471 7.709969694066925 0.027593838209970658 -0.0038394167335233033 0.009022816156860135 -0.08021792349809151
188.5 -0.01666578995544751 -0.0037669186500764278 -12.439430037455185 8.602424919342265 0.028231290707411157 -0.005945305807963096 0.00015926885273332049 -0.08780800708982073
194.4 -0.021195004669174018 -0.005323380015625348 -12.608103485471615 8.280671253169919 0.02863803356758183 -0.006297572144304505 -0.008456365459333986 -0.08914589681180937
200.3 -0.02321525275165558 -0.015187355533910415 -12.22956523596346 8.886091474432405 0.027867858991151635 -0.0054701951531845065 -0.009652881363587459 -0.10215534857865244
206.2 -0.025467590819285728 -0.01171290418664686 -12.42772889918621 8.6184301895243 0.02593832021141614 -0.004326672049197383 -0.01786326445897465 -0.10124937305565625
212.10000000000002 -0.021911426759988827 -0.010138139265634297 -12.505736371936356 8.420478039620168 0.02628181440572334 -0.0072140822310691214 -0.01631059864546232 -0.09762532259539536
218.0 -0.029883679727253448 -0.011646339433137764 -11.889425210970094 9.341778751163393 0.02691202554492179 -0.00865508879014438 -0.032814791260504246 -0.11004449676299151
223.9 -0.03826132408111293 -0.013086853898433198 -11.73491233984979 9.455142986458936 0.027391478281767367 -0.007020806813908944 -0.04404520438592493 -0.10932333452507684
229.8 -0.035657675916333446 -0.00929286378020935 -11.274817290436676 10.016207269656148 0.02898880716616837 -0.009400195438320352 -0.047508040307066936 -0.1088832750194304
235.70000000000002 -0.047112730409360426 -0.010969208133579498 -11.290119764156445 9.868019672960719 0.025975905457266357 -0.0069856714846381635 -0.050586799083561465 -0.11163944532245548
241.60000000000002 -0.03266503520205979 -0.010803135192375383 -11.198314550940417 9.982442449996299 0.0254187971494918 -0.006566611541395673 -0.045244617199778674 -0.11236936890280018
247.5 -0.03331042078268312 -0.00546412080579405 -10.964730389443242 10.206820632556985 0.02600448691898177 -0.008930658622652259 -0.051887323851289316 -0.11330816381831496
253.4 -0.03686142771243329 -0.00835903476819404 -10.812250348581795 10.374541790644084 0.02757687180055283 -0.008967875540040767 -0.06003952920860815 -0.1135767885503855
259.3 -0.041440420676633165 -0.0029011991061328804 -10.435159939353472 10.710692762040534 0.02807092945488237 -0.006443347815944304 -0.06390360562908189 -0.11165925366679788
265.20000000000005 -0.0367800757889467 -0.004062467397804745 -10.517110164176579 10.531194789891842 0.026370437825032508 -0.008050666597063189 -0.06612207310761602 -0.11323294909657128
271.1 -0.04191157077646799 -0.00038787614663191933 -9.943620251999393 11.07444326931972 0.025861559293052148 -0.008353922244996455 -0.0723708877165285 -0.11102037811416972
277.0 -0.03390731675134013 -0.0006765596226583962 -9.748716055966021 11.270956363212425 0.02527088121714138 -0.007790163921952483 -0.0744562002088191 -0.10829138024607415
282.9 -0.0286983591701504 -0.0035478401516816603 -9.361447231085467 11.608619080406072 0.026443670294256198 -0.007519561766837529 -0.06107644291077976 -0.11575279060517618
288.8 -0.03782394768444874 -0.0015284834015426474 -9.390600352703085 11.454842187915213 0.02748615356481097 -0.010255042930013643 -0.0740807076406704 -0.11250239041622727
294.70000000000005 -0.030209597618373364 -0.0027246183928626073 -8.921528585121226 11.75697588548617 0.02878776510868405 -0.011383266537004505 -0.07495248760529996 -0.11670276413054399
300.6 -0.03296416864193324 -0.0027782266091878486 -9.156809027059571 11.53456977113094 0.02681562244921763 -0.012087265233332459 -0.08042434841210909 -0.11333317087389944
306.5 -0.028903240161984287 -0.0001153568953708913 -8.685875758370038 11.90254573112604 0.02543893981296895 -0.0059266990280884705 -0.08439709053216089 -0.11231125352936831
312.4 -0.029688599582976975 -0.0029896759593152776 -8.324326908009231 12.094655917709359 0.027519035889026298 -0.00970934925434719 -0.09133170296378963 -0.1134686203862993
318.3 -0.03196293769745867 -0.007312975371216693 -8.575526606010719 11.95886901045853 0.027207771384368543 -0.009220116896016952 -0.09142142703171187 -0.12360714772912491
324.20000000000005 -0.034471958761411334 -0.005108886705160363 -8.195736657736859 12.18209820125633 0.02648889404086479 -0.01066036645327867 -0.09541559264179382 -0.1094048579174983
330.1 -0.03281462339689639 -0.004062871971537239 -7.95305720981276 12.271006723804396 0.02745876784379981 -0.010255008202821443 -0.09805194040699207 -0.11703142764209391
336.0 -0.04191741514936859 -0.0019580901357144475 -7.462917148353914 12.534955071342688 0.02341494551696573 -0.009643305329462306 -0.10967933076102303 -0.1110674802119694
341.9 -0.03584549119561945 -0.008026049787438094 -7.367059648947235 12.613649241045353 0.026012433191557657 -0.015103810762438613 -0.0982449612144694 -0.1147028630857276
347.8 -0.04012352209756437 0.004832421279521496 -7.229436556058481 12.65648700202616 0.02765469731920194 -0.011783082088727768 -0.1137948847616919 -0.10883792239371627
353.70000000000005 -0.03055855486462927 -0.0022411634165587645 -6.804375250840348 12.813702124210618 0.024742385387883044 -0.010196355383172517 -0.10937545615629927 -0.11002835646368661
359.6 -0.03453968474850774 -0.005014602747173317 -6.522773264866978 12.929222664563012 0.029103164890842814 -0.011304375824096918 -0.11876429855730058 -0.11095718095731223
365.5 -0.031018415058202922 0.0038753226546254568 -6.499302048033533 12.870020452201418 0.02678237352274353 -0.012769854467304834 -0.1258855501247338 -0.10352947931337399
371.40000000000003 -0.03355770704059366 0.013070127326932576 -5.775485247491931 13.237142227411079 0.027360086768875264 -0.012804871408134588 -0.12864241361635045 -0.09113999547347587
377.3 -0.04008959911419682 0.006901101955797992 -5.843020856207767 13.170569483560195 0.028516981111126313 -0.01002984929378206 -0.1393668319991913 -0.09647390357521396
383.20000000000005 -0.04095670142019153 0.005654632741507926 -5.966595233787518 13.091237018242758 0.02626618769710544 -0.009909649061159913 -0.14127192397543792 -0.09504725856387228
389.1 -0.03462453969981456 0.008428262608853704 -5.562762937512136 13.273980436842326 0.0270963223544486 -0.013908344224937207 -0.1334169375435777 -0.09318913673602362
395.0 -0.029788842765961995 0.0008339135899896863 -5.612597674739493 13.226153938533011 0.025831382989260937 -0.013983733980348328 -0.1415392508079515 -0.09262007548709629
400.90000000000003 -0.03216710081013886 0.008419898849330842 -5.27807296215822 13.281034803798665 0.026841258359935383 -0.010776934165508983 -0.1458164085901221 -0.08801394708038038
406.8 -0.029834655145488956 0.004178507482962937 -4.938333168021297 13.448783441100943 0.026015854218819755 -0.0144083439084381 -0.15011714837195106 -0.08970583690564568
412.70000000000005 -0.028510564437821292 -0.0035125404714517697 -4.8446538028470405 13.479925203831291 0.025309961815051664 -0.016191980533836182 -0.14299204339249988 -0.09617243414778665
418.6 -0.0338579303013615 -0.000552060616583296 -4.2220977085477545 13.69035506260818 0.02704205663276368 -0.013727663465216509 -0.1544120604526617 -0.09011635865856071
424.5 -0.029133375631727125 0.007760669391667741 -4.030319178660193 13.647673102081406 0.02616920343894194 -0.016752602075340583 -0.1536738020979661 -0.0843432765220752
430.40000000000003 -0.03253220958697763 0.004140839927780495 -4.429293299492733 13.53176081882173 0.02727638347532344 -0.014610642050384341 -0.1554194126177605 -0.08545330091603154
436.3 -0.030152345157866724 -0.0004961163177274848 -3.7001560207443758 13.76993676829874 0.026221118344859646 -0.016127885778468715 -0.15817987477312245 -0.08754719119513801
442.20000000000005 -0.04224449774063446 -0.0018395648713021102 -3.575076596172454 13.84195659429965 0.02828251584519309 -0.01537210201187177 -0.17024643755675697 -0.08180316937499557
448.1 -0.04090566379086718 -0.007917594157510855 -2.801717421773937 13.99488537053152 0.02421784353226562 -0.015588725016564636 -0.17722159777326443 -0.08494242808616909
454.0 -0.041889384742968105 -0.0024465659659425416 -2.565345550994276 14.087442990808505 0.024454938488741897 -0.015057516476411941 -0.17557169676127668 -0.08586507275246921
459.90000000000003 -0.04518877877620529 0.0006086563175237628 -2.0693654619131063 14.07230110295555 0.02635097717528705 -0.015297765422460181 -0.1828059606901896 -0.07981516703216794
465.8 -0.045488512358693584 -0.003044510902179967 -2.201958886621896 14.07839528172651 0.025564653524003677 -0.017846157037916876 -0.18794126669023836 -0.07428048997789148
471.70000000000005 -0.05571167340542105 -0.002393497707572255 -2.167610653373701 14.063238090343194 0.025133833072279968 -0.01701379665906351 -0.19167168785340152 -0.08135432030202343
477.6 -0.05373207939310287 0.006467906593086386 -1.888848198503406 14.036629567662745 0.026097140240857682 -0.015149966622538282 -0.1954574684834032 -0.0744376700672398
483.5 -0.05455186724675583 0.00776645378321748 -1.4169468850952947 13.990630408058763 0.02452948475089679 -0.015944826450050766 -0.20200583175043021 -0.06957657431192737
489.40000000000003 -0.04910826425465297 0.009968494120635508 -1.1414157906558424 14.038925407556977 0.023572917031597706 -0.018081083986593676 -0.19535100659761104 -0.06628686714245072
495.3 -0.0494760731164361 0.011567275447634943 -0.6899672760975897 14.011284360317097 0.025953934808674434 -0.017349472951746474 -0.1975035254262094 -0.06775401966662634
501.20000000000005 -0.0428437423781845 0.015596947916091652 -0.39600113698435224 14.046562920778559 0.024686855644029164 -0.01846678783442207 -0.19853872405095135 -0.059225214783914036
507.1 -0.04277868983214746 0.01902234540579748 -0.7690448217453644 13.88146779754078 0.02424848002432961 -0.019740465964385487 -0.20600432717957262 -0.04947122050883346
513.0 -0.040279019623641256 0.014127485039147724 -0.09912966279253568 13.953435227864126 0.024429526418183033 -0.017547223331121322 -0.20106539963084896 -0.04764705044436009
518.9000000000001 -0.037620828060963285 0.02194700708487893 -0.031161991630306984 13.82372623424591 0.02414237867221632 -0.017811161597205052 -0.20371037256363633 -0.038075026592364745
524.8 -0.030110078466072766 0.020671687713919754 -0.042046929588585566 13.810890906671656 0.024602267336084706 -0.017473980313890917 -0.20209530089647443 -0.041646502863972264
530.7 -0.032029166481276204 0.016207414316857974 0.29640937681210644 13.86254551853035 0.02351697918827274 -0.017574927790981472 -0.19939754038705795 -0.03755932706970777
536.6 -0.029284478369252413 0.012725873228697242 0.5921380202057619 13.860946979636351 0.02376702376206679 -0.016852910456723713 -0.19933382104135638 -0.0331598578404587
542.5 -0.025177140741942803 0.0172079866977689 0.8363029054838497 13.75150531707369 0.0224584209434491 -0.019468843113515637 -0.19909821875924652 -0.023898415152847102
548.4000000000001 -0.028337667386434978 0.0009702091705185115 0.7234230548751582 13.73858864794083 0.023403019261743353 -0.018298935168009105 -0.19651435169709222 -0.04112164412776377
554.3 -0.03295754921962416 0.005773342865359643 1.4772745543571761 13.658040258215058 0.022287867356170686 -0.02140261355750127 -0.20862889965096493 -0.027659938339301634
560.2 -0.02707179899891908 0.005973834956734189 1.1320188679704632 13.686566753884687 0.024240540101166896 -0.020868725369325814 -0.20029530491557415 -0.023228010813953693
566.1 -0.03212505602139878 -0.003093065231959335 2.0569922926030033 13.57638504176894 0.026753939852228268 -0.017327584407116774 -0.2059897860480906 -0.024779099680331283
572.0 -0.03456640966699325 -0.004782069977448509 2.1661542612999836 13.599419230014984 0.02420638723202529 -0.019840941171453838 -0.20522539561056632 -0.02890269857802392
577.9000000000001 -0.04115050748837151 -0.0039134506557593545 2.2442024797480116 13.512037949324297 0.022357393399255923 -0.020196199964720832 -0.2132174370678227 -0.021031984026324994
583.8 -0.040828775559855104 -0.004819030522995107 2.292842417516591 13.497684289683606 0.024806883911911506 -0.019802429428409006 -0.2141549402943757 -0.01670962316162369
589.7 -0.04399682589387083 -0.000393506898609054 2.2943781340771867 13.489462782719848 0.02445672813070469 -0.022282160641923628 -0.22742224432368602 -0.01458562897521397
595.6 -0.050012842407791816 0.0010400096292414683 2.955060887403059 13.347875359445622 0.022000536146832658 -0.02214818145923742 -0.22621427976789527 -0.004033838757701853
601.5 -0.05624554534374805 0.0011786624775170752 3.2909887451671076 13.186858632794214 0.023019370942786884 -0.02273419761069537 -0.23807141286092623 0.0005116799700283292
607.4000000000001 -0.06038998438615756 0.002347328800908403 3.3070407375290296 13.193003316831865 0.022115564453467122 -0.02419541730328549 -0.243341308535096 0.008749023273353126
613.3000000000001 -0.05512597586815696 0.014210402597827534 3.856397664779017 12.946673031495937 0.024081560272953825 -0.021348590324431767 -0.24346806962368558 0.028305385003650596
619.2 -0.059551869321652386 0.010925990152142 3.7442308971286082 12.987617290714391 0.023724912687303496 -0.024323219188591 -0.2463781177221706 0.030205499960826623
625.1 -0.05540527472690734 0.017767666138481922 4.320181773771092 12.72041052159319 0.025641840614573613 -0.02489123547878718 -0.24841795082428053 0.029480195451222442
631.0 -0.04732719558592423 0.020862321819128855 4.4888000533777515 12.59711334120015 0.022641486062462555 -0.022825543050094464 -0.24423304320673733 0.0463097230149571
636.9 -0.05487163317376554 0.02425088053685549 4.351817129092818 12.560336949324123 0.021442401581132805 -0.026336538241409392 -0.2473112591360552 0.05469802021891921
642.8000000000001 -0.045807199525440406 0.03690849012445641 5.16942187901714 12.199911295907803 0.02312993104585551 -0.023403880445928612 -0.24484814299991947 0.07011869117325137
648.7 -0.04240741489894254 0.032377636801632435 4.90064836390375 12.101724173056065 0.02189518270403203 -0.02586170714190213 -0.2465120524475094 0.07737933136953758
654.6 -0.03432325995242139 0.03557940047224341 5.023133077368433 12.110369393226504 0.022774910948407976 -0.02367984135463819 -0.24060692076381726 0.08186833396201976
660.5 -0.03297705634723623 0.04209569531963038 5.458670890891852 11.834199776803034 0.020689381552203154 -0.024408253847806004 -0.23710890890955028 0.08923970914569397
666.4000000000001 -0.029868062076532538 0.04109749886655284 5.560818058123779 11.622979491996157 0.02000251499789077 -0.024318841860471153 -0.23803182293057706 0.0879535747629406
672.3000000000001 -0.026041161510149905 0.03205904426461778 5.4603768763429965 11.661394588856252 0.02267250993656524 -0.02569027438971863 -0.23555070792529023 0.09554533504488166
678.2 -0.0251545462693951 0.026644244513691576 5.599903562440179 11.533491069079785 0.019571279192765353 -0.02506434470133361 -0.2328430205418991 0.08732012219800098
684.1 -0.013635368627334709 0.0314065630391685 5.430539841406738 11.55913109483173 0.019967106112968702 -0.027400619151732534 -0.2259721541783752 0.09680735634683225
690.0 -0.015785233924003772 0.02512843643371221 5.808130567342501 11.403526666139891 0.021473288722641988 -0.02382969201236955 -0.22468037326730025 0.09592492254076083
695.9000000000001 -0.011506869185706153 0.02306610049576808 6.00314163185536 11.311073568721033 0.02165738123033899 -0.027435702207994666 -0.22440448041508732 0.09957320425166555
701.8000000000001 -0.01378112457832753 0.01804943497081854 6.485536048640517 11.06847570895429 0.021275148875350085 -0.024376096669163554 -0.22346218490862346 0.10055444913179966
707.7 -0.01993302037530143 0.011335045907776904 6.513020364307338 11.029893735169436 0.019799397861741636 -0.025572089008020632 -0.22848613352510766 0.09342470261632245
713.6 -0.023249998100413012 0.009658817504814626 6.498366011456263 11.066441273789577 0.02154765732713243 -0.025671765599440573 -0.2325558710013227 0.08456456045151317
719.5 -0.028693474663709882 0.00973827664398857 6.935865015662564 10.831462834668137 0.020204577411001425 -0.025900053908765614 -0.22976627192770666 0.09593920247896669
725.4000000000001 -0.035764414414393576 0.006573003061292251 6.774826688610979 10.966031936901256 0.02134339499225384 -0.024815204452470294 -0.23936288858294114 0.09232377831234523
731.3000000000001 -0.044527292422225535 0.007769797478229262 6.789068976576201 11.033207293438439 0.02181651963282536 -0.02697993911697653 -0.24337582094496849 0.09341650319781258
737.2 -0.04260976060318436 0.0068754517080003765 7.407078077367959 10.597069468810904 0.020624973727584595 -0.028355175701981563 -0.24463155187206573 0.09988711489127415
743.1 -0.0516171661935356 0.009637309593433006 7.576711503118116 10.489347819660885 0.02027654227499818 -0.027584692960998202 -0.25015046037406413 0.11030789296913437
749.0 -0.060405839551181534 0.017473576062829763 7.6743341555942175 10.357321416895681 0.02099904311211347 -0.02643255427233538 -0.25361763665791615 0.1266989306678891
754.9000000000001 -0.05863537131053717 0.020255769835594937 7.90935062775249 10.092523985852885 0.01796299605603381 -0.027588899144891914 -0.25227874590022326 0.12264135571216471
760.8000000000001 -0.05803323895780893 0.02186626515981987 8.065495009634885 9.924200238359594 0.01764636012386545 -0.027201392673422104 -0.25832775696364374 0.12801822229385615
766.7 -0.05960532811401521 0.029184109108409566 8.248220089898803 9.674365928620379 0.018916745509320775 -0.026812304540564106 -0.26027223654805415 0.13594280923017169
