#  HZ   S   DB   R     50.0 
! Rohde & Schwarz ZVL6 2Ports - Version 3.32 - 1303.6509k06 SN: 102097
! Date: 2024-06-28 18:57:20
! Data & Calibration Information:
! Trc1:S11(TOSM) Trc3:S21(TOSM) Trc2:S12(TOSM) Trc4:S22(TOSM)
! 
! 
! 
 1.000000000000000E8    -3.052219015627681E1  -1.508823777206218E2   2.274578538331805E1   1.642138881253542E2  -3.172847983541389E1  -5.009041103673751  -2.749273375537837E1  -5.137405467907858E1  
 1.014750000000000E8    -3.110709323439699E1  -1.583787251324577E2   2.274718485140871E1   1.632337644428882E2  -3.174719597201289E1  -4.046835546252447  -2.700461213351065E1  -5.468735817811231E1  
 1.029500000000000E8    -2.999607988881378E1  -1.533531014010821E2   2.276372885266874E1   1.615523626206804E2  -3.173628555461268E1  -5.159408479007828  -2.681377490778308E1  -6.328842882197409E1  
 1.044250000000000E8    -2.913735524976190E1  -1.456518122178540E2   2.276812626630708E1   1.617972246485764E2  -3.176361750741405E1  -4.965728912934894  -2.679408720357927E1  -5.588755730334401E1  
 1.059000000000000E8    -3.058744009584192E1  -1.618552591276005E2   2.276961716877597E1   1.630591692764159E2  -3.175988943758486E1  -5.345040776337120  -2.675385764830562E1  -5.072451015339575E1  
 1.073750000000000E8    -3.116345835137215E1  -1.583239458474471E2   2.275114518801254E1   1.611569473526998E2  -3.172775317296727E1  -5.026036065372347  -2.692942424381541E1  -6.148928557607021E1  
 1.088500000000000E8    -3.087645696454665E1  -1.529021124464733E2   2.277126788931257E1   1.600305117542995E2  -3.175205483037176E1  -6.498063014279034  -2.679781695317200E1  -6.124261992148735E1  
 1.103250000000000E8    -2.976947327095871E1  -1.604125714877066E2   2.276475581405618E1   1.617035315553618E2  -3.179881674935665E1  -6.589932197125926  -2.716073216076833E1  -5.128128015204470E1  
 1.118000000000000E8    -3.062513289466913E1  -1.553606347434514E2   2.274960061844266E1   1.599647702655402E2  -3.178838284025304E1  -4.910498243215893  -2.609769449926744E1  -6.068505920977569E1  
 1.132750000000000E8    -3.104158359172442E1  -1.585884496589830E2   2.273418421275246E1   1.612210401628296E2  -3.178529518508887E1  -5.525446557618119  -2.635793085475632E1  -5.363997643092852E1  
 1.147500000000000E8    -3.065614704841452E1  -1.612171705209366E2   2.275708370187003E1   1.612210008704410E2  -3.175057964577258E1  -6.950479345334273  -2.662145775663112E1  -6.211495934870550E1  
 1.162250000000000E8    -2.897767169751128E1  -1.646697893409819E2   2.276521114094179E1   1.596282680282596E2  -3.179225132690488E1  -5.109192156735280  -2.641139166545122E1  -6.572482699455517E1  
 1.177000000000000E8    -2.883250285695728E1  -1.659889549120569E2   2.276328914302262E1   1.584472173220827E2  -3.172135821252095E1  -5.803086528800383  -2.720824426110340E1  -6.084007741266935E1  
 1.191750000000000E8    -2.921265266303736E1  -1.610455493132670E2   2.275262019562680E1   1.594147522840117E2  -3.174211017907751E1  -5.581491952750433  -2.611830796297113E1  -6.608589522194765E1  
 1.206500000000000E8    -3.135738696218538E1  -1.614284500653733E2   2.275898442697350E1   1.577467459963896E2  -3.169826709229501E1  -5.885310833752364  -2.645820954894134E1  -6.860821707330607E1  
 1.221250000000000E8    -3.040059954420090E1  -1.580425409828760E2   2.275952309493434E1   1.602172334752567E2  -3.174292819087804E1  -7.536028974985713  -2.569887252579272E1  -6.310213750132819E1  
 1.236000000000000E8    -3.123469286807289E1  -1.645807948313642E2   2.273218934597903E1   1.596137359472992E2  -3.175923727394466E1  -5.569466948913451  -2.586341530018319E1  -6.448449141858956E1  
 1.250750000000000E8    -3.215901452382177E1  -1.531209093904174E2   2.275542962463539E1   1.592446629968194E2  -3.179659689959595E1  -5.480923088091684  -2.613799517977190E1  -6.182145858165761E1  
 1.265500000000000E8    -3.134223447418495E1  -1.741884273534140E2   2.274444663098636E1   1.567017704266651E2  -3.174028974287294E1  -4.351350072372869  -2.524476721052908E1  -6.055781041257993E1  
 1.280250000000000E8    -3.153115507866558E1  -1.617804059930797E2   2.275105895290475E1   1.566221810000495E2  -3.175233539631038E1  -7.088239191623254  -2.539903230850682E1  -6.987020521395225E1  
 1.295000000000000E8    -3.103616568403892E1  -1.736046702120116E2   2.272745864735491E1   1.576787118915241E2  -3.174777131639633E1  -6.973659836066814  -2.690054769058264E1  -6.950732194786095E1  
 1.309750000000000E8    -3.147759550111856E1  -1.660629267289753E2   2.274804477826523E1   1.571666064879889E2  -3.168683577615035E1  -7.396392308697679  -2.556610194611834E1  -6.300194983698254E1  
 1.324500000000000E8    -2.939097092825110E1  -1.567488248902479E2   2.275089902654322E1   1.561997883462389E2  -3.172589685383370E1  -5.903555137149525  -2.503955643942970E1  -6.389743951110349E1  
 1.339250000000000E8    -3.179505086541907E1  -1.566754117274818E2   2.276335059973960E1   1.557287325547401E2  -3.173421461688719E1  -8.060621387362618  -2.494287078837532E1  -6.259425653363358E1  
 1.354000000000000E8    -3.111834373133568E1  -1.657246082021737E2   2.275707912767681E1   1.574639429531634E2  -3.178312036906783E1  -9.625486191084212  -2.455195870259473E1  -6.295733267740177E1  
 1.368750000000000E8    -3.260406078986756E1  -1.594888239354912E2   2.274509425811592E1   1.547206951945843E2  -3.176062237152505E1  -8.696265561764397  -2.492653629075898E1  -6.954276250372698E1  
 1.383500000000000E8    -3.079380956695999E1  -1.628942254129250E2   2.274620202387316E1   1.540721297034630E2  -3.167870669571585E1  -6.912627582072991  -2.494891501800679E1  -7.039377566960377E1  
 1.398250000000000E8    -3.162016729903572E1  -1.642692907846744E2   2.274877003573871E1   1.554640020690155E2  -3.174115587193002E1  -7.918005521152633  -2.351548845687812E1  -6.813926871901144E1  
 1.413000000000000E8    -3.043740062206447E1  -1.680241993603055E2   2.274987599835831E1   1.557753499094023E2  -3.175867952168921E1  -7.491374543539387  -2.397282761991181E1  -7.292292449835109E1  
 1.427750000000000E8    -2.966398325752555E1  -1.695469538885401E2   2.275993344764512E1   1.555101601599298E2  -3.170961414400058E1  -7.350115906473461  -2.451594926654321E1  -7.196559929751726E1  
 1.442500000000000E8    -3.110120685997288E1  -1.761998173356854E2   2.277618870140026E1   1.535487399631189E2  -3.173345764720042E1  -8.093652136573390  -2.383049641200658E1  -7.405740509969144E1  
 1.457250000000000E8    -3.078208797653577E1  -1.579962626928757E2   2.276211382065571E1   1.533303548219041E2  -3.175885249256492E1  -6.932172971405969  -2.357587560851421E1  -7.681931528155843E1  
 1.472000000000000E8    -3.225573175558606E1  -1.662913022435991E2   2.276378469422400E1   1.531229430249904E2  -3.173006583409992E1  -7.792788312485978  -2.331352642090078E1  -6.935366573785520E1  
 1.486750000000000E8    -3.023314367540324E1  -1.519301154542347E2   2.276648154576032E1   1.560707276859232E2  -3.169339720760070E1  -8.658757341805803  -2.353933362364483E1  -7.602804935650354E1  
 1.501500000000000E8    -3.402278968235220E1  -1.561801064867585E2   2.278071796876998E1   1.531651487486139E2  -3.169899027121158E1  -7.950850506898020  -2.308559543813451E1  -7.943571452987727E1  
 1.516250000000000E8    -3.018673342969618E1  -1.584261757011527E2   2.277357177545101E1   1.537758485857746E2  -3.171965372297952E1  -1.086501299065550E1  -2.281189999425437E1  -6.908810895445858E1  
 1.531000000000000E8    -3.300777502026450E1  -1.654887335026208E2   2.278403945559036E1   1.515478950070652E2  -3.167790047554600E1  -9.079057913801901  -2.302403537256482E1  -7.504836613600772E1  
 1.545750000000000E8    -3.171879293125373E1  -1.554442274232705E2   2.276935839311655E1   1.536705468802605E2  -3.171230778872880E1  -9.297142154168927  -2.290599950839428E1  -7.783783973020181E1  
 1.560500000000000E8    -3.317247195602477E1  -1.687848121978492E2   2.277533589183133E1   1.526815553627239E2  -3.170449044351368E1  -9.318700412108910  -2.260839877553627E1  -8.024454559528734E1  
 1.575250000000000E8    -3.285527914952833E1  -1.516524280936113E2   2.277728066335991E1   1.512675508186780E2  -3.167802017758332E1  -9.011339757727791  -2.324897041245682E1  -8.154345709379808E1  
 1.590000000000000E8    -3.084819371532365E1  -1.579069511280182E2   2.278333776332487E1   1.516734856315226E2  -3.173020326122955E1  -1.082039847661589E1  -2.187767235560428E1  -8.054957658920181E1  
 1.604750000000000E8    -3.168500177497452E1  -1.668707243821677E2   2.277888462491786E1   1.505949385432368E2  -3.177007272032516E1  -1.002843114686426E1  -2.253476900759622E1  -8.224716786530438E1  
 1.619500000000000E8    -3.069959088097029E1  -1.713337723463734E2   2.277750496429870E1   1.507988274554674E2  -3.171787059510175E1  -8.374236532320289  -2.208414369499936E1  -7.663123842723820E1  
 1.634250000000000E8    -2.994287384848854E1  -1.534538416182696E2   2.276552198773305E1   1.516890803256593E2  -3.175777605686584E1  -1.032796293149242E1  -2.204526099046718E1  -8.037352054806269E1  
 1.649000000000000E8    -3.112091848011425E1  -1.662166579752320E2   2.277408877311936E1   1.498476031409428E2  -3.171732846681391E1  -9.639024818945194  -2.190462186068563E1  -8.302140424462263E1  
 1.663750000000000E8    -3.167507633491273E1  -1.598787064159809E2   2.276124209341381E1   1.497132169662076E2  -3.169170308318078E1  -9.150580740595997  -2.167293496971215E1  -8.240542258366388E1  
 1.678500000000000E8    -3.162008962289657E1  -1.499143509941439E2   2.276377571729074E1   1.500850530280820E2  -3.175635388678172E1  -9.458545587847738  -2.198047897323477E1  -8.635438167436234E1  
 1.693250000000000E8    -3.104493711390530E1  -1.561109340572364E2   2.278367946546670E1   1.488782332965472E2  -3.167346679096770E1  -9.671501032177977  -2.149448090751648E1  -8.388003399467526E1  
 1.708000000000000E8    -3.140557973321380E1  -1.627764793365076E2   2.277520302921156E1   1.497418040975971E2  -3.170830559957225E1  -9.203869880933235  -2.141951390602711E1  -9.256512309375816E1  
 1.722750000000000E8    -3.209386221865350E1  -1.637527414631930E2   2.276517147332065E1   1.483408102601890E2  -3.170368559581612E1  -1.159062505929299E1  -2.127180743966069E1  -8.668520775793812E1  
 1.737500000000000E8    -3.158934234311749E1  -1.522357294071850E2   2.275645429356847E1   1.481238048922635E2  -3.172660296249464E1  -1.031885655501807E1  -2.232214395593802E1  -8.471086089007244E1  
 1.752250000000000E8    -3.159570976321706E1  -1.574991285526379E2   2.276949436803530E1   1.497979991493232E2  -3.171203528430583E1  -9.408001893389876  -2.103478617039801E1  -9.228872250081939E1  
 1.767000000000000E8    -3.010312578401912E1  -1.523234953458233E2   2.275729325156038E1   1.484440398471220E2  -3.170428392881930E1  -1.111366685518096E1  -2.117550899971200E1  -8.834823902768260E1  
 1.781750000000000E8    -3.002263446487782E1  -1.606749170376595E2   2.276449293527929E1   1.479279676329434E2  -3.166578722593855E1  -1.101354838289682E1  -2.061999846884978E1  -9.258544246542154E1  
 1.796500000000000E8    -2.983996433489857E1  -1.579144809563377E2   2.275607320555210E1   1.476878170582527E2  -3.166939720957314E1  -1.068818567474994E1  -2.183481664694756E1  -9.270384891278069E1  
 1.811250000000000E8    -3.073434141069263E1  -1.596970083739276E2   2.275245683646562E1   1.474141726956059E2  -3.164322427464403E1  -1.224362643992480E1  -2.063772111591506E1  -8.798360544108773E1  
 1.826000000000000E8    -3.197902258443783E1  -1.606168894914444E2   2.275490439601575E1   1.493560590595314E2  -3.169688109511714E1  -1.071066021254369E1  -2.079213985291099E1  -9.601318461384240E1  
 1.840750000000000E8    -3.205744753813587E1  -1.577461835533202E2   2.272625822329583E1   1.483377228060597E2  -3.171689434281412E1  -1.203455637787152E1  -2.069051672968889E1  -9.156854211118518E1  
 1.855500000000000E8    -3.119645735636492E1  -1.682550569864179E2   2.274859962427835E1   1.474250332139981E2  -3.163511386403565E1  -1.108157295511469E1  -2.026666215704561E1  -9.274064951895619E1  
 1.870250000000000E8    -2.987775813086251E1  -1.585132096901629E2   2.274815689945603E1   1.470636671211335E2  -3.174483202930388E1  -1.109789693092708E1  -2.115045684245394E1  -9.607935571389062E1  
 1.885000000000000E8    -2.932683802938136E1  -1.711962482645381E2   2.275979820215900E1   1.452184462270413E2  -3.165584008463008E1  -1.242762642968841E1  -2.065879635544426E1  -9.560030867730544E1  
 1.899750000000000E8    -2.946242390965322E1  -1.599627328902287E2   2.276503489331037E1   1.454397985762827E2  -3.166074138038301E1  -1.162214851998127E1  -2.050779391878675E1  -9.767143096145361E1  
 1.914500000000000E8    -2.972995958311322E1  -1.542566469558238E2   2.280743319128031E1   1.453889644326617E2  -3.167360896148102E1  -1.227092953439777E1  -2.009402072259123E1  -9.840360582189196E1  
 1.929250000000000E8    -2.924032857251073E1  -1.610458068314108E2   2.275207125161718E1   1.460979103397752E2  -3.169709776285511E1  -1.193554063363045E1  -2.063838051029349E1  -9.895396890646863E1  
 1.944000000000000E8    -3.096585775328586E1  -1.751116006612031E2   2.275901808734949E1   1.448694955103636E2  -3.166025321901811E1  -1.184198366648808E1  -2.036410644400234E1  -9.734558097672746E1  
 1.958750000000000E8    -2.950890696001079E1  -1.633577620978583E2   2.273625873858959E1   1.458087140353827E2  -3.165906192006494E1  -1.363116171275172E1  -2.004813979428000E1  -9.900752532906242E1  
 1.973500000000000E8    -2.940098658866113E1  -1.634978387848506E2   2.275650112399330E1   1.449381284197382E2  -3.162758059750324E1  -1.109328858436759E1  -2.037653322062214E1  -9.562554856882001E1  
 1.988250000000000E8    -2.964835862945012E1  -1.606864824902938E2   2.274638372302840E1   1.445314729536171E2  -3.163022652723117E1  -1.200216118969313E1  -2.033658331644641E1  -1.026308699530196E2  
 2.003000000000000E8    -3.069468609792186E1  -1.571886146982054E2   2.275608144933196E1   1.431443605187937E2  -3.166306236525790E1  -1.178269095377350E1  -2.035502596969191E1  -9.668428115067724E1  
 2.017750000000000E8    -2.921202255511026E1  -1.613016195926959E2   2.276228985606934E1   1.430203066799581E2  -3.176870863539386E1  -1.255337808920806E1  -2.037590792890859E1  -1.020944832102424E2  
 2.032500000000000E8    -3.062271509412685E1  -1.705464456453399E2   2.274361062778960E1   1.439633272774428E2  -3.163401087147628E1  -1.136443993593493E1  -2.025658787416493E1  -1.036384765327214E2  
 2.047250000000000E8    -2.927207450321044E1  -1.594092296864719E2   2.274964833585932E1   1.425629343750607E2  -3.166247056687567E1  -1.274491636050090E1  -2.018430473466040E1  -1.049018447617726E2  
 2.062000000000000E8    -2.951609023229768E1  -1.739173419199975E2   2.275314755631016E1   1.451529092008880E2  -3.168024918522462E1  -1.242491766490683E1  -2.014421021991997E1  -1.049379780493317E2  
 2.076750000000000E8    -2.854542758523916E1  -1.673174472058861E2   2.275055390316573E1   1.416879785575640E2  -3.162348712635767E1  -1.256523859146537E1  -2.012007117348650E1  -1.028754019125436E2  
 2.091500000000000E8    -2.850240936917585E1  -1.611760898242764E2   2.273717179802641E1   1.424296204335860E2  -3.172003294059088E1  -1.286272306654297E1  -1.989487841574531E1  -9.923291264747668E1  
 2.106250000000000E8    -3.016156149454264E1  -1.678204701958707E2   2.273368706375307E1   1.425909503362828E2  -3.165348810963998E1  -1.210464364483741E1  -1.997692995481781E1  -1.077305400633607E2  
 2.121000000000000E8    -3.136167497376856E1  -1.692067108935708E2   2.272387772234597E1   1.435616282161981E2  -3.171364846840794E1  -1.420827894833465E1  -2.053012664409079E1  -1.056285115395968E2  
 2.135750000000000E8    -2.853323350455641E1  -1.661637338897917E2   2.273724887178902E1   1.423205421297235E2  -3.165724378469178E1  -1.419076896070936E1  -2.017005275931473E1  -1.029624576194109E2  
 2.150500000000000E8    -2.725011025922948E1  -1.689097698062317E2   2.272268800419513E1   1.414220579126925E2  -3.155413868285578E1  -1.299404831338362E1  -2.008840017946232E1  -1.040552411588161E2  
 2.165250000000000E8    -2.955575965680568E1  -1.763860445290989E2   2.271571029260666E1   1.418398292338988E2  -3.166005833964587E1  -1.408882729060571E1  -2.004418402861880E1  -1.095555335644692E2  
 2.180000000000000E8    -2.824245426371911E1  -1.769833064131835E2   2.271088321214658E1   1.398802242867639E2  -3.162583938660001E1  -1.242213719476846E1  -1.982246694866701E1  -1.008978861379863E2  
 2.194750000000000E8    -2.978759614886292E1  -1.655987215021258E2   2.268721895715881E1   1.398655974356931E2  -3.171157678543754E1  -1.349831087146206E1  -2.037814086921141E1  -1.052541389838896E2  
 2.209500000000000E8    -2.902105981537623E1  -1.761802804838528E2   2.271396867398787E1   1.408606231294035E2  -3.162458096439307E1  -1.341791359144784E1  -2.032218624678443E1  -1.063030416149111E2  
 2.224250000000000E8    -3.028442967709546E1  -1.774709488882851E2   2.271053822671474E1   1.403347446021732E2  -3.164429995326240E1  -1.319160284156896E1  -2.002327495392632E1  -1.073498494179718E2  
 2.239000000000000E8    -2.987229707737831E1  -1.666570788303194E2   2.270829293730080E1   1.378725131424165E2  -3.162503654562647E1  -1.368140999697801E1  -2.011487461703307E1  -1.090461516987371E2  
 2.253750000000000E8    -2.869270490163260E1  -1.734390500539946E2   2.268682576082421E1   1.376522079150298E2  -3.167210467208079E1  -1.423013885925697E1  -1.963827294615181E1  -1.126026604197132E2  
 2.268500000000000E8    -2.848170220339165E1  -1.664579043454408E2   2.268814425480605E1   1.389266052263040E2  -3.164438656576926E1  -1.494600528280238E1  -2.010673240010630E1  -1.078475876261635E2  
 2.283250000000000E8    -3.025803548699762E1  -1.765396294752816E2   2.266836950027988E1   1.398116319940868E2  -3.169491783449903E1  -1.446137419138367E1  -1.982695259898998E1  -1.103700047956583E2  
 2.298000000000000E8    -2.982270772603870E1  -1.798001919292232E2   2.267588610122166E1   1.379074873326322E2  -3.168634263912920E1  -1.303507019495579E1  -2.001881500069445E1  -1.056405007518331E2  
 2.312750000000000E8    -3.024900099726159E1  -1.681433849173667E2   2.267048888342506E1   1.379773201184500E2  -3.162904611662712E1  -1.334253726998076E1  -1.995477739353119E1  -1.077677911770396E2  
 2.327500000000000E8    -2.973384625128231E1  -1.679701459080321E2   2.266894029205347E1   1.386603162318422E2  -3.158890838979024E1  -1.482704634342981E1  -1.962979958958152E1  -1.086804111220369E2  
 2.342250000000000E8    -2.973167222312028E1  -1.760045420803778E2   2.266094147819556E1   1.388047042070007E2  -3.161122838984082E1  -1.473624115520848E1  -1.975049290251999E1  -1.047295456033497E2  
 2.357000000000000E8    -2.942006517299069E1  -1.666863765947331E2   2.265897515243391E1   1.391935406868231E2  -3.155811234394216E1  -1.528736208045778E1  -1.965612953005856E1  -1.114247967359056E2  
 2.371750000000000E8    -2.970826456133160E1  -1.708915612907833E2   2.264536271492524E1   1.382796298015858E2  -3.162772361304671E1  -1.617087480261059E1  -1.971752265452735E1  -1.078201376501278E2  
 2.386500000000000E8    -2.991766789925160E1  -1.791587236734090E2   2.264893219338187E1   1.363845981827128E2  -3.160122063238407E1  -1.377213205108038E1  -1.985676552789301E1  -1.111448067551343E2  
 2.401250000000000E8    -3.055126928298304E1   1.778417403466911E2   2.265215014584902E1   1.362598579685067E2  -3.166332716960344E1  -1.445483502061757E1  -1.925484612719413E1  -1.115025684477378E2  
 2.416000000000000E8    -3.083068211457482E1   1.743004742862021E2   2.263731758152429E1   1.363714079213489E2  -3.161414120643717E1  -1.530618716526437E1  -1.926047916675620E1  -1.099102883300851E2  
 2.430750000000000E8    -2.995077011421941E1   1.798785794144297E2   2.262862340455579E1   1.359509999829978E2  -3.156646107807122E1  -1.565530319279660E1  -1.958422433773206E1  -1.126338079885849E2  
