#  HZ   S   DB   R     50.0 
! Rohde & Schwarz ZVL6 2Ports - Version 3.32 - 1303.6509k06 SN: 102097
! Date: 2024-06-28 18:26:12
! Data & Calibration Information:
! Trc1:S11(TOSM) Trc3:S21(TOSM) Trc2:S12(TOSM) Trc4:S22(TOSM)
! 
! 
! 
 1.000000000000000E8    -4.861184162466165E1   1.978108183380936E1  -1.506082434632648E1  -5.922669870595626  -1.501690061940441E1  -5.407122752196853  -4.050287665198927E1  -6.091713821069926  
 1.014750000000000E8    -3.896560038795577E1   1.793561004736311E1  -1.508104812074448E1  -5.637225459262537  -1.502536984033971E1  -6.124637273308913  -3.741616420553592E1   1.235625264258318E1  
 1.029500000000000E8    -4.385679784588629E1  -3.572901001345617  -1.505849089573372E1  -6.269125997950547  -1.503946011419022E1  -7.604393080598863  -4.133465850946517E1  -4.689112754881855  
 1.044250000000000E8    -4.018568100159556E1   2.618316570708172E1  -1.507304690124149E1  -6.101254067600509  -1.503385774934336E1  -7.638606018752984  -4.553821390481426E1  -1.873822507854088E1  
 1.059000000000000E8    -4.379271118679720E1   3.973567374123529E1  -1.505488213768227E1  -6.144834769249025  -1.504539369827567E1  -6.214828423157020  -3.924070360939903E1  -1.467942474273574E1  
 1.073750000000000E8    -4.045386473447402E1   1.571470116718466E1  -1.505913759273262E1  -6.843875951881273  -1.506407592396737E1  -6.071474863159240  -3.973827709257592E1  -6.689214119178872E-1  
 1.088500000000000E8    -4.220089592960613E1  -6.182324404005666  -1.505075191465104E1  -6.891969041749231  -1.504166406684909E1  -6.429783175748480  -3.766099247138744E1  -1.196081579753657E1  
 1.103250000000000E8    -3.941818597804728E1  -1.437745192854155E1  -1.507091265477321E1  -6.922450344644028  -1.505104405831491E1  -7.870549576123341  -4.116887822683691E1   2.245845722669186  
 1.118000000000000E8    -4.264246475490068E1  -2.067270410297504E1  -1.505681050426319E1  -7.383594222344114  -1.505636402949374E1  -8.257816725486002  -3.731054353264396E1   1.681388215052041  
 1.132750000000000E8    -3.925009705656222E1   1.040321720214329E1  -1.506659441138373E1  -6.215446185490424  -1.505245238268232E1  -7.473578080899387  -4.106863417079033E1   5.671783361474175  
 1.147500000000000E8    -4.412484753695883E1   3.970494619089099E-1  -1.506482152801939E1  -6.908315753868750  -1.502469036681892E1  -6.715829266269092  -3.944388130289470E1   2.182950481143301E1  
 1.162250000000000E8    -3.802862814666010E1   5.215053487699689E1  -1.506804327291946E1  -7.668365229575833  -1.506424323512796E1  -8.125534435073476  -4.118154965892905E1  -3.579697753767061E1  
 1.177000000000000E8    -3.706540623335002E1   3.262372381737939  -1.505668872910151E1  -7.982934351756617  -1.506323278215515E1  -6.326039463881083  -3.703685671322167E1   2.727899374763637E1  
 1.191750000000000E8    -3.864918375919299E1  -1.777050602846509E1  -1.504194609625815E1  -7.270453278320741  -1.504078213496467E1  -7.379612525312174  -4.072174780118732E1  -2.101745043849580E-1  
 1.206500000000000E8    -3.881797394350115E1   1.625418411502809E1  -1.506068481613255E1  -9.120336678639569  -1.505846483607063E1  -7.345074654737311  -4.006842298740497E1   1.235697987684095E1  
 1.221250000000000E8    -3.948073933113952E1   5.726149525112014  -1.507402727641936E1  -7.818618198956399  -1.505808398745260E1  -8.457834081214916  -4.220309658224100E1   2.760390801835661  
 1.236000000000000E8    -3.968476019472525E1  -6.049721003512745  -1.507188245197051E1  -7.972173164430509  -1.504127693527667E1  -9.060880814626486  -4.599755298808509E1   3.188116641099452E1  
 1.250750000000000E8    -3.990413048695842E1   1.979555297259033E1  -1.505324730547591E1  -8.844864221545702  -1.506560933558503E1  -6.820930074347523  -4.416602523606819E1  -6.105035033350926  
 1.265500000000000E8    -4.113926722517643E1   3.880469574674554E1  -1.504820759251243E1  -7.665632738157218  -1.504381197901000E1  -7.417000201945467  -4.197030510514110E1   2.177450121052041E1  
 1.280250000000000E8    -3.987264597313683E1   3.354514057851142E1  -1.506342616978560E1  -8.226271631054599  -1.504760900999952E1  -8.699526131524019  -3.817848173189145E1   1.954749453044764E1  
 1.295000000000000E8    -4.088882877740733E1   1.845004311826406E1  -1.506879951250828E1  -8.468245310279066  -1.506163169004553E1  -8.162557888087349  -3.952690252051833E1   3.846997173820449E1  
 1.309750000000000E8    -3.833203385146364E1   1.297701757871812E1  -1.507188808227901E1  -7.363512465245535  -1.505615937762237E1  -8.666538772675319  -3.943845186139214E1   2.877615484354397E1  
 1.324500000000000E8    -3.789505953011742E1   7.849581183119930  -1.505397318469638E1  -7.288232265521572  -1.503692139641040E1  -9.335953638567185  -3.901367913253557E1  -1.125283146552447E1  
 1.339250000000000E8    -3.963549164852404E1   1.851600982534299E1  -1.504983383428659E1  -8.803804922267632  -1.506518873405637E1  -8.232149402226618  -4.098300974019491E1   4.276765813511729E1  
 1.354000000000000E8    -3.687257323887275E1   2.365883386508421E1  -1.505177458539159E1  -8.935638452061735  -1.508803180068081E1  -7.156360608474951  -4.264382933116760E1   2.036370905153256E1  
 1.368750000000000E8    -4.068228966691004E1   2.656023048268799E1  -1.505183736432116E1  -7.842891319647075  -1.504815765880274E1  -7.921308175773631  -3.913612506032460E1   6.637457437623351  
 1.383500000000000E8    -4.568002197295379E1   2.193533427801825E1  -1.505618625467263E1  -9.328860233089729  -1.509024944457442E1  -6.883253012149187  -4.214049165931692E1   3.768760912819663E1  
 1.398250000000000E8    -3.974913385248408E1   6.049846999309455  -1.504294270078776E1  -8.770122650606053  -1.503589793855226E1  -8.340997299404727  -4.001894492442881E1  -4.257371687474845  
 1.413000000000000E8    -3.812726099474713E1   4.059416295318583E1  -1.503854169082807E1  -8.407787572817149  -1.508044450185028E1  -8.226566237129847  -4.308939349042807E1   9.964805855247295  
 1.427750000000000E8    -4.298090241274263E1   6.874060139173988  -1.503503414801074E1  -1.064263620650874E1  -1.503253725918315E1  -8.456418197115781  -4.080699396974469E1   1.813508984037552E1  
 1.442500000000000E8    -4.315748146629090E1   1.954816371451243E1  -1.506906638541490E1  -9.242869280575182  -1.506719449939321E1  -1.065184202670281E1  -3.729266953825431E1   1.231018238619186E1  
 1.457250000000000E8    -3.931217004324687E1   4.393338322674652E1  -1.505112925468508E1  -9.505764487123226  -1.505899080531783E1  -1.081785711051659E1  -4.289466250363837E1   2.050188099210630E1  
 1.472000000000000E8    -4.086067234274817E1   1.882534070350416E1  -1.505640304254596E1  -9.980819521356249  -1.504183405251092E1  -9.151440657542326  -4.452630827209075E1   3.429502641498387E1  
 1.486750000000000E8    -4.126179631996016E1   7.578357423875086  -1.504496319474564E1  -1.105567417531947E1  -1.505033293613545E1  -1.021675986469252E1  -3.994072388574514E1   2.341784960228153E1  
 1.501500000000000E8    -4.489928761350616E1   2.751286655670200E1  -1.506319736625004E1  -1.090492446552153E1  -1.504529188536445E1  -9.479010250884430  -4.110030661287652E1   3.171323992058046E1  
 1.516250000000000E8    -4.368771804430702E1   2.007103631249071E1  -1.506580352278051E1  -1.184623368749289E1  -1.507088852282876E1  -9.828135544924551  -3.860349510591372E1   1.302551090035368E1  
 1.531000000000000E8    -4.029954742028725E1   3.067672982107568E1  -1.505007826464412E1  -9.156286601780574  -1.505750572687195E1  -1.010144523873674E1  -4.355073548510887E1   3.076863165020250E1  
 1.545750000000000E8    -4.461502464076767E1   2.052740732132581E1  -1.505306849630337E1  -9.798202885347839  -1.505088635540505E1  -8.761904427319763  -4.720998722070225E1   4.277464969749693E1  
 1.560500000000000E8    -4.510243950642565E1  -6.688759067702204  -1.507032087451153E1  -1.110605340213019E1  -1.506283191767406E1  -9.081443163420197  -4.037165086298237E1   3.851362112434907E1  
 1.575250000000000E8    -4.154696618141134E1   7.210462641288297  -1.506247969081379E1  -8.347506325411128  -1.506498925317061E1  -1.091991361842945E1  -3.806014691686038E1   1.381613261672646E1  
 1.590000000000000E8    -4.068228640191863E1  -1.487904341787499E1  -1.507910274850588E1  -1.004635038234919E1  -1.506632916291272E1  -9.267843816922712  -4.684323178425641E1  -2.239174123632917E1  
 1.604750000000000E8    -4.397852331278247E1  -9.278600842488524  -1.504487089053620E1  -9.573195054267259  -1.506341769794298E1  -1.039649471914872E1  -4.007918302051712E1   2.031226117244883E1  
 1.619500000000000E8    -4.049173699342491E1   2.804989930195132E1  -1.506104296510489E1  -1.153881095404146E1  -1.504954740715985E1  -8.518083514750487  -4.132959992218932E1   1.542241079794937E1  
 1.634250000000000E8    -4.365534453305283E1   3.633154712566714E1  -1.504955102927292E1  -1.076171132455999E1  -1.506561323520232E1  -1.128481343758627E1  -4.315418449243285E1   4.123849074935521E1  
 1.649000000000000E8    -3.984283669856254E1   3.844088452910795E1  -1.506345333161288E1  -1.137103435445789E1  -1.504917310326969E1  -1.101181482830316E1  -4.131698097207661E1   1.294836009617323E1  
 1.663750000000000E8    -4.185878608036928E1  -1.373622356962400E1  -1.505718470008896E1  -9.316161867137661  -1.506186265372763E1  -1.022552666714582E1  -4.521691049238791E1   3.581650965498552E1  
 1.678500000000000E8    -4.385015253833321E1   2.939578460554749E1  -1.503084907103741E1  -1.156499040356984E1  -1.506354925862386E1  -9.657117845064583  -3.968992425697611E1   4.665635204146669E1  
 1.693250000000000E8    -4.272178086754567E1  -6.388299242717526  -1.507816760439312E1  -1.196504392928820E1  -1.505815574313153E1  -9.796455849908577  -3.996579214017704E1   3.083754900365592E1  
 1.708000000000000E8    -4.078938099187933E1   9.109024478878174  -1.505960235268485E1  -1.048788648990485E1  -1.507937160468587E1  -1.069871010999079E1  -3.883510641047519E1   3.571939862985322  
 1.722750000000000E8    -5.075517900816355E1   3.178080011898344E1  -1.507139437674615E1  -1.156076623150154E1  -1.506700051721114E1  -1.095847785240832E1  -4.325680720498571E1   2.138078176953836E1  
 1.737500000000000E8    -4.496802204931514E1   1.735465432071290E1  -1.507492908157897E1  -1.062432857676589E1  -1.506204333539042E1  -1.027558809925220E1  -4.020863911962853E1   1.983850488325649E1  
 1.752250000000000E8    -4.662960377857078E1   6.500025989040714  -1.509453372102575E1  -1.086413805637712E1  -1.507029111659516E1  -1.100730936710476E1  -3.722971605502858E1   4.077062327154291E1  
 1.767000000000000E8    -4.213582346949353E1   2.236996518713150E1  -1.505954056074888E1  -1.061833378150360E1  -1.505001071353896E1  -1.082113671579397E1  -4.081307105546702E1   3.451284806141640E1  
 1.781750000000000E8    -3.893183363227804E1   9.011357868020230  -1.507256153023452E1  -1.193422962117285E1  -1.508583331360555E1  -1.268869124124374E1  -3.906419502171794E1   1.149444009833388E1  
 1.796500000000000E8    -3.997992659653035E1  -1.324589074254550E1  -1.506750799876682E1  -9.595893463697300  -1.508262996925094E1  -1.069463995586316E1  -4.716458018650155E1   4.447436130063000E1  
 1.811250000000000E8    -4.625586564729118E1  -7.746155527227295  -1.504792963260274E1  -1.139761759551153E1  -1.505621044200573E1  -1.131814797840284E1  -4.141360736241931E1   8.165278383160004  
 1.826000000000000E8    -4.267450487048008E1  -2.376940028353999E1  -1.505325341068578E1  -1.160061300594848E1  -1.508343860027232E1  -1.256911430817651E1  -4.091788338113815E1   3.732199746543343E1  
 1.840750000000000E8    -4.611833645373404E1   3.885189872854454E1  -1.506875223410735E1  -1.220003248470927E1  -1.506665114510471E1  -1.243836084016924E1  -4.316417036342979E1   1.786880590471228E1  
 1.855500000000000E8    -4.308993612349832E1  -7.033326434222595  -1.506232114523300E1  -1.264362108825432E1  -1.505940460131287E1  -1.183419388269872E1  -3.809182977333713E1   3.474265478810440E1  
 1.870250000000000E8    -4.029677406480283E1   1.638515019846404E1  -1.506160412031191E1  -1.172603733066886E1  -1.505992127844155E1  -1.231286821023018E1  -4.037980875200829E1   3.133078814964008E1  
 1.885000000000000E8    -4.421694665912379E1  -1.379257440706458E1  -1.507608057318026E1  -1.173569865871755E1  -1.506755774231060E1  -1.435403318712268E1  -5.188758822937393E1  -1.825566688194238  
 1.899750000000000E8    -4.288928934591103E1   9.062248881830026  -1.508030647939476E1  -1.157875745421559E1  -1.508294137019598E1  -1.306756741054199E1  -3.718326854471007E1   2.306328828981030E1  
 1.914500000000000E8    -4.820877435088126E1   3.265528167424377E1  -1.505697853098798E1  -1.308934514863699E1  -1.505652612606082E1  -1.157515371398472E1  -4.130674996790890E1  -2.937368732989613E1  
 1.929250000000000E8    -3.991117730292774E1  -1.153660682513957E1  -1.505768454316874E1  -1.352833932983366E1  -1.507329525009022E1  -1.097097439406298E1  -4.199197828536955E1   1.572916707502536E1  
 1.944000000000000E8    -4.735204551736671E1   9.457271540582590E1  -1.507680684146322E1  -1.259106912309919E1  -1.505767967569209E1  -1.194597025917062E1  -4.140676586490794E1   2.717280936776133E1  
 1.958750000000000E8    -4.331142847716064E1  -1.047775299722519E1  -1.506109578051830E1  -1.117700161125152E1  -1.507329221617587E1  -1.283498644422035E1  -3.843316590784165E1   1.167889843688384E1  
 1.973500000000000E8    -3.763659087009821E1   2.256035609651318E-1  -1.506140917978459E1  -1.107407071423891E1  -1.506446343720526E1  -1.327769831263251E1  -3.938164506225215E1   1.290186931342707E1  
 1.988250000000000E8    -4.357230112695076E1  -2.848349248200819E1  -1.507857009138318E1  -1.266922863158362E1  -1.509896856485530E1  -1.077933363046397E1  -3.998223996114162E1  -2.101320849828521E1  
 2.003000000000000E8    -4.087907387919502E1   1.208573252893304E1  -1.508103925910417E1  -1.238881696423356E1  -1.504304796855038E1  -1.243294007097349E1  -4.027457274714379E1   8.597408529186506  
 2.017750000000000E8    -4.118543056687262E1   3.390859595489249  -1.505989174857023E1  -1.299939083241588E1  -1.508792590940330E1  -1.240184744068963E1  -4.199281658540202E1  -8.389270641596504  
 2.032500000000000E8    -4.001264028165430E1   9.041464954302402  -1.507581540330012E1  -1.302514771773999E1  -1.504681565721355E1  -1.322097973721171E1  -4.275436685259596E1   6.275471417014562  
 2.047250000000000E8    -4.474382075122917E1   7.732398182006897  -1.507667397271846E1  -1.417966846833739E1  -1.504135956225181E1  -1.187514538107896E1  -3.955789277008991E1   1.593021229513616E1  
 2.062000000000000E8    -3.807117317091677E1   1.773368741277087E1  -1.506992087990313E1  -1.231873444050830E1  -1.508635814770604E1  -1.344083597633581E1  -3.950984057725426E1   4.679186466577332  
 2.076750000000000E8    -4.079760903326653E1   4.907647077769853  -1.507645521635397E1  -1.158750739556422E1  -1.508448030049740E1  -1.370977486456903E1  -3.994615643403543E1  -2.563465309703574E1  
 2.091500000000000E8    -4.268539035053121E1   4.646562396564377E-1  -1.507193219596550E1  -1.426072567971125E1  -1.509687412239622E1  -1.437657775858777E1  -4.119133333117237E1   1.444070960355634E1  
 2.106250000000000E8    -4.134901538477318E1   9.292675346814919  -1.505890376637684E1  -1.374903335626975E1  -1.510262719117996E1  -1.277767061350026E1  -4.211447414394403E1  -3.578167742614035E1  
 2.121000000000000E8    -3.940333711454255E1   2.542928480115257  -1.508435559846390E1  -1.365229464994411E1  -1.506750298477083E1  -1.372650929486981E1  -3.693446377092703E1   1.080720105131888  
 2.135750000000000E8    -3.938524325111683E1  -2.304595989614120E1  -1.506273806107709E1  -1.414636159187456E1  -1.505881157247460E1  -1.402368156094533E1  -4.068910916066916E1   9.476686583357296  
 2.150500000000000E8    -3.772895432161339E1   2.651072705851437E1  -1.507572579480073E1  -1.256799566465894E1  -1.505853243874537E1  -1.581758971205400E1  -4.577094609103352E1  -3.514249804684722E1  
 2.165250000000000E8    -3.863046807156942E1   3.394651739983685E1  -1.507886749819818E1  -1.444333052340984E1  -1.506273681737975E1  -1.337539700705312E1  -4.610943275139655E1   2.163319231550133E1  
 2.180000000000000E8    -4.280719739094472E1  -9.760804077932132  -1.506368542329652E1  -1.309280559356970E1  -1.505605407052192E1  -1.451199059550692E1  -4.185572063120576E1   1.128527333345827  
 2.194750000000000E8    -3.781266721459315E1  -3.179084060872575  -1.506505751928288E1  -1.541282085041177E1  -1.507748387462177E1  -1.502024268673408E1  -4.120278437174229E1  -1.348724405267953E1  
 2.209500000000000E8    -3.888267802038794E1  -7.464943871891632  -1.507719100546846E1  -1.472818689633706E1  -1.508056819674001E1  -1.427940508070566E1  -3.826041241508786E1  -1.689240047149793E1  
 2.224250000000000E8    -3.566887278218890E1  -1.194377090914554E1  -1.508985890200331E1  -1.488628180896838E1  -1.505956365515344E1  -1.373430431192258E1  -3.901997009997800E1   2.243957831754490  
 2.239000000000000E8    -4.011743659217828E1  -4.851068261246483  -1.508933582195413E1  -1.446168895028369E1  -1.506870372055200E1  -1.462993792459853E1  -4.124889719470350E1  -7.027476377204582  
 2.253750000000000E8    -3.746239876506147E1  -5.421456821525110  -1.506412820258167E1  -1.520504308431219E1  -1.506519164504482E1  -1.363291613124458E1  -4.183951588835988E1  -1.596030813305866E1  
 2.268500000000000E8    -4.203128680568528E1   1.523976064332032E1  -1.506481085966153E1  -1.398696899967939E1  -1.506236236219077E1  -1.373046887573047E1  -3.963597236739285E1  -1.825408258225661E1  
 2.283250000000000E8    -4.034516454013508E1   1.955464788603688E1  -1.507763672062145E1  -1.546702916606797E1  -1.507055087948923E1  -1.505305389544020E1  -3.927280928473759E1  -1.195850089919818E1  
 2.298000000000000E8    -4.100659594607105E1   2.614777039681653E1  -1.508939325041174E1  -1.583533596244319E1  -1.508311673355940E1  -1.663277997792175E1  -3.873686806856325E1   2.406139758733109E1  
 2.312750000000000E8    -3.506173485528434E1   1.154659650381158E1  -1.506948308197957E1  -1.605350480624114E1  -1.510666800672878E1  -1.594675296074499E1  -4.265283733926520E1  -8.629271399574757  
 2.327500000000000E8    -3.744078013881825E1   1.410321286258822E1  -1.507975051760338E1  -1.364013061853835E1  -1.508580838701150E1  -1.591680535227077E1  -4.380244469832623E1   3.464911364045575E1  
 2.342250000000000E8    -4.231439815940072E1   4.054357832000709E1  -1.508080214318294E1  -1.456309918271600E1  -1.509821573282476E1  -1.617855382281228E1  -4.193092449491913E1   3.071259241911311  
 2.357000000000000E8    -3.824851317958028E1   6.760745522598696  -1.506662045278567E1  -1.461633841624309E1  -1.507160470336844E1  -1.497221612508841E1  -4.284915499105595E1   1.396639986290027E1  
 2.371750000000000E8    -3.781286951711500E1  -8.479785687347025  -1.508238669900043E1  -1.516837963651344E1  -1.509718688290918E1  -1.492581432287277E1  -3.820618815708924E1  -2.533247422154584E1  
 2.386500000000000E8    -3.734760722221897E1   1.082010943822908E1  -1.506666418360661E1  -1.744039993177218E1  -1.507217893616125E1  -1.611359476160906E1  -3.944084230600017E1   1.128959335350398E1  
 2.401250000000000E8    -3.968315978839372E1   1.170954634735877  -1.507440080191248E1  -1.650004120494221E1  -1.508120908577932E1  -1.479067083805678E1  -3.992718133815433E1  -1.020249506248802E1  
 2.416000000000000E8    -3.562665997526869E1   6.246512772757897  -1.507259803282642E1  -1.638870279599827E1  -1.507388884220661E1  -1.423075762702827E1  -3.857136086506981E1  -8.354176325525016  
 2.430750000000000E8    -3.698717413847390E1   1.658681973625812E1  -1.507233723574243E1  -1.442496732827752E1  -1.507694529751418E1  -1.580811213389472E1  -3.938015363766144E1  -2.310850079807945  
 2.445500000000000E8    -3.930117590766557E1   8.040531908794256  -1.507411800108608E1  -1.549311674200548E1  -1.510461474906391E1  -1.425840173998896E1  -3.855226039614791E1   1.057643755138576E1  
