#  HZ   S   DB   R     50.0 
! Rohde & Schwarz ZVL6 2Ports - Version 3.32 - 1303.6509k06 SN: 102097
! Date: 2024-06-28 18:15:12
! Data & Calibration Information:
! Trc1:S11(TOSM) Trc3:S21(TOSM) Trc2:S12(TOSM) Trc4:S22(TOSM)
! 
! 
! 
 1.000000000000000E8    -4.217598177069032E1   1.168016942113379E1  -3.055970943764462  -6.415826135348235  -3.019801087921249  -4.983043281497231  -3.826816274067405E1   3.222134359514365E1  
 1.014750000000000E8    -4.021506560629863E1  -2.560806503953969  -3.026733300878690  -6.998976217447469  -3.037502086013387  -6.657596361668534  -4.035947071112243E1   9.923055874052848  
 1.029500000000000E8    -4.055396826638558E1   1.588305120540082E1  -3.030629758956081  -5.779937350254992  -3.041237337360314  -7.145054373874617  -3.824047146500201E1  -1.458164265513520E1  
 1.044250000000000E8    -4.224060369425387E1   3.666191227788629E1  -3.034023531741648  -6.108025516880391  -3.037245343089771  -7.224108046892551  -4.411665168188445E1   5.684728189862674  
 1.059000000000000E8    -4.237381036572822E1   4.005421128494761E1  -3.031721671058049  -6.653579624331240  -3.025012764145441  -7.107828127223882  -3.864188007855317E1   3.353704998124596E1  
 1.073750000000000E8    -4.125242660806059E1   2.010037460269137E1  -3.038092877936493  -7.225803926936149  -3.048273550431980  -5.756839349485852  -3.907678552398140E1   2.238116356375543E1  
 1.088500000000000E8    -4.400043972097333E1   2.237917904998484E1  -3.042429042781390  -7.517841960539549  -3.027433568933100  -7.873020582217731  -4.088456811334662E1   2.611234390426236  
 1.103250000000000E8    -4.090899970645040E1   1.929058987945092E1  -3.053027105010888  -7.856579661215321  -3.038592867114949  -7.116468761364190  -3.929574257280679E1   3.045726990639182E1  
 1.118000000000000E8    -3.957764043720697E1   1.074792910468374E1  -3.029653504927752  -7.321976418119548  -3.028431195342831  -8.540212038364086  -4.177552628147247E1   1.469992122964118E1  
 1.132750000000000E8    -3.880880943733939E1   4.888208061506312E1  -3.034885348348524  -5.974150258307257  -3.044324515358078  -7.463115197441744  -3.951296028106125E1   7.244349694566146  
 1.147500000000000E8    -4.071486257396543E1  -1.008617346212700E1  -3.042612911645382  -7.779000010694055  -3.035651906281466  -6.220950162356848  -3.807418452590301E1   1.859563850403799E1  
 1.162250000000000E8    -3.858739430687660E1   1.907779713321092E1  -3.029313261439162  -7.036962132990353  -3.048276265380005  -8.311864270991318  -3.921172782783786E1  -1.505094055341821E1  
 1.177000000000000E8    -3.811791601257639E1   3.296757530010675E1  -3.038827128831723  -8.689286548865743  -3.050268283504758  -7.595263676599300  -3.940802991488953E1  -6.834209951962633E-2  
 1.191750000000000E8    -3.835237166727660E1   8.612497856259767  -3.024140409542109  -6.339207912865853  -3.042307508443982  -7.530380390620075  -4.077033749425137E1   3.834374832663696  
 1.206500000000000E8    -3.744105729908355E1   1.262917834034285E1  -3.036982223292615  -7.506455693584210  -3.045352007448962  -8.091342945480394  -3.985351634446423E1  -1.712695235529199E1  
 1.221250000000000E8    -3.952197008151514E1   1.760781645261765E1  -3.060661428178045  -7.392936992068198  -3.043878882049672  -9.234187356971447  -4.332806440393819E1   6.954721916536914  
 1.236000000000000E8    -3.881717768915777E1   8.787894782694592  -3.059536807359202  -6.325231571004091  -3.040849376452382  -8.544192866270102  -4.228379072535735E1  -4.377491748778639E-1  
 1.250750000000000E8    -4.280240729649287E1   4.137606824096551E1  -3.029420408200212  -6.372713479872457  -3.050181396504938  -8.091442534528397  -4.356684988583003E1   1.050410207240816E1  
 1.265500000000000E8    -4.140731217794562E1   4.381872349264161E1  -3.025901923895904  -7.148912204907729  -3.042173442185382  -8.097907574136233  -3.983624258151523E1   3.648495671872609  
 1.280250000000000E8    -3.918229839407113E1   1.478053143087551E1  -3.021232450447488  -9.247469492595657  -3.048969709082861  -8.253019558437378  -3.709134527091531E1   2.089416088768918E1  
 1.295000000000000E8    -4.202042484033905E1   2.661716454081692E1  -3.036081689707257  -8.470077653525269  -3.056534970429893  -7.595587117662026  -4.109145115989484E1   2.197197840510756E1  
 1.309750000000000E8    -3.986098447714746E1   2.898315190637596E1  -3.032227145601564  -8.422482030680527  -3.030780382111074  -8.326577764216488  -4.306444176084112E1   6.250785923264094  
 1.324500000000000E8    -3.765384099098149E1   3.936561686785281  -3.042099523215732  -8.241270040233758  -3.038677105193187  -8.991984777573729  -3.971507379217138E1   1.562276153289420E1  
 1.339250000000000E8    -3.820852122103744E1   2.896668565202821E1  -3.042635148864068  -7.994751803618980  -3.042852544027442  -7.828357327341275  -4.369743261145837E1   2.923794264293068E1  
 1.354000000000000E8    -3.942887086424337E1   3.955191630290054E1  -3.046143003025103  -9.296014414000577  -3.061382970745156  -8.591785703331622  -3.969453818230604E1   2.200506848536173E1  
 1.368750000000000E8    -4.079724137093098E1   1.545090541223878E1  -3.040177475855983  -8.992058531535646  -3.052520798235930  -9.477208575842180  -3.811790720053280E1   6.530394273593051  
 1.383500000000000E8    -4.342176028614958E1   7.479304705250667E1  -3.057829436176487  -7.879236395500761  -3.066049670692226  -9.473575658143012  -4.212084385368492E1   1.915885494584613E1  
 1.398250000000000E8    -4.170907456513416E1   4.222834527833518  -3.037662025900974  -9.124917985801128  -3.034376908752489  -7.516367958226156  -4.189891503810638E1   6.083560378242873E1  
 1.413000000000000E8    -3.986474171295814E1   5.923971180206311E1  -3.039466326655183  -8.320314251272103  -3.075814459458124  -8.933374366186110  -4.367621249487689E1   2.846783684107911E1  
 1.427750000000000E8    -4.194949601651504E1   3.337576098177666  -3.029697371707247  -9.774104771486066  -3.028358071692503  -8.959295461779840  -4.032000721143808E1   3.394386115653256E1  
 1.442500000000000E8    -4.854239387541571E1   1.326591609357780E1  -3.049278722297319  -9.331887561052918  -3.058699459244465  -1.008951870500471E1  -3.888085907994962E1   2.823736355939733E1  
 1.457250000000000E8    -4.342504489112231E1   5.324600997870444E1  -3.053086357476147  -9.708476418164992  -3.033448943554423  -1.094785247899258E1  -4.220614221143414E1   2.125918806420895E1  
 1.472000000000000E8    -4.149370589239797E1   4.137103765620039E1  -3.051451262479069  -1.033463464672559E1  -3.051124168406617  -9.389571724455113  -4.300089002710944E1   3.618259205199630E1  
 1.486750000000000E8    -4.103706226304389E1  -6.932433826311207E-1  -3.040540108637137  -9.094619421723380  -3.047173855665670  -1.035526876863176E1  -3.905748618314165E1   2.390420339949936E1  
 1.501500000000000E8    -4.808971846849980E1   1.839364280665208E1  -3.044917063284144  -1.012886400588376E1  -3.045350247044808  -9.559467653244100  -4.055436721518433E1   3.238933472612327E1  
 1.516250000000000E8    -4.101408881654192E1   2.403836641005382E1  -3.031470333693061  -1.228050090778617E1  -3.050977317504308  -8.849056004646933  -3.976246554021516E1   1.890542976564252E1  
 1.531000000000000E8    -4.190684208072764E1   1.133753039351097E1  -3.028050834720227  -8.954606286734242  -3.047005348201334  -1.027596684074227E1  -4.043373096533050E1   3.383809134691118E1  
 1.545750000000000E8    -4.052664240235728E1   1.011342993009374E1  -3.034328797375379  -1.152998084517956E1  -3.038686780627568  -9.907525313579200  -4.276298151649370E1   3.746553342476378E1  
 1.560500000000000E8    -4.197114337108577E1   2.535597524639399E1  -3.051283436889661  -1.179731485097571E1  -3.048654122132195  -8.582422865658332  -4.419088632326145E1   4.189643918736738E1  
 1.575250000000000E8    -4.078176708695244E1   3.550811637335945E1  -3.053818813541688  -9.230864147473541  -3.046250213837783  -1.124759153934516E1  -3.843480210743861E1   2.804225134624129E1  
 1.590000000000000E8    -4.308452647220432E1   3.429403148898894E1  -3.066635631200581  -1.236611844022524E1  -3.061811440761652  -1.053231362803235E1  -5.088067610417340E1   1.773989702101525E1  
 1.604750000000000E8    -3.984391013963870E1   9.829323224513351  -3.040738903455249  -9.799495258800070  -3.042621264386265  -1.048112096561100E1  -4.079782234685080E1   4.993635079323791E1  
 1.619500000000000E8    -4.549414827861765E1   1.201222372252654E1  -3.054900452114730  -1.087856487751217E1  -3.054483824731692  -8.660442522111248  -4.613656169798939E1   5.781379635655739E1  
 1.634250000000000E8    -4.444535631137929E1   2.248170877197686E1  -3.053679077670222  -1.096405133376022E1  -3.050887654176887  -1.106680704414703E1  -4.344241208375348E1   2.595273294842288E1  
 1.649000000000000E8    -4.224344052694889E1   5.610818164759637E1  -3.052737921749524  -1.185895966293895E1  -3.046664403663052  -1.112976926632719E1  -4.084448840575406E1   1.910361823939899E1  
 1.663750000000000E8    -4.116034521664947E1  -3.828770116608157  -3.043670635082041  -1.058856838241337E1  -3.043422845440176  -1.152101060836740E1  -4.196721177421500E1   1.126363954305758E1  
 1.678500000000000E8    -4.102985520599355E1   3.062026872451471E1  -3.039621625202798  -1.133574253301077E1  -3.052505235769603  -9.373481672569906  -3.971341562454881E1   4.218292333056244E1  
 1.693250000000000E8    -4.851057722070607E1   4.751461493196350  -3.057072714438738  -1.234950773453878E1  -3.057611991191335  -1.255343790625563E1  -3.966077599837783E1   3.560596488265966E1  
 1.708000000000000E8    -4.886254934009688E1   2.354881947961717E1  -3.046882633314842  -1.123486938202527E1  -3.073974355082651  -1.096158933018767E1  -4.012107480563457E1   2.402377056565000E1  
 1.722750000000000E8    -4.775272228986331E1   6.292058321939783  -3.056788300001910  -1.104462532286316E1  -3.060648805951597  -1.059932659565566E1  -4.484256106045373E1   4.770804919300519E1  
 1.737500000000000E8    -5.058588518108832E1   2.986751815070703E1  -3.054781781360037  -1.089510588420527E1  -3.054747221828763  -1.003630999224737E1  -4.189029071870246E1   3.516641340973033E1  
 1.752250000000000E8    -4.443373487815965E1  -2.144245870334961E-1  -3.067841374171135  -1.113964056090964E1  -3.055062344262674  -1.265937477768469E1  -3.717231576443930E1   4.457590669287459E1  
 1.767000000000000E8    -4.078179609204103E1   3.569445989716191E1  -3.039629721531916  -1.099700795061182E1  -3.060138325476697  -1.043476341055656E1  -3.906481324833835E1   4.246030243201094E1  
 1.781750000000000E8    -4.255248066425529E1   4.479866511624803E1  -3.046462546340506  -1.405866866838039E1  -3.044768808266992  -1.312948768304649E1  -3.870000739806465E1   3.156746549200729E1  
 1.796500000000000E8    -4.515537261974637E1   2.001091306309704E1  -3.041918086113360  -1.027256416217457E1  -3.048283140623012  -1.146882088882028E1  -4.040787460007650E1   2.510468818105977E1  
 1.811250000000000E8    -4.290011969016649E1   2.789946406734241E1  -3.042203958262048  -1.195896461928491E1  -3.050934345741162  -1.193847110790966E1  -4.353365238599644E1   4.490440699213565E1  
 1.826000000000000E8    -4.317627737681966E1   1.414092414263033E1  -3.040421946217608  -1.062016543024845E1  -3.051323666237538  -1.132423546617938E1  -3.965210508973635E1   2.464060878046336E1  
 1.840750000000000E8    -3.928452473005935E1   1.521198649434958E1  -3.041378649394818  -1.137776047194642E1  -3.045761714033443  -1.256269212901661E1  -3.969284374805895E1   3.821193428706904E1  
 1.855500000000000E8    -3.933316854445968E1   7.435564854273120  -3.032318206351757  -1.186823050907807E1  -3.049520355463067  -1.134206887245558E1  -3.917231963671681E1   2.245206723646622E1  
 1.870250000000000E8    -4.232442288784118E1   8.683475539801913  -3.035652964740876  -1.252140868203411E1  -3.063930168391273  -1.259443007517199E1  -4.239270859247332E1   4.221802452877668E1  
 1.885000000000000E8    -4.053040161058792E1   2.418036326809498E1  -3.053122626658463  -1.148536067990790E1  -3.056219349021121  -1.529644267193768E1  -4.150319806773727E1   2.481548225615402E1  
 1.899750000000000E8    -4.048038265944107E1   1.739402420884285E1  -3.049274903845150  -1.167167530231977E1  -3.053841948403671  -1.229881990856942E1  -4.445568478107340E1   3.497312161318570E1  
 1.914500000000000E8    -4.088755304085054E1   1.818853430445833E1  -3.055233118318159  -1.247253200555939E1  -3.044742563187755  -1.152612161589670E1  -4.010771630787448E1   2.167076159182640E1  
 1.929250000000000E8    -4.079321113784789E1   1.271015265733699E1  -3.050806568845828  -1.344154147693824E1  -3.043270078564557  -1.256758365041985E1  -3.809658173160997E1   3.306812209960220E1  
 1.944000000000000E8    -4.213798598199755E1   2.626184435936943E1  -3.053174873402638  -1.293234211924747E1  -3.055531677983654  -1.202399402668124E1  -4.169775475467414E1   2.834921908336583E-1  
 1.958750000000000E8    -3.821654734392956E1   4.415974810356391  -3.042422568072809  -1.163088741657737E1  -3.062911351623182  -1.307306973436486E1  -4.099647516262468E1   2.778891803560155E1  
 1.973500000000000E8    -3.816103809745194E1   3.358478646927446E1  -3.042665385861860  -1.339833484667073E1  -3.048146270202887  -1.406632906717556E1  -3.723819888670827E1   1.871225326405637E1  
 1.988250000000000E8    -4.524656154799749E1   2.506729655650895E1  -3.048073219775710  -1.266555379426008E1  -3.073137588187248  -1.248179166205723E1  -4.048121135972733E1   1.430526951286254E1  
 2.003000000000000E8    -4.060458343134391E1  -1.235114117997671E1  -3.050983529443794  -1.411847653655645E1  -3.038919855586802  -1.290039108914235E1  -3.846448339399009E1   2.077764414584904E1  
 2.017750000000000E8    -3.927863092160396E1   1.837443777219091E1  -3.053886638785364  -1.140525350601497E1  -3.064562579246974  -1.355406262503195E1  -4.011425531076397E1   1.516567779641077E1  
 2.032500000000000E8    -4.013665372130662E1   1.746208703275823E1  -3.055575635382820  -1.297542823630615E1  -3.043606448868871  -1.375215464507398E1  -4.056242457278591E1   1.373704618765150E1  
 2.047250000000000E8    -4.066576928123826E1   2.804173279969582  -3.059857299936322  -1.322963083144730E1  -3.034172929851117  -1.353715231536480E1  -4.047106666074782E1   4.074038550233539E1  
 2.062000000000000E8    -3.915536877171125E1   2.432508408765136E1  -3.064201988048519  -1.164921742300965E1  -3.061272287790423  -1.367604749983370E1  -4.002991146010428E1   5.625588599522868  
 2.076750000000000E8    -3.710995260119606E1   1.027413677613753E1  -3.067598403030483  -1.261595564247105E1  -3.081984273671019  -1.451110619459228E1  -4.082082811976229E1  -1.088527318360239  
 2.091500000000000E8    -3.906014767082728E1   1.592484165703896  -3.034874667095266  -1.489129979950423E1  -3.078891360330204  -1.401444754327598E1  -3.978957066896827E1   1.698819416831006E1  
 2.106250000000000E8    -3.861384532453320E1   5.604395824814737  -3.046952492895937  -1.324811051660390E1  -3.088389968507934  -1.233598711175440E1  -3.818318443725900E1  -1.941317230155585E1  
 2.121000000000000E8    -3.526274655491775E1   1.803279406937585E1  -3.052846043371401  -1.380444116854202E1  -3.056271603430716  -1.298289230128079E1  -4.236975789404234E1   1.499164885612028E1  
 2.135750000000000E8    -3.700655165825968E1   3.356720494346169E1  -3.068180608467976  -1.487973607524527E1  -3.059276890507853  -1.340685879328553E1  -3.944518156030777E1   4.326619952238138E1  
 2.150500000000000E8    -4.052047695651407E1   3.202003766121616E1  -3.040616774804413  -1.333360045058408E1  -3.051819934190295  -1.526015422112982E1  -4.251555356771951E1   1.473986047580508E1  
 2.165250000000000E8    -3.886764086459476E1   3.148518151372618E1  -3.070574624997843  -1.483562682176926E1  -3.065175322666994  -1.453959673458387E1  -4.329887667424631E1   2.161399291973846E1  
 2.180000000000000E8    -3.794996557191681E1   2.540680126350450  -3.059940475365933  -1.316013477131968E1  -3.047125501716660  -1.309568521467831E1  -4.202197263887683E1  -1.670834248809191  
 2.194750000000000E8    -3.754613992060817E1   8.715746752642751  -3.062060472292236  -1.544742453335014E1  -3.057609715618207  -1.425280928884211E1  -4.072056021742188E1   1.628819191540913E1  
 2.209500000000000E8    -3.722608294491374E1   1.551505504319242  -3.054438076635363  -1.426864997316836E1  -3.057420569258443  -1.464131779440608E1  -3.901925487304187E1   2.468442597297276  
 2.224250000000000E8    -3.824413170269899E1   1.583888321407324E1  -3.076460475264440  -1.474574421570441E1  -3.047888182394931  -1.425698478381351E1  -3.838730109737472E1   2.294037120398133E1  
 2.239000000000000E8    -3.935788422362184E1   1.333228996461564E1  -3.069177999115464  -1.374252330818954E1  -3.069422236674152  -1.370122191193793E1  -3.844375731853288E1  -9.159146086924299  
 2.253750000000000E8    -4.048649677083017E1   1.598472022453710E1  -3.044776949645112  -1.369699506598087E1  -3.051142347190197  -1.351091268471276E1  -4.354857746216077E1   1.966391743005972E-1  
 2.268500000000000E8    -3.956047036043511E1   1.579602945047540E1  -3.053445836430103  -1.504245966285536E1  -3.052348101966803  -1.493638371309901E1  -4.199120030045475E1  -1.611753768944956E1  
 2.283250000000000E8    -3.819615411792019E1   3.492162685132083E1  -3.075024391446502  -1.449521581490819E1  -3.060784322863129  -1.461485230946776E1  -4.422768503041195E1   2.055774550086725  
 2.298000000000000E8    -4.206245337327449E1   2.996492591335087E1  -3.064508240402917  -1.534897408459709E1  -3.079525632246591  -1.527673305509430E1  -3.854200715222774E1   1.111141105270622E1  
 2.312750000000000E8    -3.711412458802940E1   4.530138568247907  -3.053506709712931  -1.500471882631687E1  -3.068631921680181  -1.507478438904878E1  -4.337420625614701E1   2.455847273535597  
 2.327500000000000E8    -3.594774262383199E1   2.663313652346273E1  -3.049331401263415  -1.419049793076063E1  -3.051122379644365  -1.683846368101651E1  -4.411772051629495E1   1.497649559531773E1  
 2.342250000000000E8    -4.033082984894670E1  -3.605632864884483  -3.060047702499608  -1.590557158005364E1  -3.081548310317535  -1.560056205228615E1  -3.875505772291294E1   1.403009432225213E1  
 2.357000000000000E8    -3.915409296235529E1   2.454121210276468E1  -3.049023141675630  -1.400087900013189E1  -3.057220386376038  -1.506419105414548E1  -3.975692018343403E1   2.050851641558540E-1  
 2.371750000000000E8    -3.706301441049411E1   9.624999718616921  -3.053107344542798  -1.568094322767388E1  -3.075825166592202  -1.449112160634013E1  -4.217950978586783E1  -1.991404881566901E1  
 2.386500000000000E8    -3.916981615565987E1   2.386843913843287E1  -3.057730523009654  -1.583563360348184E1  -3.067063155376677  -1.647314968695825E1  -4.137545556662213E1   1.599080758999397E1  
 2.401250000000000E8    -3.653611841370093E1   1.510055167193542E1  -3.044990164435819  -1.538133359992900E1  -3.091259346601183  -1.467878007604692E1  -4.110670112114473E1  -9.170382738749151  
 2.416000000000000E8    -3.786937958619075E1   1.544685782264153E1  -3.067077128443590  -1.443646101617555E1  -3.062332563789717  -1.539324080340031E1  -4.180154168361549E1   6.185006977491873  
 2.430750000000000E8    -3.578429541567250E1   1.350800257215182E1  -3.070291537880738  -1.620993988155042E1  -3.050913402467368  -1.582415675887838E1  -4.101592563182175E1   6.177521876088513  
 2.445500000000000E8    -3.876152626525666E1   1.781236781189446E1  -3.055468132190623  -1.549446914295833E1  -3.067598432036558  -1.544548754947591E1  -3.793373566541803E1   7.065309521408723  
 2.460250000000000E8    -3.820081292666367E1   1.056971825564003E1  -3.062464528545601  -1.645723371404866E1  -3.050144011718850  -1.607506417002535E1  -4.554870874874793E1   4.488774723426007E1  
 2.475000000000000E8    -3.810142659296398E1   2.344132444056066E1  -3.072930323932384  -1.518680644798469E1  -3.058162295825948  -1.479086937871578E1  -3.799890615521647E1   3.308867934788238E1  
