#  HZ   S   DB   R     50.0 
! Rohde & Schwarz ZVL6 2Ports - Version 3.32 - 1303.6509k06 SN: 102097
! Date: 2024-06-28 18:21:49
! Data & Calibration Information:
! Trc1:S11(TOSM) Trc3:S21(TOSM) Trc2:S12(TOSM) Trc4:S22(TOSM)
! 
! 
! 
 1.000000000000000E8    -4.816386745304910E1  -2.895260505140737E1  -6.056597772985640  -7.618712466089911  -6.015951607826155  -6.151788602650828  -4.602647783877183E1   2.469847864516646  
 1.014750000000000E8    -4.020279402269658E1  -1.110683395117185E1  -6.065983271688283  -6.444651655560366  -6.024815154401924  -6.450835880474219  -4.047970524251326E1   2.333675940330725E1  
 1.029500000000000E8    -4.891220922335571E1   3.112584650795051E1  -6.036401715825911  -5.771153898687117  -6.023770896123008  -6.393482681728344  -4.030819233692316E1  -1.082091052783565E1  
 1.044250000000000E8    -4.390742360308791E1  -1.904597681783636E1  -6.058651153690701  -6.152556602646652  -6.027858991618175  -5.916430439959044  -4.427453430866434E1  -2.442439735380025E1  
 1.059000000000000E8    -4.307605527812280E1   3.370927965134025E1  -6.059348571313064  -6.148020840400329  -6.017578282611264  -7.794727291720593  -5.024028327931518E1  -1.408943945627966E1  
 1.073750000000000E8    -4.388988012140703E1   2.462532131399059E1  -6.052888426894636  -8.016216028034382  -6.021678535788505  -6.888936505208850  -4.196735033205964E1  -9.613054758997768  
 1.088500000000000E8    -4.781081650805342E1  -1.921093802591247E1  -6.046856741464853  -7.019730940194155  -6.008617116952427  -7.477779636118559  -4.763051458531430E1   3.261050729567329  
 1.103250000000000E8    -3.932489382149510E1  -2.506388142720755E1  -6.052211010431070  -7.856771101263613  -6.039536827288697  -6.899579992564392  -4.337441830997916E1   1.211202824801574E1  
 1.118000000000000E8    -4.397910674779347E1  -2.582239673521119E1  -6.033924663527139  -6.902748443593478  -6.025861672782884  -8.487745815394817  -4.116339611125301E1  -2.501826210127074  
 1.132750000000000E8    -3.949408933769939E1  -1.179576545278058E1  -6.048311776146106  -7.500428818090531  -6.036141360160478  -7.621807014411192  -4.168660430124102E1   1.160059172348980E1  
 1.147500000000000E8    -4.403066647312190E1  -1.882291952828461  -6.049088362588390  -8.224063112393639  -6.016059630786904  -7.662993497063431  -4.610004804868571E1   4.582367706950522E1  
 1.162250000000000E8    -4.116087880014420E1   1.982967525104514E1  -6.029992066182748  -6.863235897895283  -6.049086588641361  -9.069089026926008  -4.389146229056988E1  -3.164459294162879E1  
 1.177000000000000E8    -3.955218160062820E1   1.459834755713064  -6.035247377248088  -7.351401752235671  -6.040017838994507  -7.790019332999797  -3.996071855560435E1  -5.056196832686963  
 1.191750000000000E8    -4.172833676756647E1  -4.980584023279026  -6.051660060142340  -6.541863410400860  -6.031909320436078  -7.081903648546775  -4.302567495686657E1   9.974434454149440  
 1.206500000000000E8    -4.140201715610488E1  -1.064099588221460E1  -6.046606029825664  -8.323232761234069  -6.043847182527950  -9.268846049783893  -4.544203298385837E1  -3.038575711403282  
 1.221250000000000E8    -4.209341556731211E1  -1.689665097639890E1  -6.053449807790210  -8.532723037800610  -6.044656271119733  -8.815139207899547  -4.305969585028849E1  -8.744335827064932  
 1.236000000000000E8    -4.266965011062369E1  -4.201474798669857E1  -6.061273473556845  -7.763903077581836  -6.022603208231372  -8.716760423013012  -4.806496232437480E1   3.091904728330966E1  
 1.250750000000000E8    -4.394242866716749E1   2.183664757195177E1  -6.034670646520208  -6.515643975369731  -6.058923813397974  -6.891339049936418  -4.118344228689873E1   1.240125453400252E1  
 1.265500000000000E8    -4.598510483673679E1   1.327580959553342E1  -6.031590135737049  -8.148745269244078  -6.042904032550672  -7.990861875721075  -4.545518876407419E1  -1.387769717739096E1  
 1.280250000000000E8    -4.578261812107424E1   6.752437604540557  -6.040207694801598  -8.623474242667269  -6.048747868311039  -8.331472064373246  -4.273202552070290E1   5.952685279185002  
 1.295000000000000E8    -4.150340206059807E1  -1.046899949612401E1  -6.055942066971597  -8.555908304438480  -6.050296898025923  -7.257861848386615  -4.413743773286620E1   1.890124236111645E1  
 1.309750000000000E8    -4.344788993394215E1  -1.856489722532754E1  -6.032896783969567  -8.403487593019801  -6.050602989454661  -8.128192126584732  -4.069265848130799E1   7.071619038851214E-1  
 1.324500000000000E8    -3.917092486823589E1  -1.090975789555895E1  -6.030770280025211  -7.842326997515518  -6.045607083685644  -9.877062031081470  -3.912805727865000E1  -3.440735805267492  
 1.339250000000000E8    -5.215692500831307E1   3.683604036553547E1  -6.053339546977620  -8.218698833728308  -6.050791023030933  -7.980885135806284  -4.261184114477578E1   5.978329058236621E1  
 1.354000000000000E8    -4.290408563728752E1   1.735150430183214E1  -6.043168779902737  -9.107167919688807  -6.037207963778026  -8.202296728644441  -4.799786190462506E1  -5.155705590012517  
 1.368750000000000E8    -4.055236149401861E1   1.945015345569629E1  -6.032283460548207  -8.443480168785161  -6.032347510903576  -7.498884696997850  -4.240207752042859E1  -2.663341346739827E1  
 1.383500000000000E8    -4.586160633269255E1   3.067660029719260E1  -6.043883495979208  -8.610381889691066  -6.052480091957088  -7.688875954157468  -4.379900778857001E1   3.106272162636424E1  
 1.398250000000000E8    -4.702421784775626E1  -9.362905825439468  -6.045520213739899  -9.218069302184578  -6.032259125184818  -8.216968848701646  -4.689674760719647E1   3.352967519478013E1  
 1.413000000000000E8    -4.168806514467750E1   2.560042221972875E1  -6.044683144769894  -9.142695235771472  -6.050053579910898  -8.640581926682293  -4.322046138021700E1  -1.790358788797661E1  
 1.427750000000000E8    -4.375927389680430E1  -1.201133795365650E1  -6.016219442152669  -1.068410864907976E1  -6.017878109041257  -9.125729273168124  -4.519140589300891E1   1.055192828171845E1  
 1.442500000000000E8    -5.052475022272100E1  -1.981772516007357E1  -6.053024235662322  -8.617350251787206  -6.055634910540255  -9.515728706847893  -3.936956300040218E1   4.808238600296701E1  
 1.457250000000000E8    -4.021601425558350E1   3.654071977855679E1  -6.040218139515023  -9.806825487351592  -6.044842147326610  -9.619019322223403  -4.905920853985829E1   7.653280817683100E1  
 1.472000000000000E8    -4.401372582671498E1  -8.625250273940197E-1  -6.041331795273902  -1.049809007120745E1  -6.034147486460433  -8.189091227664241  -4.256292315537154E1   8.148432494738542E1  
 1.486750000000000E8    -5.007054877825683E1  -7.862413995915730  -6.050052283146254  -9.817974851716448  -6.032109682480773  -1.088588348508100E1  -4.084494029082637E1   1.477042948665092E1  
 1.501500000000000E8    -4.898923357950199E1  -5.490144432228627E1  -6.054989989928169  -1.117530806909882E1  -6.034440243575896  -9.397251981752726  -4.568927815788238E1   3.182435850300368E1  
 1.516250000000000E8    -4.590230249974180E1   3.522909996379421E1  -6.035514975202337  -1.095518321998423E1  -6.043230341784709  -9.154381391859205  -4.254659115807741E1  -1.184492433868507E1  
 1.531000000000000E8    -4.815880537095150E1   5.465470279867072  -6.042744657721974  -8.936969929722338  -6.042770328018458  -9.656614566300345  -4.655910583753492E1   9.174390908903588E1  
 1.545750000000000E8    -4.515207624562673E1  -1.584801116412044E1  -6.037581744563335  -1.039991825274194E1  -6.027752835626277  -1.051880631930152E1  -4.247986781345560E1  -4.725275553813725  
 1.560500000000000E8    -4.819563809025193E1   1.335311064287873E1  -6.047823831608861  -1.328338860185515E1  -6.046280730538001  -9.451821357691214  -4.323269672761409E1   1.353685722514588  
 1.575250000000000E8    -4.276284774146712E1   1.976098154931218E1  -6.054215575075716  -1.158023273824246E1  -6.042216204552065  -1.041553250988256E1  -3.951941289750184E1   1.819094806209624E1  
 1.590000000000000E8    -4.921717541019594E1  -3.119289412153884  -6.045464003286986  -8.988219208177153  -6.041638234460213  -9.648058644880720  -4.805781115883482E1  -8.834345939648886  
 1.604750000000000E8    -5.294324221112510E1  -4.444081582480061  -6.036669124353107  -1.030570990934765E1  -6.028588455488047  -1.105465458385640E1  -4.415905837201517E1   3.653456477656948E1  
 1.619500000000000E8    -5.489230086516691E1   5.675340878385475  -6.056765939826728  -1.173276852106660E1  -6.054038261430966  -9.649223614391950  -4.390983927209160E1  -1.101146785657301  
 1.634250000000000E8    -4.629244801931211E1   2.512026501465012E1  -6.037943467178334  -9.828048217678072  -6.048473896952793  -1.104826075482337E1  -4.331314477230624E1   3.051027235945001E1  
 1.649000000000000E8    -4.708812740710712E1  -2.015277606057412E1  -6.039898556258117  -1.060804643633649E1  -6.034117103168791  -1.072596655995768E1  -5.010616342310511E1   2.928358275481343E1  
 1.663750000000000E8    -4.596849349327358E1   2.393672122380262  -6.050729307245153  -1.032494774638364E1  -6.050766466346039  -1.021641456063965E1  -4.683531152945061E1   6.129942147643241E1  
 1.678500000000000E8    -4.770092765404131E1   2.861271518442272E1  -6.032078226449545  -1.218848966760665E1  -6.030847072325924  -9.058276133195742  -4.848148240735337E1   1.407006788934253E1  
 1.693250000000000E8    -5.348015576141552E1  -7.570587934468082  -6.047077877535714  -1.344980819836637E1  -6.034713873812920  -9.767362954338900  -4.266857751787388E1   1.548423785747539E1  
 1.708000000000000E8    -4.601029626308662E1  -2.275258865849083E1  -6.046840765906209  -1.137752818840705E1  -6.060197766010778  -1.057474535323422E1  -4.496051977705896E1   7.360158665972298E1  
 1.722750000000000E8    -5.024613917425305E1  -2.087375118077613E1  -6.063290474852064  -1.215174577099221E1  -6.029531889946943  -9.986605149951913  -4.553000617186360E1   4.868057558544334E1  
 1.737500000000000E8    -4.635456859217554E1  -2.917718784327639E1  -6.052646849321092  -9.913458106415776  -6.056929611884561  -1.017507472543093E1  -4.062536846596709E1   6.266160073488878E1  
 1.752250000000000E8    -4.655634666352378E1   1.900657957537473E1  -6.055161848688570  -1.129640511511224E1  -6.047833445025911  -1.125644987922348E1  -4.159467034021325E1   2.935109619145551E1  
 1.767000000000000E8    -4.554464761488735E1   4.764830263486778E1  -6.046016608992971  -1.049718178126429E1  -6.042546144834394  -1.095090422239263E1  -3.797623246047156E1   4.673811946123593E1  
 1.781750000000000E8    -4.506179815985691E1   6.105045873023460  -6.054309485131145  -1.216616611925823E1  -6.041320129258758  -1.239862421355172E1  -4.047037729968525E1   3.467705514016834E1  
 1.796500000000000E8    -4.482008437240116E1  -2.815652155693916E1  -6.044480447706307  -9.194032826761935  -6.071310152426955  -1.067627726177665E1  -5.770512323881719E1  -3.238105798284330E1  
 1.811250000000000E8    -4.591509344831381E1  -3.233698018878584E1  -6.043751310217801  -1.247350006956494E1  -6.043785760746681  -1.088115732791376E1  -5.006038533604766E1   9.643474816716255  
 1.826000000000000E8    -5.704484317414683E1  -7.800491305024109E1  -6.047638632358487  -1.217838908927908E1  -6.040669299288885  -1.142395035649574E1  -4.234919151014321E1   2.321378092862253E1  
 1.840750000000000E8    -5.151062109626273E1  -1.016007413409399E1  -6.030137599175812  -1.179153266250522E1  -6.051269320073997  -1.318938825479230E1  -4.814581285080991E1   2.536932837371414E1  
 1.855500000000000E8    -4.211514365992765E1  -4.541656779907648  -6.042821909788111  -1.350355741144857E1  -6.039168187181389  -1.262378667736836E1  -4.190775665357551E1   4.767109572910116E1  
 1.870250000000000E8    -4.088582629387941E1  -1.837236161219784E1  -6.036804011212012  -1.089219245150763E1  -6.029017465163437  -1.228524030692064E1  -4.339245158134027E1   4.406199085886561E1  
 1.885000000000000E8    -4.778392113695224E1  -3.234541399830322E1  -6.056479205373851  -1.220227146590106E1  -6.058210745956997  -1.322593049125308E1  -4.687780093630382E1  -7.163833590357724E1  
 1.899750000000000E8    -5.030948868436697E1   1.559120721326956E1  -6.062760482500792  -1.195918098947650E1  -6.059964751950792  -1.343846656772892E1  -4.189928207482636E1   3.092727280711851E1  
 1.914500000000000E8    -4.164538556081366E1  -4.252717252887324E1  -6.056282578886103  -1.230502967477358E1  -6.052246691844947  -1.174178970120455E1  -4.767363631370813E1   2.306207624792477E1  
 1.929250000000000E8    -4.171019727758912E1  -5.017161904569264  -6.033135185752725  -1.323115822225342E1  -6.053133084590759  -1.161193932667310E1  -4.584183809133001E1  -3.725233603844353  
 1.944000000000000E8    -4.684378853277677E1   2.230336397969940E1  -6.054780145231467  -1.197313221847553E1  -6.044006686377332  -1.249616501098556E1  -4.063406146997173E1  -8.207492380578012  
 1.958750000000000E8    -4.288584715812610E1  -4.341022640880388E1  -6.039500216822427  -1.167812642108361E1  -6.060115187455633  -1.278410152583834E1  -4.480207625191613E1  -3.196019728575944E1  
 1.973500000000000E8    -4.608113612258985E1  -2.064378520829532E1  -6.049968183601362  -1.267056785001113E1  -6.052132216894838  -1.396436089610937E1  -4.026320018133301E1   1.380112379916784E1  
 1.988250000000000E8    -4.517427549755115E1  -1.930495641864655E1  -6.053545360701034  -1.244642573300317E1  -6.063983076879637  -1.190128639701909E1  -4.135127165741082E1  -2.869356176514395E1  
 2.003000000000000E8    -4.145786692598123E1   7.421989482456941E-1  -6.058570060944742  -1.282136140223127E1  -6.030143976741677  -1.324694862343068E1  -4.225673363815791E1  -3.618338688539667E-1  
 2.017750000000000E8    -4.657223306234365E1   3.396409797708680  -6.037163336782960  -1.294057439434061E1  -6.049869572751570  -1.193931109467074E1  -4.633867946612021E1  -8.515939894507888  
 2.032500000000000E8    -3.998486535524276E1   7.296826612711182  -6.061432525848796  -1.223970793553989E1  -6.039085441219473  -1.352180464778048E1  -4.226198816545188E1  -2.709386730287642E1  
 2.047250000000000E8    -4.497440025256336E1  -2.681403314153109E1  -6.049203340317951  -1.437197824284073E1  -6.039097191052833  -1.366434854640766E1  -4.244899770593963E1   1.519211227982383E1  
 2.062000000000000E8    -4.003129983327518E1   2.094367792874206E1  -6.049989776212863  -1.105889005368920E1  -6.061491311488896  -1.401694652187718E1  -4.061916773701560E1   6.029132882672455  
 2.076750000000000E8    -4.104046907254837E1   1.436441275700981E1  -6.054596788727155  -1.321045922430414E1  -6.058515895479937  -1.400743361942279E1  -4.309913875754383E1   3.685802915783503  
 2.091500000000000E8    -4.528214986506612E1  -4.824467904882233E1  -6.037468158653518  -1.393011577536485E1  -6.055895799070954  -1.337149801255634E1  -4.347361599928561E1   3.042482300361393E1  
 2.106250000000000E8    -4.238070734259962E1  -5.054639760533775  -6.037149663536015  -1.359364779658037E1  -6.068254154924463  -1.373461170242267E1  -4.500850672671705E1  -1.548259263020499E1  
 2.121000000000000E8    -4.026325594255548E1   3.069508476103540E1  -6.043723906576266  -1.331540522814480E1  -6.035617439183930  -1.397745328603051E1  -4.667042248196876E1   1.160820077139801E1  
 2.135750000000000E8    -4.180010416802647E1   1.140927325919610E1  -6.058203662768767  -1.350108228057925E1  -6.045915385434632  -1.294811027457662E1  -4.279725427668731E1  -7.007632213862995  
 2.150500000000000E8    -4.634136674332656E1   3.058461564271421  -6.037189602024857  -1.458004484908050E1  -6.038849037073951  -1.473304960810036E1  -5.137395058837777E1   7.106196103773302  
 2.165250000000000E8    -4.040082961259216E1  -1.814553164159721  -6.052677275980787  -1.489802737479406E1  -6.052692176213216  -1.256774251551212E1  -4.912605912558217E1   4.509231452231860E1  
 2.180000000000000E8    -4.295504053778171E1   1.615352780437535  -6.047671804953010  -1.290762701937900E1  -6.040266929361843  -1.449028683501736E1  -4.192404789773033E1  -1.561810728204941E1  
 2.194750000000000E8    -3.994763747966377E1  -4.997177802628664  -6.050160061303243  -1.540495607380521E1  -6.047498263967827  -1.421118007674278E1  -4.185946642658769E1   1.435889189341393E1  
 2.209500000000000E8    -3.786850027450494E1  -6.545695460707425  -6.061954623433581  -1.333272496941255E1  -6.064210266794379  -1.453484920858671E1  -4.125278269673915E1  -3.182279343468020E1  
 2.224250000000000E8    -3.810916285538144E1  -1.793392851389843E1  -6.078300439089154  -1.445048515702784E1  -6.043200465654407  -1.484572002103761E1  -4.217088894778540E1   1.056408666912074E1  
 2.239000000000000E8    -4.208313958177842E1   3.578310159700892E-1  -6.054629764037711  -1.347840761197864E1  -6.056182216337291  -1.451404073341287E1  -4.546070563691102E1  -4.612611698847194E1  
 2.253750000000000E8    -3.784822395748666E1  -5.221488232721850  -6.056757778654360  -1.418542597786417E1  -6.042514980822252  -1.367453886626088E1  -5.369274889274242E1   7.434286552915686  
 2.268500000000000E8    -3.964102269381266E1   6.570783236056280  -6.052810688250871  -1.387562159626611E1  -6.038448970640503  -1.485141688747945E1  -4.248223734472079E1  -6.064323276676225E1  
 2.283250000000000E8    -4.159001438570185E1   1.920849300583919E1  -6.070605221997411  -1.351711979598849E1  -6.051870357887691  -1.445368016820897E1  -4.764061886055685E1  -2.296512405593464E1  
 2.298000000000000E8    -3.960368577007753E1  -1.576939508936941E1  -6.054119887325994  -1.633417041088928E1  -6.064539903253911  -1.538917411703859E1  -3.848643164594360E1  -6.849283234534926  
 2.312750000000000E8    -3.995217447771411E1   1.063283220262311E1  -6.055917068576695  -1.491119701997677E1  -6.075402080990656  -1.628993357810822E1  -4.355937052596994E1  -1.713943375617647E1  
 2.327500000000000E8    -4.020388694857805E1   7.639017631635205  -6.053822241716470  -1.513040155389803E1  -6.045383068272874  -1.499453724706992E1  -4.604599896803169E1   2.668903554707891E1  
 2.342250000000000E8    -4.580045345820378E1  -1.179588075814061E1  -6.052885826280629  -1.609900585630686E1  -6.064833540896043  -1.532682704802291E1  -4.681556073784329E1   7.993135839581537  
 2.357000000000000E8    -3.745296493603001E1  -1.644198405892955E1  -6.050350035125437  -1.465851672745844E1  -6.042631170383725  -1.624386954457758E1  -4.640692281318960E1  -4.318314498051365E1  
 2.371750000000000E8    -3.711713693095335E1  -3.022839472944808E1  -6.053544130175393  -1.530501646605672E1  -6.057514721926666  -1.482001511236057E1  -4.263712623000386E1  -2.460934100963264E1  
 2.386500000000000E8    -4.404046083614463E1   2.179804702790465E1  -6.069548577222369  -1.673019725785807E1  -6.060655083534762  -1.723601867756735E1  -4.168517577485500E1   4.623684376351481E1  
 2.401250000000000E8    -4.109688172392963E1  -2.022068774087355E1  -6.041206348005382  -1.684345937234493E1  -6.066507611445225  -1.515060422723441E1  -3.865062137339144E1  -2.561764955558343E1  
 2.416000000000000E8    -3.771857547704538E1  -5.335744075981398  -6.052562025164346  -1.567212767503131E1  -6.045519212557232  -1.472144969897717E1  -4.730662803457217E1  -4.790309102749395  
 2.430750000000000E8    -4.478475464185607E1   3.245233817419869E1  -6.070674743939334  -1.412025298812588E1  -6.055862862503751  -1.561290703869118E1  -4.017588196496594E1   1.229416866438128E1  
 2.445500000000000E8    -3.997856010519622E1   6.793425614107042  -6.067646715533782  -1.652829600694971E1  -6.075531475918690  -1.554482650349882E1  -3.884670882614611E1   2.301236047684674E1  
 2.460250000000000E8    -3.879600637597554E1   2.281027242041305E1  -6.055656265983587  -1.741107313061736E1  -6.053603560320955  -1.625984564892886E1  -4.537914885949662E1   1.494488569384222E1  
 2.475000000000000E8    -4.258617954569959E1  -3.249025478453518E1  -6.060392964749726  -1.508508661208631E1  -6.034500142973640  -1.526625089490858E1  -4.350854926749551E1   1.818084915400456  
