#  HZ   S   DB   R     50.0 
! Rohde & Schwarz ZVL6 2Ports - Version 3.32 - 1303.6509k06 SN: 102097
! Date: 2024-06-28 18:24:34
! Data & Calibration Information:
! Trc1:S11(TOSM) Trc3:S21(TOSM) Trc2:S12(TOSM) Trc4:S22(TOSM)
! 
! 
! 
 1.000000000000000E8     1.226742026690254E-1  -1.001037353458393E2  -2.722108284369626E1  -8.734457179453894  -2.747092329491226E1  -5.907246462970601  -2.686534695336133E-1  -9.587039369009132E1  
 1.014750000000000E8     6.880317057589273E-2  -9.930917347475658E1  -2.725333082713316E1  -8.872115271643988  -2.740933814912811E1  -7.746350736326314  -9.530279566108406E-2  -9.736524262038952E1  
 1.029500000000000E8    -2.849435580805181E-2  -9.973939403376943E1  -2.738179467012906E1  -8.521196711786525  -2.729773769233553E1  -9.994441785788723   7.645172254461108E-2  -9.900880324956484E1  
 1.044250000000000E8    -2.633925152669376E-1  -9.867433417021438E1  -2.754914461095050E1  -8.833672796356462  -2.731393544510597E1  -9.512917289749954   2.869296811824776E-2  -9.922405415619606E1  
 1.059000000000000E8    -2.465905306722379E-1  -1.034529529106090E2  -2.761243596941174E1  -1.117352214506478E1  -2.734395862880920E1  -1.158265701419840E1  -4.310997424911259E-2  -9.973787329795070E1  
 1.073750000000000E8    -9.111838404587394E-2  -1.031736069777985E2  -2.744812813699725E1  -1.271063956795591E1  -2.736373768108229E1  -1.297240368640458E1  -7.191315056397821E-3  -1.043288508264919E2  
 1.088500000000000E8     1.028137228007890E-1  -1.040839369619641E2  -2.730958767187897E1  -1.336200031174608E1  -2.753444925301246E1  -1.394136336234281E1  -1.416325602740505E-1  -1.021346302598489E2  
 1.103250000000000E8    -1.804089448578871E-1  -1.034507493110737E2  -2.760140435431367E1  -1.515475875330595E1  -2.758955260975801E1  -1.282213528619866E1  -1.937067959382106E-1  -1.020386805229799E2  
 1.118000000000000E8    -6.893406286328627E-2  -1.056202971918235E2  -2.754753446039699E1  -1.424092481745889E1  -2.752019633029984E1  -1.487955402764967E1  -1.513503963258681E-1  -1.044305679181908E2  
 1.132750000000000E8    -5.502758735866997E-2  -1.052598900931112E2  -2.744726596968836E1  -1.520551031875784E1  -2.768653800613876E1  -1.517603703089988E1  -1.635419580296276E-1  -1.048360587634773E2  
 1.147500000000000E8    -1.137152791916124E-1  -1.064691250267679E2  -2.762546348614042E1  -1.667454881214623E1  -2.775178775426432E1  -1.559533767343939E1  -2.436274995852285E-1  -1.052113033057707E2  
 1.162250000000000E8    -1.456139084573733E-1  -1.055677394524850E2  -2.765516519378596E1  -1.577010665254220E1  -2.760516190611105E1  -1.859096168490801E1  -1.324631719459795E-2  -1.079333927911817E2  
 1.177000000000000E8    -4.004383285090734E-2  -1.068594554213604E2  -2.754895111051733E1  -1.790699183206039E1  -2.754484075830993E1  -1.730757608130515E1   1.530256302262788E-2  -1.072698487581658E2  
 1.191750000000000E8     2.829120265476080E-2  -1.044999457165668E2  -2.752331738947034E1  -1.540536890614743E1  -2.777753695925812E1  -1.867936803637256E1  -1.690342180201343E-1  -1.082782758227733E2  
 1.206500000000000E8    -3.047272561461847E-2  -1.109280083266193E2  -2.761350939638735E1  -2.048883518522984E1  -2.772034937004541E1  -1.969538365042148E1  -5.214402202568978E-2  -1.085313750397457E2  
 1.221250000000000E8    -1.488181759757538E-1  -1.090458633471001E2  -2.783507362343264E1  -1.909259743660428E1  -2.775241989683942E1  -2.075903817648385E1  -1.811142751794668E-2  -1.103906992400401E2  
 1.236000000000000E8    -7.273548895106198E-2  -1.124925988305810E2  -2.773256491508599E1  -2.106762383912565E1  -2.781147433550315E1  -2.102948794839024E1  -1.047328360634357E-1  -1.094388942198547E2  
 1.250750000000000E8    -3.831427666545943E-3  -1.140477712573748E2  -2.772336778937222E1  -2.212693018504270E1  -2.759967516480757E1  -2.185480671542941E1   8.401608824205427E-2  -1.125708743290182E2  
 1.265500000000000E8    -2.956943025342341E-2  -1.154673806928037E2  -2.767589622200584E1  -2.490926916395099E1  -2.793589613050461E1  -2.283484567026252E1  -1.799516069875449E-1  -1.116609808910073E2  
 1.280250000000000E8    -2.604694260714288E-1  -1.154732358023587E2  -2.801835146985103E1  -2.369798609164715E1  -2.788975228229295E1  -2.341793690013884E1  -1.000348340106324E-1  -1.130971709087483E2  
 1.295000000000000E8    -2.521577994961237E-1  -1.121033236424161E2  -2.809703883525660E1  -2.242034463773598E1  -2.780081362372541E1  -2.336543945358620E1   1.078396644997924E-2  -1.134196773641972E2  
 1.309750000000000E8    -1.440770958850424E-1  -1.148349521612190E2  -2.800056854351639E1  -2.433037020947679E1  -2.799941256352115E1  -2.381633898379501E1  -1.850609200502208E-1  -1.127252149816744E2  
 1.324500000000000E8    -1.588569820489461E-1  -1.155456562732343E2  -2.804692028622338E1  -2.391262157602181E1  -2.801510032776922E1  -2.534677577944499E1  -9.978489205501137E-2  -1.133766464499970E2  
 1.339250000000000E8    -2.015095705692101E-1  -1.159537235709098E2  -2.813649642038315E1  -2.420151958347536E1  -2.805263306719991E1  -2.652320966131224E1  -1.058884588045938E-1  -1.170720921942482E2  
 1.354000000000000E8    -1.913578225982121E-1  -1.177936556978557E2  -2.816746074135168E1  -2.716746361675877E1  -2.807014837483054E1  -2.733311318789749E1  -5.383458939903477E-2  -1.177094115303472E2  
 1.368750000000000E8    -2.716080703818249E-1  -1.191542008429255E2  -2.829461911310663E1  -2.725501990503141E1  -2.815413576425244E1  -2.688286325550541E1  -1.676763054070884E-1  -1.180332244035279E2  
 1.383500000000000E8    -4.972017648918752E-2  -1.204226387671889E2  -2.805495620626898E1  -2.907405506083036E1  -2.808712351393358E1  -2.810556438836457E1   1.376600512126306E-2  -1.175744446335649E2  
 1.398250000000000E8    -1.075501810252360E-1  -1.213072893349781E2  -2.824525210791131E1  -3.005024835797494E1  -2.833340661178655E1  -2.817809541682487E1  -1.259978424933855E-1  -1.180425831392025E2  
 1.413000000000000E8    -1.071828491994979E-1  -1.190875998018451E2  -2.829561750758105E1  -2.952546107708774E1  -2.807858359577806E1  -2.964658344217961E1   9.423713837554680E-2  -1.192220459611308E2  
 1.427750000000000E8    -2.400931431526923E-3  -1.203086315541229E2  -2.819460156149511E1  -2.990955928573606E1  -2.834507394599785E1  -2.938006453416120E1  -2.024428977090446E-1  -1.197986607533867E2  
 1.442500000000000E8    -3.359216592428893E-2  -1.210607878217017E2  -2.825722043516729E1  -3.127857630388631E1  -2.820521352454973E1  -3.089875692709632E1  -4.872235845241364E-2  -1.197101956275130E2  
 1.457250000000000E8    -2.686071383078888E-1  -1.244738301723610E2  -2.849417182830256E1  -3.212266009849890E1  -2.834142070557034E1  -3.370638441151709E1  -3.895931039149154E-2  -1.202905241582432E2  
 1.472000000000000E8    -1.111608103217677E-1  -1.211357148768971E2  -2.842088264790975E1  -3.188823032844225E1  -2.853761861309051E1  -3.177576585904905E1  -1.879927820794640E-1  -1.238475899649926E2  
 1.486750000000000E8    -2.175001906264482E-1  -1.236661235761218E2  -2.863655897546614E1  -3.235702993302005E1  -2.853447131278361E1  -3.399034557763687E1  -1.772891866610047E-1  -1.237379447379099E2  
 1.501500000000000E8    -1.041156289846835E-2  -1.245214734574121E2  -2.840238715493376E1  -3.390334910253629E1  -2.849615591562028E1  -3.333198766218077E1  -1.186944760099120E-1  -1.227853956584795E2  
 1.516250000000000E8     2.321811297980112E-2  -1.259058495728412E2  -2.839749402585395E1  -3.513214999386241E1  -2.854970402659513E1  -3.355658418296832E1  -5.481644815748971E-2  -1.238924054287765E2  
 1.531000000000000E8    -5.608293120534733E-2  -1.273899346550603E2  -2.855104501707032E1  -3.489951645407903E1  -2.875397548698029E1  -3.518876012703932E1  -2.040343110584541E-1  -1.224807655388996E2  
 1.545750000000000E8    -1.871147416449668E-2  -1.280875140274901E2  -2.856296667331394E1  -3.614556862588522E1  -2.870821377479788E1  -3.559760160570187E1  -1.144877234926737E-1  -1.271901512185396E2  
 1.560500000000000E8    -1.884152505572968E-2  -1.279179246798430E2  -2.863838492460901E1  -3.645016968461629E1  -2.877969736712428E1  -3.471223973384841E1  -1.435950240732314E-1  -1.249174916494927E2  
 1.575250000000000E8     8.705299376606744E-2  -1.264225093158699E2  -2.856786931054973E1  -3.571679287657196E1  -2.865912057339594E1  -3.525020365505059E1  -6.532117075254154E-2  -1.229559548368946E2  
 1.590000000000000E8     1.738524306465797E-2  -1.270082579098137E2  -2.868801904185397E1  -3.621187062369607E1  -2.869934333208510E1  -3.634023324620923E1  -2.720161391454664E-2  -1.267482371758255E2  
 1.604750000000000E8     4.448451206980866E-2  -1.275757539906796E2  -2.873219413804368E1  -3.613751544868342E1  -2.890279510471067E1  -3.616034500143906E1  -2.699389603366445E-1  -1.236067020023557E2  
 1.619500000000000E8    -1.373856351145901E-1  -1.281451466123721E2  -2.894235179739227E1  -3.901539627141279E1  -2.891526728391269E1  -3.590310378061698E1  -9.230894507466239E-2  -1.275388274544161E2  
 1.634250000000000E8    -9.098597668230965E-2  -1.305125661811101E2  -2.893331826240080E1  -3.873573529788411E1  -2.897483460473940E1  -3.871345852101821E1  -1.789258671153065E-1  -1.283128108826469E2  
 1.649000000000000E8    -6.821851773194824E-2  -1.314876709710320E2  -2.900250001799819E1  -3.962035551277599E1  -2.885235098729777E1  -3.939926214443940E1   5.624354858152810E-4  -1.267874780020058E2  
 1.663750000000000E8    -1.314387319008225E-1  -1.313687479465838E2  -2.907756619335389E1  -3.854053165089785E1  -2.907832506951587E1  -3.913623997929288E1  -4.365953791600505E-2  -1.271343566505723E2  
 1.678500000000000E8    -9.069287805054500E-2  -1.323009662596295E2  -2.905086025643396E1  -4.149774534125977E1  -2.902604186660653E1  -3.857267273533228E1  -7.266415655909643E-2  -1.293471066428713E2  
 1.693250000000000E8     1.223424528230326E-2  -1.323619096330318E2  -2.909482032137535E1  -4.122066741663064E1  -2.901088531468085E1  -4.131794499603655E1  -4.211853806446145E-2  -1.318643530927108E2  
 1.708000000000000E8     1.173291708167253E-1  -1.331174425636608E2  -2.902006982838642E1  -4.133867682108770E1  -2.900536728199160E1  -4.065680081161374E1   8.387338050988169E-2  -1.301503347641853E2  
 1.722750000000000E8     1.177911282982897E-1  -1.338257626698954E2  -2.911940857621478E1  -4.251297477558715E1  -2.928422470809392E1  -4.070401103053279E1  -5.392171555129340E-2  -1.290696246207044E2  
 1.737500000000000E8    -6.755704565983169E-2  -1.333217318741351E2  -2.926282683764768E1  -4.076166812878945E1  -2.920847573846938E1  -4.097476317133197E1  -6.226891073140814E-2  -1.318501544842075E2  
 1.752250000000000E8    -4.138015614847459E-2  -1.340990164941170E2  -2.928999252759683E1  -4.263539644673037E1  -2.929451148691777E1  -4.239772430300992E1  -1.420352198762423E-1  -1.311839569137190E2  
 1.767000000000000E8     1.653855831655275E-2  -1.348971254422838E2  -2.932601509517579E1  -4.266261100651190E1  -2.939368421677511E1  -4.158745324970105E1  -1.023496487608039E-1  -1.339653949201496E2  
 1.781750000000000E8    -1.017723364654911E-1  -1.351095322408194E2  -2.939803144475024E1  -4.388492494612552E1  -2.946447468531552E1  -4.469415560969639E1  -1.050597141968895E-1  -1.328091418262291E2  
 1.796500000000000E8    -1.777894486720928E-1  -1.362258776121299E2  -2.959434381855955E1  -4.121590403913206E1  -2.946979703228602E1  -4.270915642746884E1  -9.860017080536394E-2  -1.332842435422372E2  
 1.811250000000000E8    -3.810932059897300E-2  -1.361674656974567E2  -2.947654606059419E1  -4.469866949884795E1  -2.949574000305827E1  -4.522732983320618E1  -4.296709522810636E-2  -1.337861840815267E2  
 1.826000000000000E8    -2.517120585626523E-2  -1.365498674227487E2  -2.954416164014578E1  -4.360134561608970E1  -2.967119337454004E1  -4.537797415663375E1  -1.648466672758446E-1  -1.344899390699650E2  
 1.840750000000000E8    -9.505652279902918E-2  -1.380178662525583E2  -2.969894392545520E1  -4.515574039642467E1  -2.960210830977184E1  -4.544548976023003E1  -7.393489391296858E-2  -1.352678403813270E2  
 1.855500000000000E8    -6.077565818319728E-2  -1.365301936680387E2  -2.963394982504881E1  -4.633116982398350E1  -2.961835517561021E1  -4.605288480773905E1  -2.531991678240727E-2  -1.348481355805837E2  
 1.870250000000000E8     2.895656443437092E-2  -1.389147862698999E2  -2.963874061998215E1  -4.662894746367220E1  -2.959049563715749E1  -4.733797190948131E1   6.435906549565185E-2  -1.369397989232190E2  
 1.885000000000000E8     2.540018532514763E-2  -1.401965366609278E2  -2.975469993843032E1  -4.783477379103073E1  -2.967025638396016E1  -4.962776131695885E1   4.933565714999581E-2  -1.368892561155322E2  
 1.899750000000000E8    -1.428672362934674E-1  -1.402258938563078E2  -2.991369906189087E1  -4.698481195142806E1  -2.986443136481496E1  -4.774825453754481E1  -1.274507068424214E-1  -1.346307333418839E2  
 1.914500000000000E8    -2.636381981288646E-1  -1.372619327598241E2  -3.008769535675828E1  -4.767179069421979E1  -2.988060225177437E1  -4.620945171795518E1  -8.434293841679924E-3  -1.354463293367224E2  
 1.929250000000000E8    -6.341224113067138E-3  -1.401902741213552E2  -2.986095181272668E1  -5.013010959150775E1  -3.013467727231068E1  -4.695762706428425E1  -1.876629239564620E-1  -1.351979519128519E2  
 1.944000000000000E8    -3.025160644145288E-2  -1.423074460575617E2  -2.996642098802371E1  -4.996252014388617E1  -3.006692549869860E1  -4.929279032273641E1  -8.607192605019887E-2  -1.384101161741589E2  
 1.958750000000000E8     5.795223653697776E-2  -1.432651436317912E2  -3.000556776203041E1  -4.965926147544775E1  -2.995172351099609E1  -5.040109145129973E1   3.519586696978811E-2  -1.387419691287744E2  
 1.973500000000000E8     6.716663242656455E-3  -1.431466066655090E2  -3.002825590140385E1  -4.995954925597731E1  -3.006036283103378E1  -4.998010752475454E1  -2.300578297549134E-2  -1.366374370596405E2  
 1.988250000000000E8    -1.462412833618493E-1  -1.402850829472068E2  -3.023078420092322E1  -4.925200145775838E1  -3.027624403784050E1  -4.948605078621855E1  -1.258589781171492E-1  -1.382122297830309E2  
 2.003000000000000E8    -6.477391561408349E-2  -1.438123347655619E2  -3.020768369713166E1  -5.162576479950836E1  -3.018851965100951E1  -5.217114440124822E1  -2.014739816138015E-2  -1.389971066082764E2  
 2.017750000000000E8    -1.041330033577170E-1  -1.429085481457558E2  -3.032145343111244E1  -5.026911770369674E1  -3.037229672103451E1  -5.007263839869995E1  -1.032492332225801E-1  -1.400345510750855E2  
 2.032500000000000E8    -7.894023241431804E-2  -1.415968284936586E2  -3.029525443946682E1  -4.977898355776768E1  -3.029440581750757E1  -5.213950864730190E1   4.095025501818469E-2  -1.393111993039926E2  
 2.047250000000000E8    -6.746733571555594E-2  -1.434118632986793E2  -3.043634762352946E1  -5.158091484814339E1  -3.033817632628248E1  -5.079425343344634E1  -6.150507855797666E-2  -1.414990797320220E2  
 2.062000000000000E8    -1.298950400981081E-1  -1.434248331559262E2  -3.051327869040163E1  -5.234163005023098E1  -3.039179756560464E1  -5.172646963828709E1  -1.215456446849325E-1  -1.409888723660357E2  
 2.076750000000000E8    -8.875822565042930E-2  -1.440795494414548E2  -3.058612383884218E1  -5.243367625391622E1  -3.066953207012048E1  -5.206674729870303E1  -2.077335774340332E-1  -1.394706262765147E2  
 2.091500000000000E8    -1.142692402132301E-2  -1.462051897773914E2  -3.053367439762203E1  -5.411542808389796E1  -3.053622591197027E1  -5.426244493367916E1  -4.930296875240756E-3  -1.428722674936111E2  
 2.106250000000000E8    -5.350799742546517E-2  -1.467110187108564E2  -3.061288841616247E1  -5.390536239425244E1  -3.077245176029255E1  -5.283013570702078E1  -1.777941074913146E-1  -1.407837644708347E2  
 2.121000000000000E8    -1.702664221627941E-1  -1.422133308654808E2  -3.077653513531831E1  -5.172198672406775E1  -3.079413069338557E1  -5.302192602260822E1  -1.606450675179935E-1  -1.420452118521301E2  
 2.135750000000000E8    -7.250253657641495E-2  -1.465517442948166E2  -3.071648085865092E1  -5.475442700764042E1  -3.088414655967641E1  -5.289888151262954E1  -2.069195430882459E-1  -1.416839728313701E2  
 2.150500000000000E8    -1.118332053934895E-1  -1.474645659153293E2  -3.087693646921664E1  -5.366115074297470E1  -3.078419800561226E1  -5.650297996474730E1  -3.251884936302782E-2  -1.429372439772517E2  
 2.165250000000000E8    -1.530437144095961E-1  -1.466031829390012E2  -3.091711759532832E1  -5.584784966224204E1  -3.084343959108241E1  -5.399376687349675E1  -5.070374306672825E-2  -1.447812414457804E2  
 2.180000000000000E8    -8.338346177450279E-2  -1.513530687186600E2  -3.090437045158669E1  -5.662159576364528E1  -3.089392791592446E1  -5.470110784865803E1  -1.540557262824698E-1  -1.436241531259310E2  
 2.194750000000000E8    -2.136997054678037E-1  -1.493433255524874E2  -3.109762071045170E1  -5.703780695923620E1  -3.105761898000459E1  -5.608186617117055E1  -1.267700650930336E-1  -1.441573962584471E2  
 2.209500000000000E8    -1.499397727423415E-1  -1.486928835892566E2  -3.108318648516857E1  -5.655989733067368E1  -3.098861931038814E1  -5.647628773827437E1  -6.156404340899383E-2  -1.446211720825151E2  
 2.224250000000000E8    -1.496572177940422E-1  -1.480800695111532E2  -3.116912417132529E1  -5.636911359084893E1  -3.125334673584547E1  -5.625629273613151E1  -2.150706708802195E-1  -1.453952507873580E2  
 2.239000000000000E8    -1.237702904061392E-1  -1.503072104619081E2  -3.121928269319353E1  -5.702719579071626E1  -3.117920789307543E1  -5.725174039879291E1  -5.578850006610451E-2  -1.467893719506274E2  
 2.253750000000000E8    -3.045030369466359E-2  -1.480493565558958E2  -3.113468661680065E1  -5.533458235795439E1  -3.137015496782307E1  -5.528211708443334E1  -2.116611846961831E-1  -1.453547675807507E2  
 2.268500000000000E8    -1.806981510027520E-1  -1.510488005770334E2  -3.126150398889454E1  -5.783597276927688E1  -3.134137445938538E1  -5.885640474984736E1  -9.569431230552659E-2  -1.451227051845453E2  
 2.283250000000000E8    -1.496155229334828E-1  -1.502281675669733E2  -3.133124086211587E1  -5.796121215243924E1  -3.138934715121374E1  -5.733315329527652E1  -1.285998705836969E-1  -1.465278056148452E2  
 2.298000000000000E8    -1.587657862761676E-1  -1.518244122081570E2  -3.154217857802255E1  -5.972299784094746E1  -3.146297111336242E1  -5.938228758216957E1  -7.708086747368022E-2  -1.479306675892933E2  
 2.312750000000000E8    -1.732286292541885E-1  -1.508353306209095E2  -3.150835874949974E1  -5.835117544041677E1  -3.144006218443710E1  -6.073216342050403E1   9.468493027274948E-3  -1.493304419091802E2  
 2.327500000000000E8    -1.119237976808568E-1  -1.514506003102107E2  -3.151814017203467E1  -5.839475052624272E1  -3.158991095534477E1  -5.952321809037190E1  -1.285761001659220E-1  -1.477812889447849E2  
 2.342250000000000E8    -5.743438358933274E-2  -1.513362261800689E2  -3.162960703058558E1  -6.046760072402070E1  -3.159862393408575E1  -6.320471602016523E1  -5.358050853831206E-2  -1.520102821176945E2  
 2.357000000000000E8    -1.535805340997116E-1  -1.527078803970437E2  -3.164952758173955E1  -5.914265225085009E1  -3.176970446719113E1  -6.005182789522584E1  -1.656507927911312E-1  -1.472420069539829E2  
 2.371750000000000E8    -7.066326873174800E-2  -1.543850575768562E2  -3.159459900014802E1  -6.088425458516298E1  -3.168230342518184E1  -6.110739732640295E1  -4.440685868065365E-2  -1.512392766742701E2  
 2.386500000000000E8    -1.375833359304888E-1  -1.531626162463538E2  -3.181326846986634E1  -6.126963086766126E1  -3.177653753946329E1  -6.072289436882194E1  -1.592857668727914E-1  -1.487947655985623E2  
 2.401250000000000E8    -6.510452481390823E-2  -1.550827077592414E2  -3.175737176362378E1  -6.106454382853253E1  -3.185438335232566E1  -5.969621857431038E1  -7.561830840211642E-2  -1.491424745121907E2  
 2.416000000000000E8    -1.625328000901012E-1  -1.529704819112539E2  -3.184375455256340E1  -6.045081612425987E1  -3.187788382279716E1  -6.035707079508735E1  -1.187183448887186E-1  -1.498884122983769E2  
