# HZ S DB R 50
1.000000e+08 -4.684508e+01 1.955141e+00
1.014750e+08 -4.748398e+01 -4.194098e+01
1.029500e+08 -5.281763e+01 3.288065e+01
1.044250e+08 -4.191176e+01 3.651543e+01
1.059000e+08 -6.147769e+01 -9.043958e+01
1.073750e+08 -3.983864e+01 -3.284039e-01
1.088500e+08 -4.726975e+01 -2.884052e+01
1.103250e+08 -4.146573e+01 -2.725376e+00
1.118000e+08 -4.791969e+01 -5.321133e+01
1.132750e+08 -4.390349e+01 5.906531e-01
1.147500e+08 -5.326012e+01 -3.645578e+01
1.162250e+08 -4.216665e+01 -5.614579e-01
1.177000e+08 -4.236430e+01 -1.906566e+01
1.191750e+08 -4.005274e+01 -2.391413e+01
1.206500e+08 -4.216490e+01 -6.439823e+01
1.221250e+08 -4.195478e+01 -4.731187e+00
1.236000e+08 -4.575271e+01 -2.886580e+01
1.250750e+08 -4.827680e+01 -7.980756e+00
1.265500e+08 -4.145217e+01 2.811444e+01
1.280250e+08 -3.999309e+01 1.294434e+01
1.295000e+08 -4.575768e+01 4.297286e+00
1.309750e+08 -5.442824e+01 3.632941e+01
1.324500e+08 -4.638070e+01 -4.654348e+00
1.339250e+08 -4.347843e+01 1.290116e+01
1.354000e+08 -4.019632e+01 2.698772e+01
1.368750e+08 -4.168807e+01 -1.854530e+00
1.383500e+08 -4.327924e+01 9.968612e+00
1.398250e+08 -5.296570e+01 3.091797e+01
1.413000e+08 -4.272934e+01 4.451335e+01
1.427750e+08 -4.375154e+01 -1.591730e+01
1.442500e+08 -4.833441e+01 -1.988934e+01
1.457250e+08 -3.922575e+01 1.545122e+01
1.472000e+08 -4.684919e+01 3.505082e+01
1.486750e+08 -5.678531e+01 -6.363065e+00
1.501500e+08 -5.023566e+01 -1.412254e-01
1.516250e+08 -4.566439e+01 -1.488048e+01
1.531000e+08 -4.516571e+01 -1.828207e+01
1.545750e+08 -4.654550e+01 -1.177702e+01
1.560500e+08 -5.594534e+01 1.130059e+01
1.575250e+08 -6.187929e+01 2.530988e+00
1.590000e+08 -4.199227e+01 -1.196595e+01
1.604750e+08 -4.838684e+01 -7.351333e+01
1.619500e+08 -4.441013e+01 -4.785771e+00
1.634250e+08 -4.578198e+01 -1.350120e+01
1.649000e+08 -4.303547e+01 6.362654e+01
1.663750e+08 -4.935194e+01 -5.104626e+01
1.678500e+08 -4.987397e+01 -3.916292e+01
1.693250e+08 -4.679127e+01 -3.295707e+01
1.708000e+08 -4.510249e+01 -1.143120e+01
1.722750e+08 -6.161292e+01 -5.854864e+01
1.737500e+08 -4.232379e+01 -5.642497e+01
1.752250e+08 -4.812089e+01 6.575463e+00
1.767000e+08 -4.324061e+01 2.318539e+00
1.781750e+08 -4.151162e+01 -1.773157e+01
1.796500e+08 -5.151676e+01 -6.333822e+01
1.811250e+08 -4.467173e+01 -3.820620e+01
1.826000e+08 -4.441820e+01 -4.921527e+01
1.840750e+08 -4.667555e+01 -1.650463e+01
1.855500e+08 -5.467306e+01 -4.308185e+01
1.870250e+08 -3.977739e+01 -7.667510e+00
1.885000e+08 -4.511014e+01 -3.683913e+01
1.899750e+08 -4.472902e+01 -1.231459e+00
1.914500e+08 -4.260913e+01 -3.744517e+01
1.929250e+08 -4.334544e+01 -3.694298e+01
1.944000e+08 -4.951738e+01 -4.507096e+01
1.958750e+08 -4.300788e+01 -5.794963e+01
1.973500e+08 -4.295312e+01 -3.973176e+01
1.988250e+08 -4.585346e+01 -4.958109e+01
2.003000e+08 -4.286491e+01 -7.145372e+00
2.017750e+08 -4.337744e+01 -2.296298e+01
2.032500e+08 -4.080023e+01 -1.609444e+01
2.047250e+08 -3.999793e+01 -2.208524e+01
2.062000e+08 -4.228600e+01 -5.491052e+00
2.076750e+08 -4.270923e+01 -3.865260e+01
2.091500e+08 -4.553783e+01 -4.458368e+01
2.106250e+08 -4.512128e+01 -2.989659e+01
2.121000e+08 -4.200598e+01 -1.519542e+01
2.135750e+08 -4.214841e+01 -4.101005e+01
2.150500e+08 -4.758713e+01 -2.744733e+01
2.165250e+08 -4.312018e+01 -1.549831e+01
2.180000e+08 -4.121561e+01 -3.309066e+01
2.194750e+08 -4.297475e+01 -4.092165e+01
2.209500e+08 -3.972982e+01 -5.227105e+01
2.224250e+08 -4.196257e+01 -1.272304e+01
2.239000e+08 -4.315480e+01 2.655735e+00
2.253750e+08 -4.022318e+01 -2.579643e+01
2.268500e+08 -4.197192e+01 8.651184e+00
2.283250e+08 -4.250072e+01 6.141491e+00
2.298000e+08 -4.276683e+01 6.184933e-01
2.312750e+08 -3.877105e+01 -5.447511e+00
2.327500e+08 -4.267942e+01 -7.570906e+00
2.342250e+08 -4.378540e+01 -3.529724e+01
2.357000e+08 -4.334780e+01 -3.404745e+01
2.371750e+08 -4.140829e+01 -1.692193e+01
2.386500e+08 -4.159216e+01 -3.684792e+01
2.401250e+08 -4.507863e+01 -2.563080e+01
2.416000e+08 -4.143249e+01 -2.854032e+00
2.430750e+08 -4.612713e+01 -1.201370e+01
2.445500e+08 -4.238146e+01 -4.035326e+00
2.460250e+08 -4.283613e+01 -1.095186e+01
2.475000e+08 -4.078049e+01 -2.705412e+01
2.489750e+08 -3.982114e+01 -3.222012e+00
2.504500e+08 -4.791236e+01 2.655286e+00
2.519250e+08 -4.058584e+01 -2.486063e+01
2.534000e+08 -4.427680e+01 -5.078149e+00
2.548750e+08 -4.439237e+01 -2.826410e+01
2.563500e+08 -4.473297e+01 -5.456983e+01
2.578250e+08 -4.424027e+01 -2.149853e+01
2.593000e+08 -4.295235e+01 -2.362851e+01
2.607750e+08 -3.748998e+01 -1.892136e+01
2.622500e+08 -4.676285e+01 -1.973535e+00
2.637250e+08 -5.391759e+01 4.470236e+01
2.652000e+08 -4.212997e+01 -5.617966e+01
2.666750e+08 -4.337217e+01 -4.762327e+01
2.681500e+08 -4.523227e+01 -2.401304e+01
2.696250e+08 -3.979863e+01 -8.583603e+00
2.711000e+08 -4.153656e+01 -2.940618e+01
2.725750e+08 -4.449193e+01 -9.426022e+00
2.740500e+08 -4.258560e+01 -2.940846e+01
2.755250e+08 -4.669109e+01 1.883326e+01
2.770000e+08 -4.143511e+01 -2.172656e+01
2.784750e+08 -4.305140e+01 -4.508935e+01
2.799500e+08 -4.467787e+01 -2.690908e+01
2.814250e+08 -4.485932e+01 -3.750653e+01
2.829000e+08 -4.359160e+01 1.646999e+01
2.843750e+08 -6.049124e+01 -2.459271e+01
2.858500e+08 -4.506030e+01 -3.362356e+01
2.873250e+08 -3.976887e+01 -2.785677e+01
2.888000e+08 -4.052331e+01 -1.707524e+01
2.902750e+08 -4.137469e+01 -3.068663e+01
2.917500e+08 -4.542827e+01 -1.658006e+00
2.932250e+08 -4.091468e+01 -3.655961e+01
2.947000e+08 -4.389713e+01 3.255803e+00
2.961750e+08 -4.016365e+01 -2.629080e+01
2.976500e+08 -3.832505e+01 -3.056507e+01
2.991250e+08 -4.288787e+01 -6.020881e+00
3.006000e+08 -3.800077e+01 -3.881440e+00
3.020750e+08 -4.024470e+01 -1.268369e+01
3.035500e+08 -4.427135e+01 -2.898471e+01
3.050250e+08 -5.309050e+01 -4.379942e+01
3.065000e+08 -3.918384e+01 -1.894385e+01
3.079750e+08 -4.294547e+01 -1.599699e+01
3.094500e+08 -4.287728e+01 -1.111988e+01
3.109250e+08 -6.255803e+01 1.069609e+02
3.124000e+08 -4.205294e+01 1.611649e+00
3.138750e+08 -4.446268e+01 6.330187e+00
3.153500e+08 -3.920170e+01 -2.776865e+00
3.168250e+08 -4.589969e+01 -5.250028e-01
3.183000e+08 -4.338655e+01 -4.796323e+01
3.197750e+08 -4.024106e+01 -2.062615e+01
3.212500e+08 -4.389709e+01 -1.734973e+01
3.227250e+08 -4.309043e+01 -1.125909e+01
3.242000e+08 -4.168016e+01 -1.175473e+01
3.256750e+08 -4.163303e+01 1.423107e+01
3.271500e+08 -3.847283e+01 1.141515e+01
3.286250e+08 -4.135559e+01 4.365580e-01
3.301000e+08 -4.090257e+01 1.478047e+01
3.315750e+08 -4.054517e+01 -1.504776e+01
3.330500e+08 -3.962878e+01 -1.419763e+01
3.345250e+08 -4.595310e+01 -1.692363e+01
3.360000e+08 -4.084048e+01 -3.829393e+01
3.374750e+08 -3.972881e+01 -4.788891e+00
3.389500e+08 -4.621901e+01 -2.096215e+01
3.404250e+08 -4.126110e+01 -4.285635e+00
3.419000e+08 -4.297276e+01 -1.509598e+01
3.433750e+08 -4.038252e+01 -2.680418e+01
3.448500e+08 -4.172924e+01 -4.514144e+00
3.463250e+08 -3.821157e+01 -1.806376e+01
3.478000e+08 -5.179352e+01 -2.930829e+01
3.492750e+08 -4.058325e+01 -1.639975e+01
3.507500e+08 -4.214813e+01 -1.244717e+01
3.522250e+08 -4.158928e+01 -1.683686e+01
3.537000e+08 -4.257781e+01 9.633627e-01
3.551750e+08 -4.533060e+01 1.635597e+01
3.566500e+08 -4.423000e+01 -2.151656e+01
3.581250e+08 -4.174091e+01 -1.593329e+01
3.596000e+08 -3.829073e+01 -3.107206e+01
3.610750e+08 -4.251691e+01 -1.016276e+01
3.625500e+08 -4.162105e+01 -1.859111e+01
3.640250e+08 -5.065378e+01 -4.591519e+01
3.655000e+08 -4.266801e+01 2.041506e+01
3.669750e+08 -4.335920e+01 1.879271e+01
3.684500e+08 -4.254930e+01 -1.902721e+01
3.699250e+08 -4.348066e+01 3.012508e+01
3.714000e+08 -4.621806e+01 -3.807374e+01
3.728750e+08 -4.256735e+01 1.073989e+00
3.743500e+08 -4.061631e+01 -6.485937e+00
3.758250e+08 -4.772510e+01 -4.464034e+01
3.773000e+08 -4.439220e+01 -3.290502e+01
3.787750e+08 -4.588770e+01 -2.614258e+01
3.802500e+08 -4.075289e+01 -1.222336e+01
3.817250e+08 -3.740953e+01 -2.471001e+00
3.832000e+08 -4.139533e+01 -3.784762e+01
3.846750e+08 -4.076787e+01 -3.151715e+01
3.861500e+08 -4.688860e+01 4.894109e-01
3.876250e+08 -4.142959e+01 -5.511160e+00
3.891000e+08 -4.293776e+01 -3.475971e+01
3.905750e+08 -4.679276e+01 -4.121698e+01
3.920500e+08 -3.864547e+01 -1.352345e+01
3.935250e+08 -5.052655e+01 4.177835e+00
3.950000e+08 -4.111894e+01 -6.009322e+00
3.964750e+08 -4.110582e+01 1.612833e+01
3.979500e+08 -4.097987e+01 -7.437753e+00
3.994250e+08 -4.422572e+01 -3.333594e+01
4.009000e+08 -4.139056e+01 -7.650875e+00
4.023750e+08 -4.557193e+01 -4.239349e+01
4.038500e+08 -4.297653e+01 1.940880e+00
4.053250e+08 -4.378461e+01 1.465218e+01
4.068000e+08 -4.682923e+01 -7.234515e+00
4.082750e+08 -4.095813e+01 -1.725924e+01
4.097500e+08 -4.449781e+01 1.040164e+01
4.112250e+08 -4.420698e+01 -1.052407e+01
4.127000e+08 -4.390822e+01 -3.463110e+01
4.141750e+08 -4.972221e+01 -9.249400e+01
4.156500e+08 -4.148770e+01 -3.781914e+01
4.171250e+08 -4.362667e+01 2.965562e+01
4.186000e+08 -5.270590e+01 -1.377397e+02
4.200750e+08 -4.032572e+01 -3.096799e+01
4.215500e+08 -4.606352e+01 4.408085e+01
4.230250e+08 -4.450912e+01 -2.393787e+01
4.245000e+08 -4.622581e+01 1.981390e+01
4.259750e+08 -4.883915e+01 1.083814e+01
4.274500e+08 -3.930920e+01 -7.200638e+00
4.289250e+08 -4.489943e+01 5.837458e+00
4.304000e+08 -4.591976e+01 -8.451086e+00
4.318750e+08 -4.525997e+01 -4.707791e+01
4.333500e+08 -4.030558e+01 -4.131939e+00
4.348250e+08 -4.356819e+01 -8.796605e+00
4.363000e+08 -4.407808e+01 1.719410e+01
4.377750e+08 -4.311596e+01 3.816987e+00
4.392500e+08 -4.552663e+01 -4.642131e+00
4.407250e+08 -4.993401e+01 -2.134781e+01
4.422000e+08 -4.698244e+01 -1.540413e+01
4.436750e+08 -4.802077e+01 -1.229918e+01
4.451500e+08 -4.213645e+01 -3.657033e+01
4.466250e+08 -4.197904e+01 2.955809e-01
4.481000e+08 -4.397135e+01 3.952070e+01
4.495750e+08 -4.550555e+01 -3.287833e+01
4.510500e+08 -4.198152e+01 -1.209539e+01
4.525250e+08 -4.459988e+01 -4.126124e+01
4.540000e+08 -4.400088e+01 2.582542e+01
4.554750e+08 -4.138738e+01 -2.333993e+01
4.569500e+08 -4.194870e+01 -4.230558e+01
4.584250e+08 -4.234601e+01 -6.969158e+01
4.599000e+08 -4.333450e+01 -2.498963e+01
4.613750e+08 -4.041642e+01 -4.125995e+01
4.628500e+08 -4.926696e+01 -4.184366e+01
4.643250e+08 -4.265225e+01 -2.676719e+01
4.658000e+08 -4.468611e+01 -1.113585e+01
4.672750e+08 -4.594809e+01 -1.099559e+01
4.687500e+08 -3.948580e+01 -3.858927e+01
4.702250e+08 -4.125740e+01 -1.805528e+01
4.717000e+08 -4.327233e+01 -3.594451e+01
4.731750e+08 -4.488230e+01 -9.897924e+00
4.746500e+08 -4.461836e+01 -4.452995e+00
4.761250e+08 -4.747755e+01 -4.237939e+01
4.776000e+08 -4.214822e+01 -3.375774e+01
4.790750e+08 -4.003435e+01 -2.109880e+01
4.805500e+08 -4.110387e+01 -4.961398e+01
4.820250e+08 -4.554791e+01 -3.245688e+01
4.835000e+08 -3.992242e+01 -1.102333e+01
4.849750e+08 -4.943852e+01 -2.916946e+01
4.864500e+08 -4.638711e+01 -1.657577e+01
4.879250e+08 -4.324419e+01 -6.945254e+01
4.894000e+08 -4.284039e+01 -4.734648e+01
4.908750e+08 -4.448232e+01 -2.465412e+01
4.923500e+08 -4.243009e+01 -6.313916e+01
4.938250e+08 -4.331639e+01 -3.134759e+01
4.953000e+08 -4.903600e+01 6.517107e+01
4.967750e+08 -4.392789e+01 2.928477e+00
4.982500e+08 -3.978811e+01 -4.313990e+01
4.997250e+08 -4.082964e+01 -3.743318e+01
5.012000e+08 -4.098349e+01 -2.549629e+00
5.026750e+08 -3.888918e+01 -1.836586e+01
5.041500e+08 -4.333461e+01 -3.228997e+01
5.056250e+08 -4.301104e+01 -1.229455e+01
5.071000e+08 -4.542254e+01 -5.721997e+01
5.085750e+08 -4.521621e+01 -3.339861e+00
5.100500e+08 -4.090362e+01 -4.053832e+01
5.115250e+08 -4.161031e+01 1.887143e+01
5.130000e+08 -3.863751e+01 -2.889204e+01
5.144750e+08 -4.530191e+01 6.668368e-01
5.159500e+08 -3.920132e+01 -1.129139e+01
5.174250e+08 -3.928981e+01 -5.288867e+01
5.189000e+08 -4.064007e+01 -1.002771e+01
5.203750e+08 -4.184129e+01 -2.738994e+01
5.218500e+08 -4.846390e+01 -2.042299e+01
5.233250e+08 -4.541922e+01 -1.188248e+01
5.248000e+08 -3.986432e+01 -1.621517e+01
5.262750e+08 -4.101577e+01 -4.593400e+01
5.277500e+08 -4.706481e+01 -2.556513e+01
5.292250e+08 -4.440287e+01 9.839914e+00
5.307000e+08 -4.605988e+01 -4.262068e+01
5.321750e+08 -4.647411e+01 -2.391479e+01
5.336500e+08 -4.443764e+01 -1.109321e+01
5.351250e+08 -3.985733e+01 -1.003729e+01
5.366000e+08 -3.896431e+01 -1.515307e+01
5.380750e+08 -3.872411e+01 -3.874944e+01
5.395500e+08 -4.707138e+01 -2.706480e+01
5.410250e+08 -4.217783e+01 -3.353895e+01
5.425000e+08 -4.456787e+01 -1.288716e+01
5.439750e+08 -3.994801e+01 -7.715021e+00
5.454500e+08 -4.985553e+01 2.117900e+01
5.469250e+08 -4.851620e+01 -4.077625e+01
5.484000e+08 -4.360333e+01 -2.706481e+01
5.498750e+08 -5.549323e+01 3.785278e+01
5.513500e+08 -4.432371e+01 -4.867249e+01
5.528250e+08 -4.265364e+01 -1.240685e+00
5.543000e+08 -4.484738e+01 -1.427611e+01
5.557750e+08 -4.126910e+01 -1.481055e+01
5.572500e+08 -4.128638e+01 -1.555289e+01
5.587250e+08 -5.431555e+01 -5.868181e-01
5.602000e+08 -4.503078e+01 -9.076088e+00
5.616750e+08 -4.716741e+01 -6.016387e+01
5.631500e+08 -4.062093e+01 -1.893188e+01
5.646250e+08 -4.494150e+01 -8.899951e+00
5.661000e+08 -4.293522e+01 -4.913155e+01
5.675750e+08 -4.200101e+01 -4.720982e+01
5.690500e+08 -4.459052e+01 -2.903101e+01
5.705250e+08 -4.038372e+01 -4.987887e+01
5.720000e+08 -4.007985e+01 -1.837849e+01
5.734750e+08 -4.648908e+01 -1.984007e+01
5.749500e+08 -4.429892e+01 -5.562343e+01
5.764250e+08 -4.330987e+01 -9.694681e+00
5.779000e+08 -5.031471e+01 -2.835704e+01
5.793750e+08 -4.075589e+01 -3.992433e+01
5.808500e+08 -4.288498e+01 -2.223354e+01
5.823250e+08 -4.285727e+01 -5.161972e+01
5.838000e+08 -4.165712e+01 -6.157709e+01
5.852750e+08 -4.238600e+01 -5.112297e+01
5.867500e+08 -4.109237e+01 -1.205551e+01
5.882250e+08 -4.066725e+01 -5.796543e+01
5.897000e+08 -3.983216e+01 -2.564518e+01
5.911750e+08 -4.221390e+01 -4.525846e+01
5.926500e+08 -4.098781e+01 -8.354416e+00
5.941250e+08 -4.274924e+01 -5.219603e+01
5.956000e+08 -4.268083e+01 1.717265e+01
5.970750e+08 -4.034144e+01 -7.529657e+01
5.985500e+08 -4.307417e+01 -2.586527e+01
6.000250e+08 -4.029138e+01 -4.188273e+01
6.015000e+08 -4.193946e+01 -3.848097e+01
6.029750e+08 -3.945306e+01 -3.082227e+01
6.044500e+08 -3.892998e+01 -1.974075e+01
6.059250e+08 -4.134883e+01 -4.539926e+01
6.074000e+08 -3.827955e+01 -3.870644e+01
6.088750e+08 -3.994203e+01 -1.559424e+01
6.103500e+08 -4.546918e+01 7.212926e+00
6.118250e+08 -4.588711e+01 -5.281046e+01
6.133000e+08 -3.925935e+01 -2.403264e+01
6.147750e+08 -3.987173e+01 -4.589843e+01
6.162500e+08 -3.879934e+01 -2.519158e+01
6.177250e+08 -4.146540e+01 -3.468802e+01
6.192000e+08 -4.450068e+01 -1.495372e+01
6.206750e+08 -4.738376e+01 9.935389e+00
6.221500e+08 -3.757299e+01 -2.990555e+01
6.236250e+08 -3.949743e+01 -1.264456e+01
6.251000e+08 -4.290159e+01 -2.656282e+01
6.265750e+08 -4.225136e+01 -1.927259e+01
6.280500e+08 -4.061246e+01 -6.528102e+00
6.295250e+08 -3.901766e+01 -2.122967e+01
6.310000e+08 -4.032425e+01 3.204785e+00
6.324750e+08 -4.110197e+01 5.451877e+00
6.339500e+08 -3.840255e+01 -1.977887e+01
6.354250e+08 -3.920800e+01 1.869572e+01
6.369000e+08 -4.341520e+01 -1.635050e+01
6.383750e+08 -3.843727e+01 7.937485e+00
6.398500e+08 -4.593094e+01 -2.032812e+01
6.413250e+08 -4.446380e+01 -2.937096e+01
6.428000e+08 -4.318647e+01 -6.413528e+01
6.442750e+08 -4.287654e+01 -7.408630e+00
6.457500e+08 -3.939361e+01 -1.876580e+01
6.472250e+08 -4.439250e+01 -5.559401e+01
6.487000e+08 -4.285723e+01 -4.133637e+00
6.501750e+08 -4.334855e+01 -4.249799e+01
6.516500e+08 -4.397224e+01 2.468236e+01
6.531250e+08 -4.203977e+01 -2.429799e+01
6.546000e+08 -5.174672e+01 -3.188063e+01
6.560750e+08 -4.347800e+01 1.170246e+01
6.575500e+08 -4.557728e+01 -4.434153e+01
6.590250e+08 -4.978837e+01 -4.062999e+01
6.605000e+08 -4.190869e+01 -3.982830e+01
6.619750e+08 -5.321949e+01 -3.668809e+01
6.634500e+08 -4.399524e+01 -8.334014e+00
6.649250e+08 -5.642588e+01 1.273389e+02
6.664000e+08 -4.467985e+01 -2.618926e+01
6.678750e+08 -4.294500e+01 -4.976525e+01
6.693500e+08 -4.167801e+01 -6.274667e+01
6.708250e+08 -3.987557e+01 -2.630954e+01
6.723000e+08 -4.355584e+01 -2.803381e+01
6.737750e+08 -3.976208e+01 5.119512e+00
6.752500e+08 -5.008845e+01 -2.336849e+00
6.767250e+08 -5.281888e+01 -1.569204e+01
6.782000e+08 -4.532295e+01 3.803094e+00
6.796750e+08 -4.130302e+01 -5.831437e+01
6.811500e+08 -4.438115e+01 -2.118052e+01
6.826250e+08 -4.734475e+01 -7.171972e+01
6.841000e+08 -4.265326e+01 -4.889444e+01
6.855750e+08 -4.377853e+01 -1.126232e+01
6.870500e+08 -4.173571e+01 -9.132584e+01
6.885250e+08 -4.568239e+01 -5.616995e+01
6.900000e+08 -3.941905e+01 -3.627224e+01
6.914750e+08 -4.890663e+01 -5.831226e+01
6.929500e+08 -3.904244e+01 -3.062990e+01
6.944250e+08 -4.159369e+01 -3.361098e+01
6.959000e+08 -4.332962e+01 -4.299003e+01
6.973750e+08 -3.887740e+01 -6.941899e+01
6.988500e+08 -3.954354e+01 -4.755300e+01
7.003250e+08 -4.490360e+01 -2.276180e+01
7.018000e+08 -4.016116e+01 -6.091186e+01
7.032750e+08 -4.372176e+01 -3.836339e+01
7.047500e+08 -3.951383e+01 -5.427715e+01
7.062250e+08 -4.138279e+01 -4.213751e+01
7.077000e+08 -4.098891e+01 -3.946024e+01
7.091750e+08 -3.706264e+01 -5.742767e+01
7.106500e+08 -3.938103e+01 -4.592385e+01
7.121250e+08 -4.562653e+01 -9.752686e+01
7.136000e+08 -3.710454e+01 -4.077610e+01
7.150750e+08 -4.029988e+01 -4.009639e+01
7.165500e+08 -4.073234e+01 -4.995695e+01
7.180250e+08 -4.015660e+01 -3.984108e+01
7.195000e+08 -4.069129e+01 -4.015075e+01
7.209750e+08 -3.849687e+01 -5.442112e+01
7.224500e+08 -3.984742e+01 -5.176495e+01
7.239250e+08 -3.751343e+01 -6.952262e+01
7.254000e+08 -3.921540e+01 -4.379851e+01
7.268750e+08 -3.968598e+01 -3.019333e+01
7.283500e+08 -4.041596e+01 -2.753256e+01
7.298250e+08 -4.088350e+01 -3.208349e+01
7.313000e+08 -4.040721e+01 -3.188000e+01
7.327750e+08 -4.063474e+01 -3.410463e+01
7.342500e+08 -4.317627e+01 -4.140469e+01
7.357250e+08 -3.924539e+01 -1.590679e+01
7.372000e+08 -4.050626e+01 -6.294449e+01
7.386750e+08 -4.229287e+01 -3.847951e+01
7.401500e+08 -4.222323e+01 -9.662707e+00
7.416250e+08 -4.277583e+01 -4.105735e+01
7.431000e+08 -4.023713e+01 -2.290565e+01
7.445750e+08 -4.228512e+01 -3.739828e+01
7.460500e+08 -4.084997e+01 -2.939287e+01
7.475250e+08 -4.384123e+01 -2.808399e+01
7.490000e+08 -4.463701e+01 -2.775022e+01
7.504750e+08 -4.078044e+01 -2.032293e+01
7.519500e+08 -4.795232e+01 -2.562424e+01
7.534250e+08 -4.422854e+01 -2.188496e+01
7.549000e+08 -4.668237e+01 -2.369212e+01
7.563750e+08 -4.442426e+01 -3.233354e+01
7.578500e+08 -4.463488e+01 -1.966721e+01
7.593250e+08 -3.977843e+01 -5.479203e+01
7.608000e+08 -3.720087e+01 -3.520746e+00
7.622750e+08 -4.288817e+01 -3.773242e+01
7.637500e+08 -4.082398e+01 -1.674884e+01
7.652250e+08 -4.361394e+01 -2.524728e+01
7.667000e+08 -4.432662e+01 -4.723450e+01
7.681750e+08 -4.374713e+01 -1.663665e+01
7.696500e+08 -4.682136e+01 -4.988497e+01
7.711250e+08 -3.969814e+01 -4.970054e+01
7.726000e+08 -4.344664e+01 -1.867958e+01
7.740750e+08 -5.105381e+01 -4.289817e+01
7.755500e+08 -4.632056e+01 9.442155e+00
7.770250e+08 -4.665471e+01 -2.564913e+01
7.785000e+08 -5.087712e+01 -5.532844e+01
7.799750e+08 -4.933517e+01 -1.045051e+02
7.814500e+08 -4.102296e+01 -3.794937e+01
7.829250e+08 -4.316821e+01 -2.099840e+01
7.844000e+08 -4.543473e+01 -2.383912e+01
7.858750e+08 -3.910572e+01 -5.582587e+01
7.873500e+08 -3.960535e+01 -3.972414e+01
7.888250e+08 -4.041911e+01 -4.318654e+01
7.903000e+08 -3.957406e+01 5.047731e+00
7.917750e+08 -3.872803e+01 -5.845924e+01
7.932500e+08 -3.877226e+01 -6.619054e+01
7.947250e+08 -4.208147e+01 -5.380250e+01
7.962000e+08 -4.136785e+01 -4.742979e+01
7.976750e+08 -4.741333e+01 -7.156672e+01
7.991500e+08 -3.958542e+01 -3.544041e+01
8.006250e+08 -4.885045e+01 -1.242874e+02
8.021000e+08 -4.091740e+01 -6.466506e+01
8.035750e+08 -4.272326e+01 -7.183664e+01
8.050500e+08 -4.088605e+01 -5.682733e+01
8.065250e+08 -4.162074e+01 -5.313746e+01
8.080000e+08 -4.177370e+01 -5.657995e+01
8.094750e+08 -4.146512e+01 -4.988937e+01
8.109500e+08 -3.965846e+01 -6.755970e+01
8.124250e+08 -4.330400e+01 -1.162940e+02
8.139000e+08 -4.424929e+01 -7.145298e+01
8.153750e+08 -3.946708e+01 -3.833312e+01
8.168500e+08 -3.893958e+01 -4.847483e+01
8.183250e+08 -4.186261e+01 -5.010127e+01
8.198000e+08 -3.631400e+01 -7.171435e+01
