# HZ S DB R 50
1.000000e+08 -4.507081e+01 2.389263e+00
1.014750e+08 -4.320800e+01 6.817378e+00
1.029500e+08 -4.544311e+01 -7.273587e+01
1.044250e+08 -4.597946e+01 -1.709170e+01
1.059000e+08 -4.243386e+01 1.186452e+01
1.073750e+08 -4.306306e+01 2.268083e+01
1.088500e+08 -4.705259e+01 -2.452738e+01
1.103250e+08 -4.767337e+01 3.932587e+01
1.118000e+08 -4.467077e+01 3.516464e+01
1.132750e+08 -4.800221e+01 -8.436671e+00
1.147500e+08 -5.443075e+01 1.500627e+01
1.162250e+08 -4.120545e+01 -4.440694e+01
1.177000e+08 -4.191161e+01 7.786330e+00
1.191750e+08 -4.641955e+01 -3.165300e+01
1.206500e+08 -4.819605e+01 1.610680e+01
1.221250e+08 -5.642089e+01 2.260536e+01
1.236000e+08 -5.244542e+01 -6.827687e+01
1.250750e+08 -4.693475e+01 -5.717440e+01
1.265500e+08 -4.281508e+01 1.052015e+01
1.280250e+08 -4.446855e+01 4.056046e+01
1.295000e+08 -4.860016e+01 -9.737363e+00
1.309750e+08 -4.659141e+01 -3.454452e+01
1.324500e+08 -4.228444e+01 -2.988892e+01
1.339250e+08 -4.639302e+01 3.178892e+01
1.354000e+08 -5.908142e+01 7.866789e+01
1.368750e+08 -4.758334e+01 -4.568272e+01
1.383500e+08 -4.460788e+01 4.208341e+01
1.398250e+08 -4.624907e+01 1.526432e+00
1.413000e+08 -6.713358e+01 -1.976563e+01
1.427750e+08 -4.234281e+01 5.162315e+01
1.442500e+08 -4.123452e+01 3.414477e+01
1.457250e+08 -5.060947e+01 9.150227e+01
1.472000e+08 -4.983668e+01 9.398849e+01
1.486750e+08 -4.394763e+01 2.477129e+01
1.501500e+08 -4.828595e+01 6.953975e+01
1.516250e+08 -4.260457e+01 2.455752e+01
1.531000e+08 -4.494958e+01 1.054475e+02
1.545750e+08 -4.850305e+01 8.542532e+01
1.560500e+08 -4.409185e+01 3.327609e+01
1.575250e+08 -4.518905e+01 2.392525e+01
1.590000e+08 -4.208569e+01 -4.380196e+00
1.604750e+08 -5.176137e+01 7.661155e+00
1.619500e+08 -4.939480e+01 7.818885e+00
1.634250e+08 -4.894078e+01 8.464991e+01
1.649000e+08 -4.454472e+01 1.813026e+01
1.663750e+08 -5.343342e+01 1.279304e+02
1.678500e+08 -4.750679e+01 8.339332e+01
1.693250e+08 -4.763345e+01 -6.270530e-01
1.708000e+08 -5.261421e+01 1.094736e+01
1.722750e+08 -4.984485e+01 1.799612e+02
1.737500e+08 -4.512545e+01 3.159211e+01
1.752250e+08 -4.556699e+01 4.717342e+01
1.767000e+08 -4.566123e+01 5.142125e+01
1.781750e+08 -5.233610e+01 -1.157318e+01
1.796500e+08 -4.921393e+01 7.499122e+01
1.811250e+08 -4.742300e+01 1.344268e+01
1.826000e+08 -4.729426e+01 3.020108e+01
1.840750e+08 -5.425989e+01 1.268070e+02
1.855500e+08 -5.180588e+01 9.725797e+01
1.870250e+08 -5.387704e+01 3.270376e+01
1.885000e+08 -5.673103e+01 9.875633e+01
1.899750e+08 -4.424704e+01 7.154932e+00
1.914500e+08 -3.987045e+01 -3.290434e+01
1.929250e+08 -4.752334e+01 1.699660e+02
1.944000e+08 -4.992474e+01 5.555828e+01
1.958750e+08 -5.103371e+01 8.219039e+00
1.973500e+08 -4.713445e+01 1.127396e+01
1.988250e+08 -4.543018e+01 -7.075439e+01
2.003000e+08 -5.119565e+01 -1.724575e+01
2.017750e+08 -4.627218e+01 1.958790e+01
2.032500e+08 -4.926735e+01 3.198479e+01
2.047250e+08 -4.488781e+01 2.803898e+01
2.062000e+08 -5.113760e+01 -5.001232e+01
2.076750e+08 -4.710005e+01 -5.236988e+01
2.091500e+08 -5.385300e+01 4.666017e+01
2.106250e+08 -4.348030e+01 -7.091911e+01
2.121000e+08 -4.715967e+01 2.680608e+01
2.135750e+08 -5.417374e+01 -1.575869e+02
2.150500e+08 -4.681890e+01 -1.471342e+02
2.165250e+08 -5.996624e+01 1.224006e+02
2.180000e+08 -4.796046e+01 -2.869490e+01
2.194750e+08 -4.745258e+01 -5.402343e+01
2.209500e+08 -4.621684e+01 8.008206e+00
2.224250e+08 -4.548865e+01 -3.686065e+00
2.239000e+08 -6.345837e+01 -2.476950e+01
2.253750e+08 -4.489392e+01 2.966123e+00
2.268500e+08 -4.700945e+01 -4.132916e+01
2.283250e+08 -4.451034e+01 -3.467176e+01
2.298000e+08 -5.373488e+01 -1.877002e+01
2.312750e+08 -4.931285e+01 -7.142544e+01
2.327500e+08 -4.773671e+01 4.949963e+01
2.342250e+08 -5.061166e+01 -3.234179e+01
2.357000e+08 -5.758827e+01 -1.721794e+02
2.371750e+08 -3.952419e+01 -7.227003e+01
2.386500e+08 -4.494610e+01 4.831984e+00
2.401250e+08 -4.728089e+01 1.468540e+01
2.416000e+08 -4.427167e+01 8.506984e+00
2.430750e+08 -4.387820e+01 9.268897e+00
2.445500e+08 -4.453381e+01 -3.834431e+01
2.460250e+08 -4.495411e+01 5.892106e+01
2.475000e+08 -4.469303e+01 -1.045931e+00
2.489750e+08 -4.655937e+01 -1.853194e+01
2.504500e+08 -4.629911e+01 1.412410e+00
2.519250e+08 -4.382582e+01 -1.782791e+01
2.534000e+08 -4.433314e+01 -5.697892e+00
2.548750e+08 -4.444756e+01 9.463914e+00
2.563500e+08 -4.729236e+01 1.008706e+01
2.578250e+08 -4.991983e+01 -6.550169e+01
2.593000e+08 -4.700462e+01 1.293451e+01
2.607750e+08 -4.357816e+01 -2.000607e+01
2.622500e+08 -4.726903e+01 6.796027e+01
2.637250e+08 -4.284343e+01 2.725162e+01
2.652000e+08 -4.600130e+01 5.831116e+00
2.666750e+08 -5.103726e+01 -9.846888e+00
2.681500e+08 -4.653592e+01 1.978710e+01
2.696250e+08 -5.260460e+01 3.940138e+01
2.711000e+08 -5.039641e+01 6.178952e+00
2.725750e+08 -4.711445e+01 -1.231285e+01
2.740500e+08 -4.782486e+01 2.549105e+01
2.755250e+08 -5.057618e+01 1.287071e+01
2.770000e+08 -4.859895e+01 2.670982e+01
2.784750e+08 -5.000151e+01 2.484110e+01
2.799500e+08 -4.540920e+01 2.325683e+01
2.814250e+08 -4.605098e+01 4.170251e+01
2.829000e+08 -4.167729e+01 9.346111e+00
2.843750e+08 -4.607224e+01 1.039312e+01
2.858500e+08 -3.865721e+01 2.674726e+01
2.873250e+08 -4.332123e+01 7.265617e+00
2.888000e+08 -4.730715e+01 5.911995e+01
2.902750e+08 -4.153871e+01 3.297625e+01
2.917500e+08 -4.574852e+01 1.942541e+01
2.932250e+08 -4.249735e+01 1.824900e+01
2.947000e+08 -4.133326e+01 1.183044e+01
2.961750e+08 -4.703776e+01 6.719779e+01
2.976500e+08 -4.434020e+01 -1.330321e+01
2.991250e+08 -3.820754e+01 4.493062e+01
3.006000e+08 -4.747749e+01 -1.234546e+01
3.020750e+08 -4.370752e+01 3.199876e+01
3.035500e+08 -4.581525e+01 7.480094e+01
3.050250e+08 -5.244316e+01 8.467567e+00
3.065000e+08 -4.172716e+01 3.710545e+01
3.079750e+08 -4.799556e+01 8.120445e+01
3.094500e+08 -3.934447e+01 3.730888e+01
3.109250e+08 -4.871947e+01 -3.036033e+00
3.124000e+08 -4.559145e+01 3.202166e+01
3.138750e+08 -4.991419e+01 -1.815909e+00
3.153500e+08 -4.987667e+01 1.556294e+01
3.168250e+08 -4.177185e+01 7.130288e+01
3.183000e+08 -4.139038e+01 -2.540177e+01
3.197750e+08 -4.959452e+01 5.473734e+00
3.212500e+08 -4.818438e+01 2.307371e+00
3.227250e+08 -4.652201e+01 -4.280341e+00
3.242000e+08 -4.559122e+01 3.812316e+01
3.256750e+08 -4.678814e+01 2.020264e+01
3.271500e+08 -6.149102e+01 8.307118e+01
3.286250e+08 -4.516549e+01 2.378192e+01
3.301000e+08 -4.269643e+01 -9.289539e-01
3.315750e+08 -5.100577e+01 5.626106e+01
3.330500e+08 -5.968949e+01 1.765510e+02
3.345250e+08 -6.085270e+01 8.974586e+01
3.360000e+08 -5.322750e+01 2.365140e+00
3.374750e+08 -4.532330e+01 7.204860e+01
3.389500e+08 -5.030353e+01 1.609723e+02
3.404250e+08 -4.640213e+01 -5.083611e+01
3.419000e+08 -4.364883e+01 -5.167179e+00
3.433750e+08 -4.280204e+01 1.448022e+01
3.448500e+08 -4.635554e+01 -4.038507e+00
3.463250e+08 -5.043557e+01 -3.537398e+01
3.478000e+08 -5.517337e+01 7.490200e+01
3.492750e+08 -4.514997e+01 6.465651e+01
3.507500e+08 -4.374837e+01 2.866013e+01
3.522250e+08 -4.614455e+01 4.844784e+01
3.537000e+08 -4.272533e+01 1.344979e+01
3.551750e+08 -5.438512e+01 1.262201e+02
3.566500e+08 -7.100839e+01 1.077614e+02
3.581250e+08 -4.628783e+01 -7.369679e+00
3.596000e+08 -4.223601e+01 -1.997406e+01
3.610750e+08 -4.322446e+01 4.346481e+01
3.625500e+08 -4.116661e+01 1.300978e+01
3.640250e+08 -4.975342e+01 2.006153e+01
3.655000e+08 -4.433994e+01 6.242115e-02
3.669750e+08 -4.691295e+01 1.476087e+01
3.684500e+08 -6.140869e+01 -4.117091e+01
3.699250e+08 -5.826411e+01 -6.861762e-01
3.714000e+08 -4.374433e+01 5.930101e+01
3.728750e+08 -4.183192e+01 4.043377e+01
3.743500e+08 -5.116695e+01 4.691472e+01
3.758250e+08 -4.769455e+01 5.009373e+00
3.773000e+08 -5.388617e+01 -4.080911e+01
3.787750e+08 -5.389651e+01 -4.713307e+01
3.802500e+08 -4.785602e+01 1.853155e+01
3.817250e+08 -4.354030e+01 3.282982e+01
3.832000e+08 -5.609623e+01 -1.134517e+01
3.846750e+08 -4.272032e+01 3.148592e+01
3.861500e+08 -4.392232e+01 4.879125e+01
3.876250e+08 -5.247781e+01 -1.363122e+02
3.891000e+08 -5.126626e+01 5.535174e+01
3.905750e+08 -4.951412e+01 3.839432e+01
3.920500e+08 -4.447850e+01 7.045733e+00
3.935250e+08 -4.286422e+01 2.070415e+01
3.950000e+08 -4.820674e+01 -4.501689e+01
3.964750e+08 -4.808133e+01 2.572120e+01
3.979500e+08 -5.309544e+01 -2.587237e+01
3.994250e+08 -4.472377e+01 8.797878e+00
4.009000e+08 -4.957365e+01 4.309271e+01
4.023750e+08 -4.703031e+01 3.926898e+01
4.038500e+08 -4.304352e+01 5.748451e+01
4.053250e+08 -4.323153e+01 -6.473810e+01
4.068000e+08 -5.834986e+01 -2.061325e+01
4.082750e+08 -4.501885e+01 1.098770e+02
4.097500e+08 -4.567945e+01 9.282655e+01
4.112250e+08 -4.813870e+01 -3.193908e+01
4.127000e+08 -4.693959e+01 -3.103481e+01
4.141750e+08 -4.431146e+01 9.774936e+01
4.156500e+08 -4.444407e+01 7.985729e+00
4.171250e+08 -4.664871e+01 7.658412e+01
4.186000e+08 -5.294458e+01 -7.632585e+01
4.200750e+08 -4.865156e+01 4.991995e+01
4.215500e+08 -4.792745e+01 1.284066e+02
4.230250e+08 -4.229863e+01 4.268854e+01
4.245000e+08 -4.257933e+01 9.471252e+01
4.259750e+08 -4.978456e+01 2.474603e+01
4.274500e+08 -4.754253e+01 5.831254e+01
4.289250e+08 -4.911216e+01 1.257632e+02
4.304000e+08 -4.294108e+01 7.589749e+01
4.318750e+08 -4.265723e+01 4.540597e+01
4.333500e+08 -6.019218e+01 -1.794411e+02
4.348250e+08 -4.505899e+01 6.373185e+01
4.363000e+08 -4.566964e+01 6.745310e+01
4.377750e+08 -4.879192e+01 9.183241e+01
4.392500e+08 -4.885181e+01 1.022889e+01
4.407250e+08 -4.378628e+01 4.930734e+01
4.422000e+08 -6.470345e+01 7.576102e+01
4.436750e+08 -5.026520e+01 8.662022e+01
4.451500e+08 -5.783308e+01 -1.081727e+01
4.466250e+08 -4.779072e+01 6.012834e+01
4.481000e+08 -6.690040e+01 -1.293304e+02
4.495750e+08 -4.741645e+01 1.120853e+01
4.510500e+08 -5.151444e+01 6.721044e+01
4.525250e+08 -4.995952e+01 4.420546e+01
4.540000e+08 -5.131352e+01 2.436914e+01
4.554750e+08 -4.804699e+01 -5.268102e+01
4.569500e+08 -4.822974e+01 1.762311e+01
4.584250e+08 -4.782945e+01 5.984875e+01
4.599000e+08 -5.228957e+01 9.695658e+01
4.613750e+08 -5.607025e+01 -1.679505e+01
4.628500e+08 -4.429658e+01 8.899649e+00
4.643250e+08 -5.216351e+01 1.392935e+02
4.658000e+08 -4.891061e+01 -3.869740e+00
4.672750e+08 -5.134210e+01 2.616271e+01
4.687500e+08 -5.290783e+01 3.926075e+01
4.702250e+08 -4.684357e+01 -3.982633e+01
4.717000e+08 -6.064347e+01 -4.412666e+01
4.731750e+08 -5.516703e+01 9.586913e+01
4.746500e+08 -4.488075e+01 6.835765e+01
4.761250e+08 -5.404784e+01 -1.717360e+02
4.776000e+08 -5.092019e+01 7.730249e+01
4.790750e+08 -5.490950e+01 4.443452e+01
4.805500e+08 -4.018312e+01 -1.424402e+01
4.820250e+08 -5.165171e+01 5.014911e+01
4.835000e+08 -5.183127e+01 1.682299e+02
4.849750e+08 -4.339828e+01 2.637098e+01
4.864500e+08 -4.226152e+01 -2.460204e+01
4.879250e+08 -5.208053e+01 -1.343567e+01
4.894000e+08 -4.715127e+01 2.721634e+01
4.908750e+08 -4.084140e+01 -5.236038e+00
4.923500e+08 -5.084639e+01 -7.681349e+00
4.938250e+08 -4.601699e+01 5.212314e+00
4.953000e+08 -5.296872e+01 4.791471e+00
4.967750e+08 -4.721265e+01 5.656152e+01
4.982500e+08 -4.386445e+01 -3.802723e-01
4.997250e+08 -4.897317e+01 4.432310e+01
5.012000e+08 -4.428414e+01 -1.363461e+01
5.026750e+08 -4.775443e+01 8.294435e-01
5.041500e+08 -5.466271e+01 -1.520808e+02
5.056250e+08 -4.519912e+01 -1.230805e+01
5.071000e+08 -6.360140e+01 1.424299e+02
5.085750e+08 -5.052989e+01 -1.291605e+00
5.100500e+08 -5.141692e+01 -4.231390e+01
5.115250e+08 -4.292544e+01 6.640845e+00
5.130000e+08 -4.534566e+01 -1.158089e+01
5.144750e+08 -4.866754e+01 6.887146e+01
5.159500e+08 -6.038361e+01 -9.886441e+01
5.174250e+08 -5.239276e+01 1.580972e+02
5.189000e+08 -5.337764e+01 2.065993e+01
5.203750e+08 -5.288136e+01 2.151934e+01
5.218500e+08 -5.875749e+01 6.727654e+01
5.233250e+08 -4.531988e+01 -1.543853e+01
5.248000e+08 -4.703336e+01 1.639621e+01
5.262750e+08 -5.429719e+01 4.680563e+01
5.277500e+08 -5.472830e+01 -4.640817e+01
5.292250e+08 -4.966800e+01 -8.137066e+01
5.307000e+08 -5.092497e+01 2.076495e+01
5.321750e+08 -4.219469e+01 6.321267e+01
5.336500e+08 -4.515517e+01 -4.274442e+01
5.351250e+08 -4.624661e+01 -1.268166e+00
5.366000e+08 -4.551870e+01 -1.231349e+01
5.380750e+08 -4.257812e+01 1.122968e+01
5.395500e+08 -4.599219e+01 3.958655e+01
5.410250e+08 -4.514558e+01 2.648026e+01
5.425000e+08 -4.294246e+01 4.103486e+01
5.439750e+08 -5.130536e+01 3.030070e+01
5.454500e+08 -4.237582e+01 7.845834e+00
5.469250e+08 -4.729560e+01 -1.275679e+01
5.484000e+08 -4.074350e+01 -4.212023e+01
5.498750e+08 -4.518561e+01 8.490209e+00
5.513500e+08 -4.608611e+01 1.699358e+01
5.528250e+08 -4.489386e+01 -5.385009e+01
5.543000e+08 -4.839278e+01 -7.536484e+01
5.557750e+08 -4.634951e+01 -1.874188e+01
5.572500e+08 -4.312178e+01 6.612002e+01
5.587250e+08 -4.805807e+01 -5.890336e+00
5.602000e+08 -4.719972e+01 2.609098e+01
5.616750e+08 -4.529908e+01 1.992520e+01
5.631500e+08 -4.059125e+01 6.316202e+00
5.646250e+08 -4.646204e+01 6.580661e+01
5.661000e+08 -4.380864e+01 -1.562357e+01
5.675750e+08 -4.724798e+01 -3.861172e+01
5.690500e+08 -5.391865e+01 -5.718256e+01
5.705250e+08 -4.385655e+01 3.166222e+01
5.720000e+08 -4.538529e+01 2.392999e+00
5.734750e+08 -4.483347e+01 3.640540e+01
5.749500e+08 -4.616712e+01 1.604278e+01
5.764250e+08 -4.874643e+01 -2.095205e+01
5.779000e+08 -4.333935e+01 1.866979e+01
5.793750e+08 -5.103690e+01 3.825430e+01
5.808500e+08 -4.686770e+01 1.392944e+00
5.823250e+08 -4.262223e+01 2.481759e+01
5.838000e+08 -4.244995e+01 4.539417e+00
5.852750e+08 -4.301785e+01 1.242932e+01
5.867500e+08 -4.390156e+01 5.148948e+01
5.882250e+08 -4.762422e+01 -1.706268e+01
5.897000e+08 -4.574847e+01 2.166195e+01
5.911750e+08 -4.431739e+01 2.569528e+01
5.926500e+08 -4.265594e+01 2.951164e+01
5.941250e+08 -4.588690e+01 -1.912787e+01
5.956000e+08 -4.118979e+01 5.566410e+01
5.970750e+08 -4.299901e+01 5.083005e+00
5.985500e+08 -4.594861e+01 5.216003e+01
6.000250e+08 -4.796246e+01 -6.261305e+00
6.015000e+08 -5.866101e+01 2.690750e+01
6.029750e+08 -4.573503e+01 1.505511e+01
6.044500e+08 -5.681510e+01 -3.525737e+01
6.059250e+08 -4.265126e+01 6.442570e+01
6.074000e+08 -4.484224e+01 5.150567e+01
6.088750e+08 -3.988510e+01 3.055808e+01
6.103500e+08 -4.798687e+01 3.066561e+01
6.118250e+08 -4.181962e+01 4.677872e+01
6.133000e+08 -4.698574e+01 3.239496e+01
6.147750e+08 -4.693242e+01 3.574781e+01
6.162500e+08 -4.449737e+01 2.828855e+01
6.177250e+08 -4.600560e+01 1.892773e+01
6.192000e+08 -4.579580e+01 3.614213e+01
6.206750e+08 -4.705713e+01 5.193509e+01
6.221500e+08 -5.016839e+01 4.197091e+01
6.236250e+08 -4.099943e+01 3.304717e+01
6.251000e+08 -4.837869e+01 2.185889e+01
6.265750e+08 -4.513632e+01 1.584540e+01
6.280500e+08 -4.435327e+01 1.028082e+02
6.295250e+08 -4.463975e+01 4.797381e+01
6.310000e+08 -4.251081e+01 2.899534e+01
6.324750e+08 -4.943200e+01 -1.950510e+00
6.339500e+08 -4.803927e+01 4.565244e+00
6.354250e+08 -4.400071e+01 6.678845e+01
6.369000e+08 -4.862611e+01 5.650872e+01
6.383750e+08 -5.195839e+01 9.857832e+01
6.398500e+08 -5.062287e+01 1.122719e+02
6.413250e+08 -5.155012e+01 8.060730e+01
6.428000e+08 -4.205648e+01 8.250435e+01
6.442750e+08 -4.792420e+01 5.697907e+01
6.457500e+08 -4.219759e+01 6.892828e+01
6.472250e+08 -5.653199e+01 -3.617802e+01
6.487000e+08 -5.314314e+01 3.096555e+01
6.501750e+08 -5.274828e+01 1.078957e+02
6.516500e+08 -4.386347e+01 2.291636e+01
6.531250e+08 -4.799208e+01 4.067078e+01
6.546000e+08 -4.299364e+01 2.955426e+01
6.560750e+08 -5.455357e+01 3.686827e+01
6.575500e+08 -4.739685e+01 1.906760e+01
6.590250e+08 -4.319943e+01 7.561701e+01
6.605000e+08 -4.510185e+01 5.404755e+01
6.619750e+08 -4.207512e+01 -3.940188e+01
6.634500e+08 -5.689923e+01 6.680742e+00
6.649250e+08 -4.424015e+01 2.693058e+00
6.664000e+08 -4.934552e+01 4.183041e+01
6.678750e+08 -6.376024e+01 -1.700512e+01
6.693500e+08 -4.921861e+01 -2.879039e+01
6.708250e+08 -5.165741e+01 7.959761e+01
6.723000e+08 -5.819586e+01 -2.175047e+01
6.737750e+08 -4.429598e+01 1.407592e+01
6.752500e+08 -4.784808e+01 -7.529915e-02
6.767250e+08 -4.537047e+01 3.000735e+01
6.782000e+08 -4.627386e+01 -7.325643e+01
6.796750e+08 -5.289239e+01 -9.819364e+01
6.811500e+08 -4.562891e+01 2.876966e+01
6.826250e+08 -5.140319e+01 -7.576749e+01
6.841000e+08 -4.239625e+01 4.314828e+01
6.855750e+08 -5.120235e+01 -4.164599e+01
6.870500e+08 -5.357641e+01 -2.002360e+01
6.885250e+08 -5.496324e+01 4.724133e+01
6.900000e+08 -4.544666e+01 4.753789e+00
6.914750e+08 -4.705986e+01 -2.506882e+00
6.929500e+08 -5.140368e+01 -1.007442e+01
6.944250e+08 -4.714178e+01 1.254585e+02
6.959000e+08 -3.952963e+01 3.834056e+01
6.973750e+08 -4.514557e+01 5.067096e+01
6.988500e+08 -4.568187e+01 1.070221e+01
7.003250e+08 -4.339583e+01 -1.393555e+01
7.018000e+08 -4.559439e+01 1.671084e+01
7.032750e+08 -5.512814e+01 1.700546e+02
7.047500e+08 -4.438135e+01 3.532940e+01
7.062250e+08 -4.508535e+01 1.574168e+02
7.077000e+08 -4.677679e+01 1.114190e+01
7.091750e+08 -4.195153e+01 3.523246e+01
7.106500e+08 -4.395819e+01 4.644677e+01
7.121250e+08 -4.529935e+01 8.806548e+00
7.136000e+08 -4.554942e+01 2.807310e+01
7.150750e+08 -4.941678e+01 1.246774e+01
7.165500e+08 -4.504993e+01 2.013617e+01
7.180250e+08 -3.945152e+01 -2.767396e+00
7.195000e+08 -4.361000e+01 3.476913e+00
7.209750e+08 -5.036249e+01 -4.243743e+01
7.224500e+08 -4.959374e+01 2.736453e+01
7.239250e+08 -4.623568e+01 2.081941e+01
7.254000e+08 -4.534337e+01 -1.410474e+01
7.268750e+08 -4.818871e+01 -4.145131e+01
7.283500e+08 -4.525598e+01 7.698014e+01
7.298250e+08 -4.770599e+01 2.461780e+01
7.313000e+08 -4.415788e+01 4.325156e+01
7.327750e+08 -4.476887e+01 9.276434e+01
7.342500e+08 -5.989434e+01 1.131854e+02
7.357250e+08 -4.480900e+01 1.416922e+01
7.372000e+08 -4.245106e+01 9.804400e+00
7.386750e+08 -4.933889e+01 5.409745e+01
7.401500e+08 -4.710310e+01 7.423989e+00
7.416250e+08 -4.318702e+01 5.750711e+01
7.431000e+08 -4.607943e+01 3.571721e+01
7.445750e+08 -5.576711e+01 1.175223e+01
7.460500e+08 -5.772308e+01 9.464785e+01
7.475250e+08 -4.328730e+01 -8.954214e+00
7.490000e+08 -5.542448e+01 1.575895e+02
7.504750e+08 -4.730281e+01 4.389119e+01
7.519500e+08 -4.391849e+01 6.000392e+01
7.534250e+08 -5.171521e+01 -2.682488e+01
7.549000e+08 -4.155038e+01 3.632088e+01
7.563750e+08 -4.536085e+01 1.082318e+02
7.578500e+08 -5.107831e+01 4.468799e+01
7.593250e+08 -5.206820e+01 2.245496e+01
7.608000e+08 -4.506093e+01 1.925024e+01
7.622750e+08 -5.008362e+01 6.971346e+01
7.637500e+08 -4.640035e+01 1.487084e+01
7.652250e+08 -4.972412e+01 3.021268e+01
7.667000e+08 -4.556210e+01 -9.304564e+00
7.681750e+08 -4.275818e+01 7.433144e-01
7.696500e+08 -4.758998e+01 -3.398534e+01
7.711250e+08 -5.530117e+01 3.985479e+01
7.726000e+08 -4.392674e+01 3.891110e+01
7.740750e+08 -4.364301e+01 2.291314e+00
7.755500e+08 -5.089750e+01 1.352961e+01
7.770250e+08 -4.337815e+01 3.150783e+01
7.785000e+08 -4.882206e+01 -1.519945e+01
7.799750e+08 -5.898291e+01 1.621389e+02
7.814500e+08 -5.108139e+01 1.063290e+02
7.829250e+08 -4.116726e+01 3.343925e+00
7.844000e+08 -5.191173e+01 4.051640e+01
7.858750e+08 -5.529186e+01 -3.771924e+01
7.873500e+08 -5.730348e+01 -4.790880e+01
7.888250e+08 -4.725884e+01 -2.278330e+00
7.903000e+08 -4.166612e+01 -5.016437e+01
7.917750e+08 -4.960253e+01 -1.314528e+01
7.932500e+08 -4.495788e+01 -3.071214e+00
7.947250e+08 -4.371854e+01 -2.475725e+01
7.962000e+08 -4.072439e+01 7.953773e+01
7.976750e+08 -4.486108e+01 7.885407e+01
7.991500e+08 -5.128489e+01 -4.757264e+00
8.006250e+08 -4.469616e+01 2.206635e+01
8.021000e+08 -4.910342e+01 8.918966e+01
8.035750e+08 -5.081550e+01 3.356583e+01
8.050500e+08 -5.076132e+01 -2.688893e+00
8.065250e+08 -5.005560e+01 -4.875738e+01
8.080000e+08 -4.620519e+01 -2.375654e+01
8.094750e+08 -5.117471e+01 -2.118013e+01
8.109500e+08 -4.721340e+01 3.258385e+01
8.124250e+08 -4.970507e+01 2.412862e+01
8.139000e+08 -4.038068e+01 7.547519e+00
8.153750e+08 -4.510639e+01 3.498940e+01
8.168500e+08 -4.604402e+01 4.162253e+01
8.183250e+08 -4.301465e+01 3.803178e+01
8.198000e+08 -4.837821e+01 1.009114e+01
8.212750e+08 -4.473225e+01 5.519429e+00
8.227500e+08 -4.355422e+01 4.308652e+00
8.242250e+08 -4.188626e+01 8.109236e+00
8.257000e+08 -5.370746e+01 1.184548e+02
8.271750e+08 -4.826082e+01 2.596691e+01
8.286500e+08 -5.383548e+01 6.948398e+00
