#  HZ   S   DB   R     50.0 
! Rohde & Schwarz ZVL6 2Ports - Version 3.32 - 1303.6509k06 SN: 102097
! Date: 2024-06-28 18:25:36
! Data & Calibration Information:
! Trc1:S11(TOSM) Trc3:S21(TOSM) Trc2:S12(TOSM) Trc4:S22(TOSM)
! 
! 
! 
 1.000000000000000E8    -3.879950591412467E1  -9.555964871892781  -1.150470901772970E-1  -1.362081198542861E1  -6.148960002300202E-2  -1.471609374817865E1  -3.693381842761637E1  -2.452041609915377E1  
 1.014750000000000E8    -3.717596974737766E1  -2.893436550495128E1  -1.038070457110596E-1  -1.694884168798276E1  -7.316075264025029E-2  -1.487582158036125E1  -3.754462425177793E1   5.743068266334094  
 1.029500000000000E8    -3.753579339062141E1  -1.882058134602362E1  -9.308431918443774E-2  -1.445075792724025E1  -7.249572773361386E-2  -1.510467038588590E1  -3.579708786124785E1  -4.721346232642116E1  
 1.044250000000000E8    -3.811657760174148E1  -2.165024721115532E1  -9.860412336171487E-2  -1.674800699884580E1  -7.439673202207507E-2  -1.500789989517195E1  -4.004447426755120E1  -3.173468598840081E1  
 1.059000000000000E8    -3.867160220757419E1  -1.006680663814323E1  -9.293459531450142E-2  -1.368641772648592E1  -7.545616803690752E-2  -1.712146682326031E1  -3.983579353859162E1  -1.415203069422766E1  
 1.073750000000000E8    -4.177193408680378E1  -2.089314131508915E1  -1.092172970927055E-1  -1.629505703978669E1  -7.993957400169457E-2  -1.513107991207188E1  -3.854031390464809E1  -5.676460511295870  
 1.088500000000000E8    -4.030730713650401E1  -2.048435813817985E1  -9.542878728732829E-2  -1.710614839823043E1  -7.906114520289609E-2  -1.591272038729298E1  -3.721025098424889E1  -6.956599272804257E1  
 1.103250000000000E8    -3.648043726135617E1  -2.964061074140635E1  -1.003965215868264E-1  -1.782682355295343E1  -9.418935044057902E-2  -1.672486587913748E1  -3.952087033265946E1  -2.701152077215410E1  
 1.118000000000000E8    -3.732320180827144E1  -3.228411357441203E1  -9.125647290034791E-2  -1.578554107499022E1  -8.484165368918821E-2  -1.712599211160476E1  -4.468701382730815E1  -2.499936259263917E1  
 1.132750000000000E8    -3.754447156657563E1  -2.088663306024465E1  -1.095003251881977E-1  -1.769478305628439E1  -8.011595405077140E-2  -1.810092477330153E1  -3.750202017823397E1  -6.987410780346662E1  
 1.147500000000000E8    -3.807229130918627E1  -4.376391157559030E1  -9.583059974651056E-2  -1.713374853357556E1  -8.557842770194069E-2  -1.683314018451670E1  -3.938907074195464E1  -3.405716294115737E1  
 1.162250000000000E8    -3.962773592796004E1  -2.878247464794792E1  -9.142736095311527E-2  -1.721076425367295E1  -1.045106730555453E-1  -1.875022800633608E1  -3.593867739096194E1  -4.398290607343399E1  
 1.177000000000000E8    -4.312156988286257E1   8.777515320907419  -9.198635031636719E-2  -1.918184277986802E1  -8.396245508414153E-2  -1.761157501960211E1  -3.841943228826811E1  -2.800057337224329E1  
 1.191750000000000E8    -3.676484081212830E1  -1.063617494860139E1  -1.017746114506296E-1  -1.756690543976325E1  -9.647693190722689E-2  -1.759616449281854E1  -3.814026072876474E1  -3.209950109306873E1  
 1.206500000000000E8    -3.540261682647944E1  -2.079330663094726E1  -9.461462348934659E-2  -1.856311114236735E1  -1.015831336584312E-1  -1.955444999066593E1  -3.766091607320095E1  -5.315584686206291E1  
 1.221250000000000E8    -3.809337153540272E1  -2.910411221118416E1  -1.015370190729181E-1  -1.881592555339844E1  -9.153681591888882E-2  -1.851239702941928E1  -3.745496677923876E1  -4.200497482099393E1  
 1.236000000000000E8    -3.810527116391523E1  -4.261734529194622E1  -1.064794523329851E-1  -1.669437367847395E1  -9.359782518215834E-2  -1.870604901907257E1  -4.033020308332469E1  -6.243075860642234E1  
 1.250750000000000E8    -4.632114872267503E1  -5.716623745857515E1  -9.898122993480954E-2  -1.815793482237082E1  -8.668627963503907E-2  -1.785230011198978E1  -3.857711775684525E1  -3.808788990587248E1  
 1.265500000000000E8    -4.240269859687474E1  -5.876642696139848  -1.010450647532847E-1  -1.896699574982680E1  -1.031266711582251E-1  -1.932668901574803E1  -3.720218434263471E1  -3.371553163512061E1  
 1.280250000000000E8    -4.306319879766601E1  -5.603112182463068E1  -9.705466356687073E-2  -2.001323109516822E1  -1.094594267613608E-1  -1.865789721719687E1  -3.634139036050173E1  -2.071494699674733E1  
 1.295000000000000E8    -4.141264473616674E1  -2.685061524745157E1  -1.077043444280770E-1  -2.038123049581482E1  -9.415132890273881E-2  -1.968371192222215E1  -3.784749764545755E1  -5.167937061532421E1  
 1.309750000000000E8    -4.239319598901687E1  -9.339426200108846  -1.089565520011376E-1  -1.911862604369180E1  -1.053322707943648E-1  -2.013440381676845E1  -3.772133203784300E1  -1.363061686237738E1  
 1.324500000000000E8    -3.773586052402479E1  -3.994428629159729E1  -8.758516466728658E-2  -1.841026400807995E1  -1.036430156637251E-1  -2.025603999784973E1  -4.087190444944993E1  -3.383102799238789E1  
 1.339250000000000E8    -4.302666998389195E1  -3.728647848564208E1  -1.044113767157417E-1  -1.986159648072157E1  -1.004625471127414E-1  -2.066385362875998E1  -4.065408071527371E1  -6.253859280551633E1  
 1.354000000000000E8    -4.133216833955318E1  -4.972516886210158E1  -1.081158821761913E-1  -2.108944563849145E1  -1.037361273368650E-1  -1.878274488819076E1  -3.826410789736841E1  -4.222173014333972E1  
 1.368750000000000E8    -3.707013705449155E1  -3.670178732026860E1  -9.724703643699413E-2  -2.118817971085864E1  -8.787504724246326E-2  -2.096429779746023E1  -3.597876202030763E1  -4.149804356145724E1  
 1.383500000000000E8    -4.966970972080703E1  -3.842894482083602E1  -9.772729743005573E-2  -1.900051441317424E1  -1.176848826323067E-1  -2.014080908499291E1  -3.803020653086064E1  -2.367164174813055E1  
 1.398250000000000E8    -3.830754061410273E1  -4.204763306708423E1  -9.819500022975197E-2  -2.045388665175915E1  -7.824137537747335E-2  -2.075827289594542E1  -3.964822921588834E1  -6.886449168176068E1  
 1.413000000000000E8    -4.101396654529712E1  -3.751835225804717E1  -9.229538371538576E-2  -2.101789879474462E1  -1.004739107433526E-1  -2.023716259970599E1  -3.904150788741204E1  -5.563135016476631E1  
 1.427750000000000E8    -3.745921062929119E1  -7.882366119632287E1  -9.528570692032989E-2  -2.121382595816204E1  -7.673739697947585E-2  -2.097354212819722E1  -4.044965154502557E1  -3.962138500207899E1  
 1.442500000000000E8    -3.980502047091257E1  -6.994420748283079E1  -1.145468658370950E-1  -2.002241765375370E1  -1.109528683103415E-1  -2.214321233139771E1  -3.985388200761655E1  -6.208266943697919  
 1.457250000000000E8    -4.443308174505729E1  -8.615166737914009E1  -1.033525522048954E-1  -2.339924527864381E1  -1.082534621759505E-1  -2.369685020069424E1  -3.661627040284704E1  -5.138645876016661E1  
 1.472000000000000E8    -4.387382920169511E1  -4.955186488321168E1  -1.163632349884840E-1  -2.388920253281108E1  -9.256475647802392E-2  -2.129814617136697E1  -4.072904100102723E1  -7.733772248080038E1  
 1.486750000000000E8    -3.668908627410084E1  -5.731453999396812E1  -1.155638503895736E-1  -2.322103486543751E1  -8.793453179747222E-2  -2.208829632423330E1  -3.989145999293465E1  -4.085956454336368E1  
 1.501500000000000E8    -4.081939522456082E1  -5.301770822628154E1  -9.970907730008409E-2  -2.274065453554179E1  -9.379240841002305E-2  -2.331181607123996E1  -3.630841008704527E1  -6.935731903600544E1  
 1.516250000000000E8    -4.200437137079882E1  -7.066209802317951E1  -1.064725772001465E-1  -2.459762889168354E1  -1.053623150181614E-1  -2.263428105669145E1  -3.890197452352570E1  -5.637635013131492E1  
 1.531000000000000E8    -4.392481863329472E1  -7.320280794902227E1  -9.839850281700559E-2  -2.213668927001742E1  -1.045486959043770E-1  -2.417510928625180E1  -4.092499117899508E1  -3.602128172146565E1  
 1.545750000000000E8    -3.793378521275043E1  -4.724694884369436E1  -9.730739143149404E-2  -2.325938927686147E1  -9.703036659495623E-2  -2.253122987043062E1  -3.878039051045910E1  -2.630708964102716E1  
 1.560500000000000E8    -4.012687333235302E1  -7.619857904995206E1  -1.021845941377453E-1  -2.497811800327274E1  -9.719639618108834E-2  -2.449506096109811E1  -3.778520215190079E1  -5.493368867350134E1  
 1.575250000000000E8    -4.069657506931087E1  -7.153445977714425E1  -1.165351454819336E-1  -2.370774648274748E1  -1.018642794776334E-1  -2.360574822547570E1  -3.947996113345459E1  -3.054945822556239E1  
 1.590000000000000E8    -4.551505635400285E1  -3.697398518274025E1  -1.364840084417602E-1  -2.484308989419866E1  -1.102404626956210E-1  -2.252881251594957E1  -4.466794800036247E1  -6.251716248362646E1  
 1.604750000000000E8    -3.745552714840986E1  -5.985236808547539E1  -1.097018608661851E-1  -2.467026318978898E1  -8.785947645338163E-2  -2.380228908754942E1  -4.095200637677267E1  -2.291070192277342E1  
 1.619500000000000E8    -4.233425242418888E1  -5.210667339692280E1  -1.054873037668608E-1  -2.593648490529455E1  -1.031186549792676E-1  -2.351249508198174E1  -3.938077963761322E1  -6.421069329930819E1  
 1.634250000000000E8    -4.101915020388942E1  -5.650885577984280E1  -1.124252629348121E-1  -2.486983773270515E1  -1.023488972057518E-1  -2.392666906822238E1  -3.902378143534326E1  -6.946429129906672E1  
 1.649000000000000E8    -4.215144152060425E1  -8.905681645404982E1  -1.060479569790657E-1  -2.538062137795458E1  -1.114394089800003E-1  -2.592849665213747E1  -3.984897456744753E1  -7.081817943131289E1  
 1.663750000000000E8    -3.577424119068363E1  -6.528442713668447E1  -1.083117616133133E-1  -2.432397290046016E1  -1.007864220922649E-1  -2.493037533356037E1  -3.676832307961549E1  -4.790000191393452E1  
 1.678500000000000E8    -4.170659656544308E1  -4.480689028587734E1  -9.537631326208894E-2  -2.745668055212753E1  -1.086310746283663E-1  -2.261630184604854E1  -4.484984497482390E1  -8.191087871757384E1  
 1.693250000000000E8    -4.034545796733441E1  -8.752167568764737E1  -1.114711774015354E-1  -2.585958510154578E1  -1.018115946488554E-1  -2.529653241316365E1  -3.843699040655578E1  -2.385001280246750E1  
 1.708000000000000E8    -4.218123010850143E1  -9.657491097664126E1  -1.211498996429418E-1  -2.474530986787848E1  -1.422338928305947E-1  -2.422041327632023E1  -3.740069750214764E1  -4.471839030509160E1  
 1.722750000000000E8    -3.561534897487307E1  -8.492093220354313E1  -1.250088036119195E-1  -2.604954382279411E1  -1.120428541920672E-1  -2.477516387064289E1  -3.746513488121052E1  -6.673120541702191E1  
 1.737500000000000E8    -3.961687765866535E1  -8.476788536856950E1  -1.164468414985824E-1  -2.593399060072552E1  -1.156675059235625E-1  -2.599343258266402E1  -3.948843606394892E1  -3.942472558301233E1  
 1.752250000000000E8    -3.884306295382958E1  -8.620905382404644E1  -1.358606622045525E-1  -2.613106738632606E1  -1.146982827880971E-1  -2.710695355502762E1  -4.035801224245039E1  -2.496867996008869E1  
 1.767000000000000E8    -3.792569270084639E1  -6.803128045083851E1  -1.161844813442919E-1  -2.550071514508783E1  -1.118259044980451E-1  -2.580501437748615E1  -3.712747148990060E1  -2.977815129916672E1  
 1.781750000000000E8    -5.152076000002327E1  -9.378875476792034E1  -1.034283312791360E-1  -2.790112976414240E1  -1.201791104034792E-1  -2.773031829642531E1  -4.021078287267110E1  -2.816417683969485E1  
 1.796500000000000E8    -3.834085017534242E1  -7.061238365719542E1  -1.030713300108023E-1  -2.528957164124932E1  -1.280765505997903E-1  -2.581604037059103E1  -3.397480312543587E1  -5.560646152498385E1  
 1.811250000000000E8    -3.840574406324768E1  -6.731319318829313E1  -1.147663274080109E-1  -2.778655262770647E1  -1.088671227591176E-1  -2.903496899189134E1  -3.931830181518345E1  -6.792004301179902E1  
 1.826000000000000E8    -4.002651754147549E1  -9.855431008283013E1  -9.811714238051189E-2  -2.767516805220034E1  -1.039121227723565E-1  -2.843803815565311E1  -3.965422691254081E1  -6.671816456219702E1  
 1.840750000000000E8    -3.708161433545801E1  -7.193480562858996E1  -1.100018058587429E-1  -2.734008955874744E1  -1.032329769948922E-1  -2.895442934756076E1  -3.474242028141310E1  -4.135376991807767E1  
 1.855500000000000E8    -3.755008019114435E1  -5.809507509088379E1  -1.000708102825369E-1  -2.876286839820232E1  -1.146077343616461E-1  -2.807341846207541E1  -4.252502125446229E1  -5.459774289955075E1  
 1.870250000000000E8    -3.553479651435875E1  -6.212531409036153E1  -1.200238685141602E-1  -2.802660449063728E1  -1.037045070576930E-1  -2.880181889397851E1  -3.751590740631603E1  -5.069543003569643E1  
 1.885000000000000E8    -3.750153431428949E1  -6.955156298822010E1  -1.147408246288824E-1  -2.858514659798931E1  -1.299217393619134E-1  -3.022477104161909E1  -3.573266430621085E1  -5.872799083280400E1  
 1.899750000000000E8    -3.780790379649122E1  -8.646505102475182E1  -1.254259641067001E-1  -2.873244080155885E1  -1.268466742531756E-1  -2.894366472225777E1  -4.065033999663614E1  -5.589945383824714E1  
 1.914500000000000E8    -4.054877258985588E1  -5.497446679744543E1  -1.118522772198294E-1  -2.972454648167197E1  -1.215720531326040E-1  -2.759499802273863E1  -3.559142949301170E1  -5.176717542267058E1  
 1.929250000000000E8    -4.271072405450238E1  -5.994994839217829E1  -1.066429169123778E-1  -3.037080257502858E1  -1.039032657988639E-1  -2.919042432724202E1  -3.519080226425227E1  -6.010098431899229E1  
 1.944000000000000E8    -3.827874752695306E1  -8.475592568160241E1  -1.212044122287069E-1  -3.077758520026780E1  -1.169396088501017E-1  -2.802447345493415E1  -3.649101560290154E1  -6.180145131641671E1  
 1.958750000000000E8    -3.568265252424340E1  -6.089632157694106E1  -1.216335749449467E-1  -2.869109053553355E1  -1.157783760657670E-1  -2.917790688818844E1  -3.742462851176976E1  -7.280528435735764E1  
 1.973500000000000E8    -3.605989222437762E1  -3.814324108460217E1  -1.117822402660598E-1  -2.765671401587604E1  -1.130685207104924E-1  -3.093281028336780E1  -3.538234791465593E1  -6.927728510434444E1  
 1.988250000000000E8    -3.840631604942959E1  -7.435582829456085E1  -1.205075845707312E-1  -2.895476339093030E1  -1.396205853850716E-1  -2.932677998842915E1  -3.397951425438219E1  -5.922868974166864E1  
 2.003000000000000E8    -3.731662350771888E1  -6.982324544780157E1  -1.241196458628222E-1  -3.022878517912622E1  -1.006264266373670E-1  -2.893427332487296E1  -3.468877797791272E1  -4.797550147170218E1  
 2.017750000000000E8    -3.914974303949599E1  -7.514898399805419E1  -1.212678158030425E-1  -3.029872645396709E1  -1.295520914173590E-1  -3.061942748455207E1  -3.734548953090939E1  -6.940130972129990E1  
 2.032500000000000E8    -3.963667099901451E1  -6.704989092837000E1  -1.211546525415669E-1  -3.022253602778283E1  -1.019940321357956E-1  -2.991910974413111E1  -3.297654363018629E1  -6.279474583309331E1  
 2.047250000000000E8    -3.446854537856792E1  -6.876230477833590E1  -1.164668540451134E-1  -3.159597029398893E1  -1.061150272543010E-1  -2.918844039430433E1  -3.534390258026859E1  -5.981284994397406E1  
 2.062000000000000E8    -3.681804512713921E1  -7.008763636125903E1  -1.258430092068249E-1  -2.960185122186924E1  -1.298376599151227E-1  -3.111337649530850E1  -3.384497914818644E1  -7.026287219880477E1  
 2.076750000000000E8    -3.533496902976289E1  -4.105740158562410E1  -1.278802085041602E-1  -3.089523232137946E1  -1.320847607504941E-1  -3.127678952779190E1  -3.303794814134832E1  -5.996141820149649E1  
 2.091500000000000E8    -3.536063076901502E1  -7.778579946164577E1  -1.035717013584382E-1  -3.207449772282806E1  -1.169114603829334E-1  -3.281648097971627E1  -3.562696629487137E1  -5.050838561456659E1  
 2.106250000000000E8    -3.649088728448151E1  -6.426637671474305E1  -1.106089992709958E-1  -3.240530513696294E1  -1.437876825247078E-1  -3.057159381785048E1  -3.346243396145002E1  -7.169730682321108E1  
 2.121000000000000E8    -3.549416858612047E1  -8.090785887723011E1  -1.104566448425603E-1  -3.115775596518661E1  -1.184492312958186E-1  -3.179913823149090E1  -3.399708367119354E1  -6.734924016138332E1  
 2.135750000000000E8    -3.547962043321734E1  -6.567321871277761E1  -1.130957473298893E-1  -3.218100343728076E1  -1.354204437651483E-1  -3.273074585410398E1  -3.541664139338738E1  -5.995555417484704E1  
 2.150500000000000E8    -3.645857508495590E1  -7.680664926341242E1  -1.182364227654839E-1  -3.280107663579073E1  -1.041212534202677E-1  -3.295603282955540E1  -3.395274446141423E1  -7.182560470120060E1  
 2.165250000000000E8    -3.740699955470766E1  -8.867622650675750E1  -1.149786749373133E-1  -3.386852253620759E1  -1.113008293022635E-1  -3.307745276471841E1  -3.639483419684530E1  -8.133476409945747E1  
 2.180000000000000E8    -3.598209791475284E1  -6.943154326225404E1  -1.172800236424661E-1  -3.246079240306840E1  -1.119605968750229E-1  -3.271012864141311E1  -3.536477156630060E1  -7.373964763851443E1  
 2.194750000000000E8    -3.810963676641311E1  -6.456589804707387E1  -1.169935801711285E-1  -3.433359251890062E1  -1.064416251755490E-1  -3.387959507268221E1  -3.606082369224973E1  -7.479343610402955E1  
 2.209500000000000E8    -3.401961341925306E1  -6.615205021186706E1  -1.257773113135449E-1  -3.249482852175323E1  -1.079138466326054E-1  -3.389081419165343E1  -3.559660241237780E1  -7.649533193197640E1  
 2.224250000000000E8    -3.537384213920999E1  -6.332217353617813E1  -1.400192999341164E-1  -3.376032862195875E1  -1.366952600483978E-1  -3.320619991850921E1  -3.376703275195978E1  -5.989957515108597E1  
 2.239000000000000E8    -3.477897090887446E1  -8.158623086252882E1  -1.378586277426190E-1  -3.275560125594934E1  -1.088437767512500E-1  -3.322027803715827E1  -3.223056624689851E1  -8.127787798535854E1  
 2.253750000000000E8    -3.416885797928489E1  -6.044880715009296E1  -1.160747176095234E-1  -3.420526192608214E1  -1.555244145812194E-1  -3.229468425814795E1  -3.475595849958178E1  -7.357950339331279E1  
 2.268500000000000E8    -3.631737489236944E1  -6.655282429261858E1  -1.088121253004922E-1  -3.382880534339445E1  -1.197334774414996E-1  -3.587601307529034E1  -3.399009322316942E1  -8.560035113140266E1  
 2.283250000000000E8    -3.714584253552345E1  -7.064420625284346E1  -1.285728057367512E-1  -3.410112211586886E1  -1.305167692148568E-1  -3.354046728871832E1  -3.447227257249947E1  -7.760826855488504E1  
 2.298000000000000E8    -3.832934279862904E1  -8.295119053344249E1  -1.456404756302832E-1  -3.555334087826736E1  -1.237024672952822E-1  -3.638638683431447E1  -3.493308724909021E1  -7.067928132971063E1  
 2.312750000000000E8    -3.665208035456710E1  -6.734841985412659E1  -1.275069420914027E-1  -3.505044275926864E1  -1.263486110382470E-1  -3.574569946394922E1  -3.415585591561771E1  -9.192585777292599E1  
 2.327500000000000E8    -3.656612086484495E1  -6.337329489333948E1  -1.316756102913411E-1  -3.477460076459286E1  -1.231558561476039E-1  -3.600190800720238E1  -3.328356618442372E1  -8.948283692849451E1  
 2.342250000000000E8    -3.498194262156940E1  -9.797251511464920E1  -1.356666907779353E-1  -3.554416627021799E1  -1.543453794739470E-1  -3.488916724329560E1  -3.395931514050341E1  -8.118943739330956E1  
 2.357000000000000E8    -3.613841969553114E1  -6.947145129078189E1  -1.345497836431197E-1  -3.507968004561754E1  -1.326745081282014E-1  -3.544395200559766E1  -3.388320831336140E1  -8.456775210004889E1  
 2.371750000000000E8    -3.607024085954051E1  -7.405964104734468E1  -1.275625571765190E-1  -3.515025512530948E1  -1.567631627041199E-1  -3.510414299534187E1  -3.088285836691293E1  -7.176573042751696E1  
 2.386500000000000E8    -3.669834094274413E1  -8.087200843667849E1  -1.440293442947087E-1  -3.710905874854997E1  -1.232342414716576E-1  -3.810958971314899E1  -3.369057350495371E1  -9.739758503075962E1  
 2.401250000000000E8    -3.584110934310709E1  -9.102623798422222E1  -1.157577771016158E-1  -3.667381513385121E1  -1.546255364176447E-1  -3.493385737111640E1  -3.393238452659208E1  -7.267405162211324E1  
 2.416000000000000E8    -3.839700627696745E1  -8.298453086847697E1  -1.330248156892915E-1  -3.658040002294352E1  -1.264548463492654E-1  -3.456148766277978E1  -3.388436433145290E1  -7.619441330711155E1  
