# HZ S DB R 50
1.000000e+08 -2.017687e-02 -1.441603e-01
1.014750e+08 -3.564965e-02 -1.452844e+00
1.029500e+08 1.687545e-02 8.486725e-02
1.044250e+08 2.068398e-02 2.470154e+00
1.059000e+08 3.467264e-02 1.538082e+00
1.073750e+08 8.597214e-03 3.790263e-01
1.088500e+08 9.065467e-03 2.370382e-01
1.103250e+08 1.295124e-02 1.038179e+00
1.118000e+08 -1.515906e-02 -2.368897e+00
1.132750e+08 2.231638e-02 -1.123434e+00
1.147500e+08 1.212557e-02 -6.426233e-01
1.162250e+08 -6.904741e-03 -1.543509e-01
1.177000e+08 -1.197792e-02 2.812482e-01
1.191750e+08 9.817944e-03 -9.096880e-01
1.206500e+08 1.232475e-02 4.931278e-01
1.221250e+08 1.064836e-02 1.379922e+00
1.236000e+08 2.892764e-02 4.044325e-01
1.250750e+08 3.197461e-02 -6.782975e-01
1.265500e+08 5.080800e-03 6.101570e-02
1.280250e+08 -9.808495e-03 -4.000126e-01
1.295000e+08 -4.384039e-02 7.373659e-01
1.309750e+08 2.641329e-02 -1.020803e+00
1.324500e+08 2.990608e-02 2.497502e-01
1.339250e+08 1.980731e-02 -1.124484e-01
1.354000e+08 8.131187e-03 5.475377e-01
1.368750e+08 2.634676e-02 -1.825030e+00
1.383500e+08 3.665828e-03 1.957151e-01
1.398250e+08 5.987294e-02 -8.862747e-01
1.413000e+08 -4.821047e-02 1.062026e+00
1.427750e+08 8.190256e-03 -1.592257e+00
1.442500e+08 -3.761685e-02 9.876993e-01
1.457250e+08 -8.212404e-02 2.086653e+00
1.472000e+08 3.850484e-02 -2.527643e+00
1.486750e+08 3.921538e-02 -2.182280e+00
1.501500e+08 8.804434e-04 -3.672539e-02
1.516250e+08 7.128588e-03 -1.419079e+00
1.531000e+08 -5.148595e-03 1.759890e-01
1.545750e+08 1.241895e-02 -7.483163e-01
1.560500e+08 -4.140999e-02 9.704679e-01
1.575250e+08 -9.268169e-02 1.025150e+00
1.590000e+08 -9.145695e-03 1.292165e+00
1.604750e+08 -5.096450e-02 3.720794e-01
1.619500e+08 -7.246741e-02 -2.962703e-01
1.634250e+08 -2.932008e-02 3.362716e-01
1.649000e+08 -3.535032e-02 8.547104e-01
1.663750e+08 -2.966100e-02 8.652642e-01
1.678500e+08 -2.019683e-02 8.457495e-01
1.693250e+08 -7.166765e-02 -7.684158e-01
1.708000e+08 -2.545820e-02 -7.138931e-01
1.722750e+08 -4.314917e-02 6.892211e-01
1.737500e+08 -4.494454e-02 -4.190052e-01
1.752250e+08 9.972492e-03 -5.136837e-01
1.767000e+08 -2.106254e-02 -5.776368e-01
1.781750e+08 -7.471660e-02 -1.365371e+00
1.796500e+08 -7.228021e-02 3.582518e-01
1.811250e+08 -5.046965e-02 1.675013e+00
1.826000e+08 -5.103368e-03 2.779573e-01
1.840750e+08 -4.779325e-02 1.388453e-01
1.855500e+08 3.489079e-03 -3.620753e-01
1.870250e+08 -5.385888e-02 -1.709132e-01
1.885000e+08 -7.361782e-02 -5.276636e-01
1.899750e+08 -2.391580e-02 -7.660935e-01
1.914500e+08 -3.182492e-02 1.557004e+00
1.929250e+08 -4.013980e-02 -1.825801e-01
1.944000e+08 -5.493145e-02 -3.043717e-01
1.958750e+08 -2.649587e-02 2.071431e+00
1.973500e+08 -5.134025e-03 2.998186e+00
1.988250e+08 -4.181509e-02 -8.157340e-01
2.003000e+08 2.385981e-02 2.003065e+00
2.017750e+08 -1.971769e-02 4.348036e-01
2.032500e+08 -4.975530e-02 8.969688e-01
2.047250e+08 -4.863953e-02 -5.821279e-01
2.062000e+08 -8.179343e-02 -1.484323e+00
2.076750e+08 -7.114437e-02 -1.364096e+00
2.091500e+08 3.538371e-02 1.511098e+00
2.106250e+08 -2.272820e-02 3.424398e-01
2.121000e+08 -5.019735e-02 -1.402104e+00
2.135750e+08 -4.002598e-02 -1.905982e+00
2.150500e+08 1.858224e-03 1.890106e+00
2.165250e+08 -5.089239e-02 -5.384994e-01
2.180000e+08 -2.823920e-02 -2.177917e+00
2.194750e+08 -3.857133e-02 -1.505824e+00
2.209500e+08 5.631458e-03 2.572845e-02
2.224250e+08 -3.702396e-02 -1.934378e+00
2.239000e+08 3.625307e-02 2.736248e-01
2.253750e+08 -2.029503e-02 -1.695767e+00
2.268500e+08 -2.219838e-02 -5.719586e-01
2.283250e+08 2.703232e-02 -2.168164e+00
2.298000e+08 -2.394025e-03 -3.512424e-01
2.312750e+08 1.825664e-02 1.390942e+00
2.327500e+08 4.788052e-03 -2.758918e-01
2.342250e+08 1.905457e-03 -3.019201e-01
2.357000e+08 3.800224e-03 -3.385705e-01
2.371750e+08 -1.720584e-02 3.689737e-01
2.386500e+08 2.851179e-02 7.088214e-01
2.401250e+08 1.448614e-02 9.534936e-01
2.416000e+08 6.938851e-03 6.465679e-01
2.430750e+08 1.387976e-02 4.245578e-01
2.445500e+08 -5.064688e-03 8.889443e-01
2.460250e+08 4.215675e-02 -7.695296e-01
2.475000e+08 1.919201e-02 -7.878859e-01
2.489750e+08 3.491988e-02 -1.069832e+00
2.504500e+08 2.633025e-02 3.225446e-01
2.519250e+08 -5.010621e-02 2.896268e+00
2.534000e+08 3.439646e-02 -2.872759e+00
2.548750e+08 -2.678483e-03 -8.382401e-01
2.563500e+08 1.081071e-01 -2.616940e+00
2.578250e+08 1.069836e-02 9.497862e-01
2.593000e+08 4.321722e-02 -1.604093e+00
2.607750e+08 -7.861778e-02 1.293870e+00
2.622500e+08 -2.042715e-02 -9.488496e-01
2.637250e+08 -5.565818e-03 -1.232461e+00
2.652000e+08 -6.987202e-02 5.014992e-01
2.666750e+08 3.207303e-02 -1.433792e+00
2.681500e+08 1.993920e-02 -9.696985e-01
2.696250e+08 -4.284720e-02 1.114817e+00
2.711000e+08 7.241002e-03 -7.856794e-01
2.725750e+08 -2.755720e-02 -6.510627e-01
2.740500e+08 -4.895341e-02 -1.508301e-01
2.755250e+08 -2.794348e-02 1.795750e-01
2.770000e+08 -1.881020e-02 -6.081607e-01
2.784750e+08 -1.030030e-02 -1.709001e-01
2.799500e+08 -2.101358e-02 -8.219339e-01
2.814250e+08 2.193022e-02 -1.373374e+00
2.829000e+08 -5.103693e-02 8.849423e-01
2.843750e+08 -2.998935e-02 -6.233520e-01
2.858500e+08 -3.736140e-02 8.358935e-01
2.873250e+08 -6.520992e-02 -1.964907e+00
2.888000e+08 -4.791777e-02 3.862758e-01
2.902750e+08 -1.103549e-02 -1.363428e+00
2.917500e+08 -5.432547e-02 -2.827461e-03
2.932250e+08 -5.911540e-02 1.819432e-01
2.947000e+08 -6.837760e-02 5.203485e-01
2.961750e+08 3.857402e-02 -2.656011e+00
2.976500e+08 -8.831290e-02 -6.810722e-01
2.991250e+08 -2.720979e-02 5.327426e-01
3.006000e+08 -2.984766e-02 7.620468e-02
3.020750e+08 -3.913629e-02 -2.790065e+00
3.035500e+08 -2.622786e-02 -3.011212e-01
3.050250e+08 -4.551684e-02 1.079150e+00
3.065000e+08 -4.382999e-02 -2.391318e-01
3.079750e+08 -3.893521e-02 2.017467e-01
3.094500e+08 -4.789471e-02 1.661671e-02
3.109250e+08 -6.770026e-02 -2.742229e+00
3.124000e+08 -6.689660e-02 6.702744e-01
3.138750e+08 -4.540762e-02 -8.615715e-01
3.153500e+08 -2.721911e-02 2.200517e-01
3.168250e+08 -1.360579e-02 -5.396917e-01
3.183000e+08 -4.843479e-02 -1.542256e-01
3.197750e+08 2.893710e-03 -3.936467e-01
3.212500e+08 -1.561422e-03 1.649648e+00
3.227250e+08 1.715889e-03 1.098061e+00
3.242000e+08 -3.628903e-02 -1.142962e+00
3.256750e+08 -4.391585e-02 -1.354526e+00
3.271500e+08 -2.441785e-03 6.822519e-01
3.286250e+08 -4.211369e-03 5.179736e-01
3.301000e+08 -3.981489e-02 -2.860747e-01
3.315750e+08 -6.816777e-02 -1.147896e+00
3.330500e+08 1.849262e-03 1.539155e+00
3.345250e+08 1.795377e-02 1.218270e+00
3.360000e+08 -3.598022e-02 -6.212600e-01
3.374750e+08 -3.149355e-05 -1.046935e-01
3.389500e+08 2.031248e-02 4.325574e-01
3.404250e+08 -2.631479e-02 -3.090444e-01
3.419000e+08 -1.416986e-02 -6.909459e-01
3.433750e+08 1.670592e-02 1.625974e+00
3.448500e+08 -1.561994e-02 -4.513707e-01
3.463250e+08 -1.359000e-02 -1.976171e-01
3.478000e+08 -8.497861e-03 5.515120e-01
3.492750e+08 -4.596126e-02 3.243175e-01
3.507500e+08 1.402585e-03 8.442492e-01
3.522250e+08 -1.752153e-02 8.042986e-01
3.537000e+08 -2.810885e-03 -4.254052e-01
3.551750e+08 2.136186e-02 4.633675e-01
3.566500e+08 -3.424669e-02 1.341214e+00
3.581250e+08 -3.615994e-02 4.155331e-01
3.596000e+08 1.120443e-03 -1.486806e+00
3.610750e+08 1.914024e-02 -2.040176e+00
3.625500e+08 4.284508e-03 -5.007889e-02
3.640250e+08 2.433235e-02 -7.590002e-01
3.655000e+08 -8.403746e-03 -5.014880e-01
3.669750e+08 -1.573826e-02 1.303343e-02
3.684500e+08 1.249495e-02 -1.183398e-01
3.699250e+08 -2.502807e-02 5.137448e-01
3.714000e+08 2.089337e-02 -1.608515e+00
3.728750e+08 -9.148786e-03 -4.582603e-01
3.743500e+08 -1.196961e-02 1.485934e-02
3.758250e+08 1.140762e-02 -2.341004e+00
3.773000e+08 3.338362e-02 -1.886393e+00
3.787750e+08 1.611990e-02 -1.164325e+00
3.802500e+08 -6.123079e-02 7.288101e-01
3.817250e+08 -3.468845e-02 -4.523178e-01
3.832000e+08 -2.134196e-02 6.743144e-02
3.846750e+08 2.672700e-02 -1.282206e+00
3.861500e+08 2.902375e-02 -5.621323e-01
3.876250e+08 -1.228515e-01 1.223166e+00
3.891000e+08 -4.585656e-02 2.354884e+00
3.905750e+08 -6.374390e-02 1.337529e+00
3.920500e+08 -5.099433e-02 -3.896621e-01
3.935250e+08 -3.302615e-02 -9.505102e-01
3.950000e+08 -5.561898e-03 -4.693133e-01
3.964750e+08 -5.267040e-02 7.348270e-01
3.979500e+08 -8.269842e-03 -1.684337e+00
3.994250e+08 -7.297074e-02 1.968219e+00
4.009000e+08 4.073963e-02 -7.666297e-01
4.023750e+08 -4.374837e-02 2.605699e+00
4.038500e+08 -1.005723e-02 -1.915290e+00
4.053250e+08 -2.691808e-02 3.582261e-02
4.068000e+08 -4.040170e-02 -8.111585e-01
4.082750e+08 -1.133487e-02 7.832430e-01
4.097500e+08 -1.797432e-02 1.532069e-01
4.112250e+08 -4.847228e-02 -1.398071e+00
4.127000e+08 -4.370497e-02 -1.552125e+00
4.141750e+08 2.061218e-02 -6.684537e-01
4.156500e+08 -3.263804e-02 1.066730e-01
4.171250e+08 -1.139745e-02 -1.490329e+00
4.186000e+08 -4.363881e-02 1.222879e-01
4.200750e+08 -4.849801e-02 1.174453e+00
4.215500e+08 -8.814640e-02 4.778483e-01
4.230250e+08 -3.488843e-02 -1.013452e+00
4.245000e+08 -5.549660e-02 1.228054e+00
4.259750e+08 -3.918615e-02 -7.520361e-02
4.274500e+08 -5.231161e-02 -1.704473e+00
4.289250e+08 -1.548195e-02 -1.028409e-01
4.304000e+08 -3.837518e-02 -1.064579e+00
4.318750e+08 -3.319658e-02 1.584200e-02
4.333500e+08 -8.411374e-02 -1.223976e+00
4.348250e+08 -2.967015e-02 8.937366e-01
4.363000e+08 -3.339386e-02 2.560216e+00
4.377750e+08 2.281654e-04 1.349185e+00
4.392500e+08 -6.646732e-02 2.281431e+00
4.407250e+08 -4.331174e-02 -1.104432e-02
4.422000e+08 -5.074474e-02 -1.044231e+00
4.436750e+08 -2.148966e-02 2.801486e-01
4.451500e+08 -7.322262e-02 3.548457e-01
4.466250e+08 -6.593896e-02 -1.691022e-01
4.481000e+08 -3.531106e-02 -1.125624e+00
4.495750e+08 -5.446825e-02 -8.659307e-01
4.510500e+08 -6.556498e-02 2.587854e-01
4.525250e+08 -6.405910e-02 -2.656791e+00
4.540000e+08 -3.548445e-02 1.192335e+00
4.554750e+08 -7.332856e-02 -8.636810e-02
4.569500e+08 -5.982747e-02 -2.221382e-01
4.584250e+08 -2.369179e-02 4.353897e-01
4.599000e+08 -5.864102e-02 1.141676e-01
4.613750e+08 -4.517284e-02 -2.655187e+00
4.628500e+08 -1.090363e-02 6.977972e-01
4.643250e+08 -1.684752e-02 -1.433499e-01
4.658000e+08 -1.013255e-02 -3.709076e+00
4.672750e+08 -1.463545e-02 -1.135820e+00
4.687500e+08 -4.918463e-02 -9.285772e-01
4.702250e+08 -3.881763e-02 -8.402437e-01
4.717000e+08 -3.337788e-02 -2.034377e+00
4.731750e+08 -2.269954e-02 -9.856168e-01
4.746500e+08 -2.938043e-03 -1.257500e-01
4.761250e+08 -3.212322e-02 -3.630255e+00
4.776000e+08 4.469268e-03 -1.214799e+00
4.790750e+08 -3.255897e-02 -1.179975e+00
4.805500e+08 -5.843182e-02 1.489792e+00
4.820250e+08 -3.819076e-02 1.025584e-01
4.835000e+08 -3.006331e-02 1.489864e+00
4.849750e+08 -5.079310e-04 -1.789328e+00
4.864500e+08 -5.336287e-02 7.935588e-01
4.879250e+08 -5.773092e-02 9.995611e-02
4.894000e+08 -3.048795e-02 5.721502e-01
4.908750e+08 -7.651404e-02 8.841164e-01
4.923500e+08 9.423187e-03 -3.081413e+00
4.938250e+08 -1.924907e-03 -7.827070e-01
4.953000e+08 1.783653e-02 6.675210e-01
4.967750e+08 -3.056010e-02 -4.890483e-02
4.982500e+08 1.970777e-02 -2.323444e+00
4.997250e+08 -5.729134e-03 -1.592836e+00
5.012000e+08 -1.523706e-02 1.155579e+00
5.026750e+08 -4.765175e-02 8.414368e-01
5.041500e+08 -6.874954e-02 1.822391e+00
5.056250e+08 -6.307675e-02 2.264369e+00
5.071000e+08 -3.922753e-03 -6.262674e-01
5.085750e+08 -4.779893e-02 7.364823e-01
5.100500e+08 -5.445265e-02 -1.582760e+00
5.115250e+08 -4.194145e-03 3.614940e-01
5.130000e+08 -1.975272e-02 -1.420646e+00
5.144750e+08 -7.858586e-03 -1.318540e+00
5.159500e+08 -3.105993e-02 1.020856e+00
5.174250e+08 -9.517904e-03 3.784634e-01
5.189000e+08 -4.483300e-02 -2.164281e+00
5.203750e+08 -3.117386e-02 -7.861451e-01
5.218500e+08 -2.890411e-04 -1.646116e+00
5.233250e+08 -6.861872e-02 -6.786377e-01
5.248000e+08 -1.222234e-02 7.880849e-01
5.262750e+08 -3.745370e-02 -2.892823e+00
5.277500e+08 -4.340604e-02 -2.857549e-01
5.292250e+08 -5.087803e-02 1.110708e+00
5.307000e+08 -4.462902e-02 2.794314e-01
5.321750e+08 -5.768077e-02 1.480086e+00
5.336500e+08 -2.101578e-02 -3.099360e+00
5.351250e+08 -5.361219e-02 -7.605340e-01
5.366000e+08 -5.645764e-02 -1.927657e+00
5.380750e+08 -1.003106e-01 2.654363e+00
5.395500e+08 -2.037003e-02 -5.428676e-01
5.410250e+08 -1.162900e-02 -1.360191e+00
5.425000e+08 -7.725716e-02 -1.760636e+00
5.439750e+08 -8.323363e-03 2.303453e+00
5.454500e+08 -9.126552e-02 -8.635105e-02
5.469250e+08 -7.210900e-02 -1.366758e+00
5.484000e+08 -4.628803e-02 1.353327e+00
5.498750e+08 -1.478209e-02 -8.489160e-01
5.513500e+08 -7.795307e-02 8.048283e-01
5.528250e+08 -8.155748e-02 2.345461e-01
5.543000e+08 -6.848280e-02 -1.721112e+00
5.557750e+08 -6.035547e-02 2.350606e-01
5.572500e+08 -1.003572e-01 3.309170e-01
5.587250e+08 -5.801522e-02 -8.545049e-01
5.602000e+08 -3.819669e-02 -9.645652e-01
5.616750e+08 -5.833904e-03 1.198121e+00
5.631500e+08 -9.764866e-02 9.347186e-01
5.646250e+08 -1.267535e-02 -3.181962e+00
5.661000e+08 -4.287754e-02 -1.368355e+00
5.675750e+08 -3.802894e-02 1.614493e+00
5.690500e+08 -6.904559e-02 -5.630623e-01
5.705250e+08 -4.907327e-02 -6.690737e-01
5.720000e+08 -9.766061e-02 -5.482251e-01
5.734750e+08 -8.200139e-02 -3.181663e+00
5.749500e+08 -5.688199e-02 -9.064073e-01
5.764250e+08 -5.183406e-02 -2.712830e-01
5.779000e+08 -7.332623e-02 1.027656e+00
5.793750e+08 -4.787253e-02 -1.013923e+00
5.808500e+08 -8.488830e-02 -1.235153e+00
5.823250e+08 -4.892166e-02 -2.074681e+00
5.838000e+08 -1.014189e-01 2.076519e+00
5.852750e+08 4.443141e-03 4.094006e-02
5.867500e+08 -2.909470e-02 7.865095e-01
5.882250e+08 -5.172021e-02 -7.699487e-01
5.897000e+08 -5.798521e-02 -5.272971e-02
5.911750e+08 4.867028e-03 -2.009680e+00
5.926500e+08 -2.595462e-02 -1.084048e+00
5.941250e+08 -3.897523e-02 -1.065845e+00
5.956000e+08 -3.657226e-02 -3.967923e-01
5.970750e+08 -8.462426e-02 -6.002110e-01
5.985500e+08 1.465648e-02 6.326542e-01
6.000250e+08 -7.114172e-02 3.009359e+00
6.015000e+08 -3.937075e-02 -1.629743e+00
6.029750e+08 -1.551906e-02 3.911343e-01
6.044500e+08 -4.194738e-02 4.309462e-01
6.059250e+08 3.030112e-02 1.158162e+00
6.074000e+08 -6.342984e-03 -2.647976e-01
6.088750e+08 -8.803700e-02 6.143703e-01
6.103500e+08 2.026329e-02 1.683815e+00
6.118250e+08 6.022988e-02 7.812113e-01
6.133000e+08 -5.617596e-02 -2.522030e+00
6.147750e+08 1.304161e-03 1.039239e+00
6.162500e+08 -5.259251e-02 1.092500e+00
6.177250e+08 1.464696e-02 1.004777e+00
6.192000e+08 -2.661648e-02 -7.964708e-01
6.206750e+08 -2.854696e-02 -2.625178e-02
6.221500e+08 -7.138931e-02 1.516809e+00
6.236250e+08 -3.346640e-02 -1.136136e+00
6.251000e+08 2.852579e-02 8.661505e-03
6.265750e+08 -1.233697e-02 -1.606003e+00
6.280500e+08 -9.933855e-03 -2.282152e+00
6.295250e+08 -5.534807e-02 -4.209348e-02
6.310000e+08 -2.799871e-02 -1.253720e+00
6.324750e+08 -3.406817e-02 -2.216156e+00
6.339500e+08 -2.171637e-02 1.863076e+00
6.354250e+08 -2.357729e-02 9.580186e-01
6.369000e+08 2.767616e-02 1.589173e-01
6.383750e+08 -6.988478e-03 -3.068126e+00
6.398500e+08 -1.052096e-01 1.949351e+00
6.413250e+08 -1.062699e-03 -1.184392e+00
6.428000e+08 5.028812e-02 -1.769085e+00
6.442750e+08 -1.661778e-02 -1.749522e+00
6.457500e+08 -3.529186e-03 -5.029149e-01
6.472250e+08 -5.242637e-02 2.107199e+00
6.487000e+08 -4.051206e-02 -7.726820e-01
6.501750e+08 -4.124334e-02 -6.977816e-01
6.516500e+08 -3.303414e-02 -4.526097e-01
6.531250e+08 -3.810639e-03 -3.438959e-01
6.546000e+08 2.310786e-03 -2.751034e+00
6.560750e+08 -5.182462e-02 -4.480563e-01
6.575500e+08 -8.111922e-02 3.071981e-01
6.590250e+08 1.386975e-02 -2.720243e+00
6.605000e+08 -6.155503e-02 -1.308789e+00
6.619750e+08 -9.524251e-02 8.037210e-01
6.634500e+08 -4.818921e-03 -9.673817e-01
6.649250e+08 1.638290e-03 -1.853313e+00
6.664000e+08 -5.400267e-02 -2.758858e-01
6.678750e+08 -6.538660e-02 -6.615782e-01
6.693500e+08 -1.107481e-01 1.638786e+00
6.708250e+08 -5.220903e-02 -5.200912e-01
6.723000e+08 6.496304e-04 -3.235453e+00
6.737750e+08 -1.512254e-02 -2.017051e+00
6.752500e+08 -7.124075e-02 -4.267123e-02
6.767250e+08 -2.497424e-02 -2.037866e+00
6.782000e+08 -4.524694e-02 9.216839e-01
6.796750e+08 -1.735313e-01 1.921405e+00
6.811500e+08 -8.322567e-02 -3.172914e+00
6.826250e+08 -7.730989e-02 7.486258e-01
6.841000e+08 -1.317908e-01 3.342249e+00
6.855750e+08 -7.803205e-02 3.408808e-01
6.870500e+08 -4.123373e-02 -2.131419e+00
6.885250e+08 -6.998204e-02 6.204352e-01
6.900000e+08 -4.116330e-02 -1.180759e+00
6.914750e+08 -1.929712e-02 7.677591e-01
6.929500e+08 -4.186303e-02 -2.168343e+00
6.944250e+08 -4.729556e-02 -1.503829e-01
6.959000e+08 -7.466472e-03 -1.206838e+00
6.973750e+08 -7.827385e-02 -1.033881e+00
6.988500e+08 -4.924530e-02 4.021491e-01
7.003250e+08 -4.810191e-02 -9.464375e-01
7.018000e+08 -1.185034e-01 3.294318e-01
7.032750e+08 -1.380458e-02 -2.986892e+00
7.047500e+08 -5.994172e-02 -1.010565e+00
7.062250e+08 -1.314167e-02 -5.194355e-01
7.077000e+08 -6.274028e-02 -1.133834e-01
7.091750e+08 -1.685440e-02 8.823025e-01
7.106500e+08 -1.397512e-02 -5.611670e-02
7.121250e+08 -7.061720e-02 -7.621524e-01
7.136000e+08 3.289489e-03 2.143314e+00
7.150750e+08 -1.112327e-01 -9.473143e-01
7.165500e+08 -3.678680e-02 5.240374e-01
7.180250e+08 -7.148152e-02 1.215380e+00
7.195000e+08 -7.187567e-02 1.032182e+00
7.209750e+08 -4.686776e-02 1.536783e+00
7.224500e+08 -1.598230e-02 1.251094e+00
7.239250e+08 4.079729e-02 -5.034281e-01
7.254000e+08 7.322281e-03 6.739612e-01
7.268750e+08 -3.846977e-02 -2.634132e-03
7.283500e+08 -4.015253e-02 -1.435806e+00
7.298250e+08 -2.234003e-02 -6.190360e-01
7.313000e+08 1.278048e-02 4.665492e-01
7.327750e+08 1.679067e-02 1.620634e+00
7.342500e+08 4.439900e-03 1.122096e+00
7.357250e+08 -1.556191e-02 -4.164625e-01
7.372000e+08 -1.211379e-02 9.705872e-01
7.386750e+08 -5.959263e-02 -1.850207e-01
7.401500e+08 -2.438474e-02 -1.292006e+00
7.416250e+08 -8.860017e-03 -1.227016e+00
7.431000e+08 -1.770272e-02 -1.640374e+00
7.445750e+08 -6.732341e-02 2.001154e-01
7.460500e+08 -6.084889e-02 -1.515885e+00
7.475250e+08 -1.527331e-02 -7.570889e-01
7.490000e+08 -3.470446e-02 -9.245091e-01
7.504750e+08 -3.004947e-02 3.235799e-01
7.519500e+08 -7.839272e-02 3.584791e-01
7.534250e+08 -2.552075e-02 8.643529e-01
7.549000e+08 -6.485198e-02 1.829794e+00
7.563750e+08 3.485373e-02 -2.025276e-01
7.578500e+08 -3.710869e-02 -9.004080e-01
7.593250e+08 -2.903446e-02 -2.513242e+00
7.608000e+08 -1.126580e-01 4.469772e-01
7.622750e+08 -9.704578e-02 1.443301e+00
7.637500e+08 -2.363155e-02 -1.765218e+00
7.652250e+08 -1.285851e-01 3.409823e-01
7.667000e+08 -1.197337e-02 -6.619696e-01
7.681750e+08 -9.095842e-03 -3.864819e+00
7.696500e+08 -4.125468e-02 -3.274214e-01
7.711250e+08 -4.077908e-02 2.029182e-01
7.726000e+08 -7.647546e-02 1.484213e+00
7.740750e+08 -2.851741e-02 -3.613959e-01
7.755500e+08 -5.109220e-02 -1.831679e+00
7.770250e+08 -1.263138e-02 -8.209092e-01
7.785000e+08 -2.661258e-02 -1.474761e+00
7.799750e+08 -5.213472e-02 -9.291747e-02
7.814500e+08 -6.567192e-02 -7.160689e-01
7.829250e+08 -2.056050e-02 -2.280963e+00
7.844000e+08 -1.649463e-01 8.491338e-01
7.858750e+08 -1.243744e-01 2.747672e-01
7.873500e+08 -1.554865e-01 1.522577e+00
7.888250e+08 -1.265064e-01 7.597972e-01
7.903000e+08 -8.211790e-02 1.796658e+00
7.917750e+08 -1.043369e-01 1.242025e+00
7.932500e+08 -8.902158e-03 -1.984102e+00
7.947250e+08 -1.380025e-01 -2.653872e-01
7.962000e+08 -7.068638e-02 3.877871e-01
7.976750e+08 -5.552273e-02 -5.793212e-01
7.991500e+08 -1.380099e-01 2.679658e+00
8.006250e+08 -1.040869e-01 1.811603e+00
8.021000e+08 -4.436747e-02 6.065880e-01
8.035750e+08 -6.920523e-02 -4.172411e-01
8.050500e+08 -9.224200e-02 -1.642233e-01
8.065250e+08 -5.963678e-02 -6.716316e-01
8.080000e+08 -9.277257e-02 1.095246e+00
8.094750e+08 -4.581219e-02 -3.472372e-01
8.109500e+08 -2.285624e-02 1.104068e-02
8.124250e+08 -9.489833e-02 -1.173631e+00
8.139000e+08 -1.107241e-01 1.475502e+00
8.153750e+08 -6.122272e-02 -5.265480e-01
8.168500e+08 -7.259473e-02 -2.765674e-01
8.183250e+08 -1.914871e-02 -2.606883e-01
8.198000e+08 -1.114989e-01 -1.179400e+00
8.212750e+08 -9.813523e-02 1.210708e+00
8.227500e+08 -4.800892e-02 -1.378160e+00
8.242250e+08 -6.062557e-02 3.413891e-01
8.257000e+08 -5.510375e-02 -5.280873e-01
8.271750e+08 -2.600908e-02 2.582919e-01
8.286500e+08 -5.601848e-02 -2.729287e+00
