!Created with skrf (http://scikit-rf.org).
# MHz S RI R 50.0 
!freq ReS11 ImS11 ReS21 ImS21 ReS12 ImS12 ReS22 ImS22
100.0 0.033628642053520605 0.019027201744754335 0.019397696171135778 -0.2027091912951014 0.015242684258163402 -0.2041695888340241 0.03832893141454911 0.017216729554991615
105.9 0.03677714631630059 0.015441020882815532 -0.007454087281261338 -0.2030799785766675 -0.011109741127187248 -0.20431535127212783 0.04097692073424077 0.014055492233869257
111.8 0.03445589589908213 0.06156186892401055 -0.15746862452527008 -0.12819308144927966 -0.14743742038631197 -0.13445394938919208 0.03425044417548212 0.06892653117749872
117.7 0.03831421532981804 0.05632773094621535 -0.17239385607225027 -0.10645363553834747 -0.16619420581114935 -0.11489320983320556 0.03862632724455359 0.06478175566585476
123.6 0.04201904263431611 0.05238075878937319 -0.1847410048217152 -0.08344141131697835 -0.17898810834736642 -0.0923235914583502 0.04258949420609821 0.05983318625380459
129.5 0.04520832313168428 0.046388751486001446 -0.19352757442872828 -0.05979234480198051 -0.18986228025925114 -0.0687182064506847 0.046049073521923355 0.05479790655461878
135.4 0.045947278639374145 0.041656057794014156 -0.20030649605655212 -0.034521309131920155 -0.1975177381259103 -0.04398611048677652 0.04885143758744193 0.048970323757529466
141.3 0.04849858096887354 0.03603512561137656 -0.20289099234500024 -0.00869182086909294 -0.20108971825465058 -0.017779534626473525 0.05073380651028303 0.042792498353773814
147.2 0.049265912361536476 0.03049619830914989 -0.20247426323575973 0.017466538377446186 -0.2019132500188951 0.007246199255319988 0.0519107985427768 0.03791525417753483
153.1 0.048971322994004 0.026307242365669295 -0.19731063945077973 0.045091897759766214 -0.19936503118915813 0.03369358819837883 0.05302998430710381 0.03246980677208924
159.0 0.04943707094504512 0.0212980299062755 -0.19027251069183718 0.06912087181149217 -0.193079223382184 0.05833552593743352 0.05380031987734889 0.02743087952444488
164.9 0.05031559222890566 0.016321779371533913 -0.18034314294941267 0.09337725867897864 -0.1842769746933643 0.08378796088632941 0.053503545551218355 0.021706172326546033
170.8 0.04827324659308667 0.012362194275383348 -0.16573267781800036 0.11659319765704639 -0.17287315843380763 0.10589619943023437 0.052671352634460475 0.016920104622200192
176.7 0.04761817018732709 0.007391013029696085 -0.14906218820713996 0.13615190378900055 -0.1571764053084286 0.1272601517642127 0.05184097415691499 0.011794814796143189
182.60000000000002 0.04785337894324422 0.003749161209966296 -0.13049815063753145 0.15517183285905506 -0.13995405404411698 0.14620899764208017 0.05098990872354257 0.00786160062042427
188.5 0.04525794431887718 -0.0007724100512657834 -0.11054883891106194 0.16986603052658045 -0.11922132284005461 0.16313854538350792 0.04965042777439989 0.0034287231319881186
194.4 0.04477975949703709 -0.004140346612474438 -0.08727289857683376 0.1832859122250517 -0.09916511184071537 0.17738774539302168 0.04916952579782568 -0.00042247859662122085
200.3 0.042234593450614276 -0.007229282943826687 -0.06253673427187609 0.19368350722021302 -0.07502718438188705 0.18807399832380606 0.04643200578003979 -0.005717207256599403
206.2 0.04014866501389465 -0.01157694537487452 -0.037851735442359494 0.19876474536759503 -0.04987713923977053 0.19610718366444418 0.044175679220370086 -0.009714954839772846
212.10000000000002 0.037920558637259766 -0.014389483490449531 -0.012037048903760065 0.20270723389963713 -0.02461432939758267 0.2005437558362475 0.04248400742360644 -0.012982739723405544
218.0 0.034702939523486485 -0.017585886142024526 0.01346189331332696 0.20234503645352875 0.0008556645102575427 0.20262982627793066 0.03935031961577421 -0.017101135799093746
223.9 0.031462803630444 -0.020354314394121543 0.04029835713021778 0.19832633494938037 0.027557541594966973 0.20075996530694656 0.03569813831316713 -0.02086934746517737
229.8 0.02800323471420015 -0.022515413611445413 0.06586897063667102 0.19121191331162019 0.052007406093425725 0.19523865856202072 0.03278006038110761 -0.023141652337967823
235.70000000000002 0.02469231359921853 -0.024102618470240596 0.08912673189256744 0.1818908520266648 0.07762180367252806 0.18826717988422717 0.02868009997577823 -0.025001521127426596
241.60000000000002 0.020740754797713715 -0.02595818297707632 0.11313568706783259 0.1692978591584882 0.10095687794403588 0.1766813605039325 0.023886285686832282 -0.026969239837671428
247.5 0.016066651420834077 -0.026732556574493527 0.13375641806966573 0.1520481889160872 0.12323376485674266 0.1622836663872216 0.019437784998620384 -0.02783194666394459
253.4 0.012555114810695439 -0.02676755517701969 0.15260750198573877 0.1343509051364657 0.14334959232473674 0.1448370397186487 0.014407808109575792 -0.02803351219567141
259.3 0.008266831173657042 -0.02663448489077848 0.1690787124006672 0.1141953970682658 0.1609799805204092 0.12644043316282966 0.010423278379734249 -0.028475405501529154
265.20000000000005 0.005196290299580876 -0.026114571454815445 0.1822807873914872 0.09065470206554023 0.17584234717890465 0.10441015714866039 0.006051175464988438 -0.02732557347040351
271.1 0.001970217911377306 -0.02489422976975485 0.19262499691972815 0.06692182537142485 0.1862655691449799 0.07993711976034952 0.0016342335292471152 -0.02525066682801197
277.0 -0.000981847104794186 -0.023062367923783657 0.20002251447228636 0.04047583524480639 0.1944708484764601 0.05521197259974411 -0.002095089819614835 -0.02254942048369015
282.9 -0.004364656948715281 -0.021740172525551788 0.20590232976121173 0.014674636443043709 0.19942170346633012 0.029838179143142084 -0.00696523677376926 -0.019900446380617526
288.8 -0.007999230054173823 -0.02003146729057049 0.2045068667154391 -0.011558023293668892 0.20224475673180123 0.004116576198072227 -0.008395175647301634 -0.0163541954051381
294.70000000000005 -0.009291182521965523 -0.01670237071464247 0.20157649662830335 -0.03865534669123652 0.20167279336532043 -0.02160602709178989 -0.0108733629708633 -0.013881937320720121
300.6 -0.01138923253392115 -0.012839309649262925 0.19463700291579678 -0.06434896782458434 0.19784050427132308 -0.04769957472183795 -0.011543659200023539 -0.009425850439946964
306.5 -0.013674299139182729 -0.011241347706313128 0.1843851899266918 -0.08877616637297239 0.18906634505950795 -0.0719858941556373 -0.015061190826495563 -0.007272768432521618
312.4 -0.015159502235946962 -0.008501516435571491 0.17164583100374978 -0.11212464454077592 0.17839193186437563 -0.09550047887414566 -0.015631271032316367 -0.0023171088122350787
318.3 -0.015335464467532844 -0.004816832997879988 0.15546697986958366 -0.13324212409651903 0.16556135960162532 -0.11874463727572242 -0.015789905554895997 0.0015548281834529833
324.20000000000005 -0.01667639309116281 -0.001288734798696654 0.13756895648720624 -0.15203447379572624 0.14914850264348534 -0.1387874949613829 -0.016989915146338252 0.006074702887313009
330.1 -0.015357316315176015 0.0024571397358582295 0.11599989639831562 -0.16961253457594497 0.1296774549877457 -0.15633719447945438 -0.014833944448304114 0.00966725729594868
336.0 -0.015751893733503507 0.004886835062196613 0.09284511780682429 -0.18251404694209955 0.10838913695782597 -0.17248802011713124 -0.014626564081950523 0.014681292953304314
341.9 -0.013783940995280226 0.008250256808875629 0.06861433289172128 -0.19294689018107744 0.08505987301297875 -0.18442715827197234 -0.01223051868090831 0.018394219420819598
347.8 -0.013396939085290693 0.01266543594036458 0.0446297501342616 -0.19923013259078923 0.06107347073339032 -0.19362763050630546 -0.009876899291987748 0.02308185536190119
353.70000000000005 -0.010982453803674212 0.015978067529953306 0.016806989995924136 -0.2038176245891041 0.03564452628361625 -0.199678645611891 -0.00767422575828809 0.026200187314575844
359.6 -0.00979496451517895 0.018175123924047756 -0.008706837719046087 -0.20499924933737745 0.009511229863756224 -0.2027620205077786 -0.003616154289422194 0.028249251913210947
365.5 -0.0073203390126207165 0.0208292957326935 -0.035465997749698684 -0.20206391960275233 -0.01619101456097948 -0.2026610540607852 0.0013194999723303152 0.031034611895746963
371.40000000000003 -0.003879535297679804 0.02283914673521754 -0.06115786329166176 -0.1948981847330521 -0.042713044492475705 -0.1991811693927729 0.005615548885882777 0.03287400619800748
377.3 -0.00012980164778709702 0.024414590146429636 -0.08572953305917247 -0.18464390854162577 -0.06703197859434239 -0.19231909854137372 0.01038092579048467 0.034639351182624595
383.20000000000005 0.0030270058372039387 0.025491077294072163 -0.10824340979208347 -0.1717577026943228 -0.09135105216362484 -0.18174107932183667 0.014175281935616511 0.03502840597566668
389.1 0.007924384826598869 0.026644842212594954 -0.1301781336821943 -0.15600354259873442 -0.1138988808852856 -0.16838004266130846 0.0210724026920192 0.033155164880892964
395.0 0.011105763275182876 0.02629053632438265 -0.14900411352136977 -0.13701072409784906 -0.1341648672280954 -0.15191023718974564 0.02486321309645358 0.032528396367137384
400.90000000000003 0.015050250410372019 0.025596246807897998 -0.16560334358269668 -0.1166001156438314 -0.15228066291386108 -0.1336304746419429 0.029083931914227305 0.03025728656099607
406.8 0.01805879600114751 0.02610602381477313 -0.17877383419674708 -0.0944040045266739 -0.16819209326240464 -0.11289512127012352 0.03289213037653519 0.027831375876264698
412.70000000000005 0.022120638764421986 0.02504631739094129 -0.18919289289696925 -0.07077063890492936 -0.1813130118742911 -0.0904138792948876 0.03675134408242992 0.025251382826555355
418.6 0.02514986142389092 0.023468207754842953 -0.1961265810630283 -0.04530023491828418 -0.1919099297913624 -0.06677737017328099 0.03956379422940753 0.02253925779892714
424.5 0.028495041280669382 0.02113830835851054 -0.19982288714795107 -0.018506380808032335 -0.19896260975732746 -0.0414638484502337 0.04436863333628755 0.01961181133265146
430.40000000000003 0.031756013144181416 0.01835606342662742 -0.2010220261317522 0.00690065312842775 -0.20088352499638615 -0.013873496774118409 0.04589477522125642 0.014321161879790637
436.3 0.035190113411497505 0.015813296833040422 -0.1985390389584107 0.0336583301510916 -0.19973346769647737 0.011386745180008224 0.049382170361309756 0.011282917826348587
442.20000000000005 0.03714296786628068 0.01289962154916447 -0.19184863176023653 0.05810251618751693 -0.19718034905612583 0.03617510763514804 0.052110794064320815 0.006551897498073431
448.1 0.04034969904152807 0.008356960296748229 -0.18188278892802348 0.08269451848833945 -0.19029716915783867 0.06179735045593153 0.05383156850158423 0.0007922297176637335
454.0 0.04310161751138889 0.005276953765811108 -0.1696687005526398 0.10575485954210502 -0.18144357033513123 0.08645438141007929 0.055647285050272 -0.0045243148697856365
459.90000000000003 0.044386775129933984 0.002019966607937849 -0.15462132795063382 0.1263691607531981 -0.16918991932927968 0.10782698363244976 0.05564976116206121 -0.008958611421135161
465.8 0.045798237446077854 -0.003718373216042403 -0.13687925310688662 0.14481324375189086 -0.15434389445396005 0.12942663870608803 0.05653846282307452 -0.014610935525224897
471.70000000000005 0.046617835318327826 -0.007800793478180615 -0.11831573235273204 0.16028588294730997 -0.13543461310383775 0.14721786817931234 0.05713083423261827 -0.020239807648313856
477.6 0.0467581277878375 -0.013521236182495486 -0.09501587761430934 0.1742437912593312 -0.11635535421797501 0.1633481057930743 0.056059100705066485 -0.026349037850306414
483.5 0.04669493097727632 -0.017716701406105418 -0.07254294579889159 0.18567005317358545 -0.09376131621099905 0.17774056721137615 0.05455843667446887 -0.032359284873705076
489.40000000000003 0.04530568227263887 -0.02388505051483748 -0.04732006260848064 0.19218592349436156 -0.0716176361410766 0.18816552511471238 0.05208759853243914 -0.03768313955525177
495.3 0.04383126805533353 -0.028162203264139294 -0.022106236334096245 0.19672574286845304 -0.04729747560217579 0.19505856597829124 0.049668481168820215 -0.04305997049773713
501.20000000000005 0.041571546819457406 -0.03288473213704257 0.0037290417479885233 0.19862099943006697 -0.02083017202760146 0.19901585247373216 0.0457609962654204 -0.048232822304643645
507.1 0.037960318057805365 -0.03752413264489727 0.028587928189395952 0.1957961578714042 0.003939319673286419 0.20043589572444187 0.04226822023606594 -0.05245221298528448
513.0 0.034938026690145736 -0.04196608342224764 0.05393197741968886 0.19066345329497902 0.029230961348420376 0.1978191947831528 0.035993828428761615 -0.05693320261509725
518.9000000000001 0.031055945246404138 -0.04604833369579121 0.07757395782178922 0.18180721389625384 0.05456848215758693 0.19300148888515523 0.03161083937943682 -0.061435374483964716
524.8 0.027606843227881622 -0.0481389088654978 0.1010494006202332 0.17057536572699472 0.0793416598326142 0.18349034674298262 0.025785860717761885 -0.06465745801596466
530.7 0.023289193737899838 -0.051120418326453795 0.1220401418636487 0.156047476451519 0.10075649094331793 0.17244421770397375 0.020291144333799603 -0.06660031746944875
536.6 0.0183707706229068 -0.0531015337688267 0.1405043031630912 0.1387812911066119 0.12303824747510922 0.1587529924722498 0.014272333268837726 -0.06831310171927359
542.5 0.013774252809372833 -0.05512387435646848 0.15645897073083015 0.11991375074378863 0.14177353428929762 0.14186335659389562 0.008808664628779472 -0.0692085088824178
548.4000000000001 0.008813929906507647 -0.05665455016533555 0.17092235892626695 0.09797235854953625 0.15966435618562894 0.12262492912983147 0.0025731156707424962 -0.06952559890771559
554.3 0.004305569321646003 -0.057207265547657406 0.1812227415125066 0.07459402675715784 0.1736258267565028 0.10192854437496361 -0.0037306747234938115 -0.06985667270885466
560.2 -0.00014746836567764275 -0.05845289733033792 0.18937646691468668 0.05097510236961482 0.18564714991938977 0.07835930162473995 -0.00900316667734548 -0.06892653880363196
566.1 -0.005307638780520992 -0.05746381209564024 0.19415332709737385 0.02618402633324284 0.1939529152630454 0.054531331258193025 -0.01614523352425774 -0.0681573253062778
572.0 -0.01063004717580084 -0.05825110345479927 0.19658377337776173 0.0011194718374180487 0.19941188235065896 0.029733151408092892 -0.020612010454278334 -0.06633813159416536
577.9000000000001 -0.016298970816584595 -0.05757398592208037 0.19490867499196382 -0.023480872515370142 0.20173356043579632 0.0042043770243799196 -0.02663198828832893 -0.06430581429991626
583.8 -0.021232089878589083 -0.05667966151696282 0.19013848659872284 -0.04858154025762183 0.20085634392025786 -0.02229090482598308 -0.03189429304925274 -0.06175474041705845
589.7 -0.026235134432540667 -0.05438849227279789 0.18163673648131531 -0.07260432906652108 0.19549491925492335 -0.04662363950035481 -0.03646616433354096 -0.058587752719362944
595.6 -0.030279972465193702 -0.0522774608629219 0.17224532563284753 -0.09435488171314567 0.1852829944475025 -0.06958350157760303 -0.04244993179334818 -0.05573924641402902
601.5 -0.036892359080541316 -0.048967502448378525 0.15797078037679294 -0.11601555977682888 0.17461147570693814 -0.09141127626687023 -0.04613318689951191 -0.05199034717039096
607.4000000000001 -0.040553301726982856 -0.04604842310013589 0.14288221297801385 -0.13562947629583733 0.16147783562026743 -0.11267005437500943 -0.051658001453884925 -0.04686847376982699
613.3000000000001 -0.04466189136573124 -0.04101729271215602 0.12454143530913374 -0.1524441366864099 0.14595898290888404 -0.13270652074400385 -0.05491750700237148 -0.04154371395222339
619.2 -0.047421341036582805 -0.03637036171199514 0.10475383492689991 -0.1671727853705714 0.12854859978326966 -0.15154098584479966 -0.05794682114612358 -0.036543840332179764
625.1 -0.05066392260601041 -0.030887173686569083 0.08179357966626832 -0.17992400919903045 0.1077376294486862 -0.16620403296449693 -0.05992387586339861 -0.030097370347977482
631.0 -0.052185392881292945 -0.02618263901725419 0.057907660067651086 -0.18892137656008165 0.08608826341528006 -0.1781548070999051 -0.06149721498042983 -0.02466908471262655
636.9 -0.05402010633251084 -0.0214647645717887 0.033440526544738725 -0.19455703973936753 0.06277372188366558 -0.18808284497989466 -0.06235605517780826 -0.01795395175559546
642.8000000000001 -0.054015185750309516 -0.015007431673168085 0.008754810676980822 -0.19809116892534256 0.03797077779104826 -0.1954478686458513 -0.06189862445033604 -0.012128126678451388
648.7 -0.05466911325054509 -0.010406334930621314 -0.01690653541976564 -0.19756251614652515 0.012884672155592502 -0.1997485116935771 -0.060121110568006265 -0.006264787983477324
654.6 -0.05292651049855112 -0.005049598592326012 -0.04330741897813935 -0.19297747488001613 -0.011971718035520636 -0.19829368143098589 -0.057954068646132645 -0.002012549492053719
660.5 -0.051790870968597365 -0.0007684032438287845 -0.06869334033551666 -0.18671611516982822 -0.03828635859627714 -0.19676389207406236 -0.05710722510978174 0.002890868845934023
666.4000000000001 -0.05001000414298987 0.0033498633816517525 -0.09155869103824398 -0.17670107471316931 -0.06264887561129341 -0.1900165407253004 -0.05513489051635504 0.0072722955262737735
672.3000000000001 -0.04858155691221178 0.006660099028246949 -0.11320344176085774 -0.16413949711104547 -0.08655269764500166 -0.1805468352045435 -0.05130041700059589 0.010279853261367586
678.2 -0.046110307245821505 0.010576264035324046 -0.13509032845227276 -0.14840031855175057 -0.10968976480194237 -0.16880492876363104 -0.049190501969469155 0.013543835893751913
684.1 -0.04464002706957158 0.012957945651495682 -0.15257303960221164 -0.1291253017466608 -0.1303321789989732 -0.15322450838656765 -0.04561137818747726 0.017288170230698688
690.0 -0.043110319104695045 0.015386044964958621 -0.16788259064558184 -0.10845419707141075 -0.1482320899199886 -0.13529212360956935 -0.04356510986316764 0.018380214559316807
695.9000000000001 -0.04121573386650312 0.018155416593069355 -0.1800308851412328 -0.08541458697206976 -0.1651862950417348 -0.11559173717053506 -0.042067979190076744 0.02111338078976442
701.8000000000001 -0.03792133850496219 0.02063445441927376 -0.1906994779540185 -0.06064023644683304 -0.17941081875986398 -0.09391834280818423 -0.038739843445668644 0.02317379407658323
707.7 -0.03596461612861709 0.02375911975604378 -0.19749664714689896 -0.03620543324699261 -0.18989448739306372 -0.07012103826801826 -0.036313404484805786 0.02419599654954593
713.6 -0.03478809699488234 0.025414465326321016 -0.19990025915092377 -0.009776600978935372 -0.19737894182525675 -0.04497346533042645 -0.03380646139902135 0.025862029788689074
719.5 -0.031677838709501124 0.027750840337129143 -0.1995377230825761 0.016796157428136338 -0.2016504400024838 -0.01807337603865864 -0.03227564883047658 0.02696736950237656
725.4000000000001 -0.028942141082201854 0.03035014818128656 -0.19578044297908753 0.042584490155331445 -0.2023196520020265 0.007336021564586459 -0.029097566929053315 0.028329226343601428
731.3000000000001 -0.02535658945846756 0.031733353140328366 -0.18916485474755526 0.06706781015390662 -0.2007104602758303 0.033780544767584526 -0.027245852765609077 0.030253201815451557
737.2 -0.02159768692245008 0.0320895043566793 -0.17868395437387916 0.09145840960766019 -0.19402618104699115 0.059249160213653486 -0.023679918784628443 0.030498338763497952
743.1 -0.0181845155033932 0.03406495159788733 -0.16537029829926542 0.11427377051553737 -0.18550477436997723 0.08356962058920006 -0.020838381869321288 0.031080667459135493
749.0 -0.014624938137584509 0.03525546346553564 -0.1487401273311482 0.13503863277562872 -0.17348177342974525 0.10727726129942222 -0.018297956104515817 0.03167551476744205
754.9000000000001 -0.010317554404748651 0.03499785331776882 -0.1299208698196695 0.15463485809481925 -0.1563333397442222 0.12601783116364373 -0.01493260733521147 0.032797685344773446
760.8000000000001 -0.006802795044378468 0.03481855688241359 -0.10871040771096133 0.16938852026050286 -0.1383458275530414 0.1458651180471068 -0.011545439910506005 0.03158141213867155
