!Created with skrf (http://scikit-rf.org).
# MHz S RI R 50.0 
!freq ReS11 ImS11 ReS21 ImS21 ReS12 ImS12 ReS22 ImS22
100.0 0.033628642053520605 0.01902720174475434 0.019397696171135785 -0.20270919129510143 0.015242684258163396 -0.2041695888340242 0.038328931414549114 0.017216729554991615
105.9 0.03677714631630058 0.015441020882815532 -0.007454087281261336 -0.20307997857666749 -0.011109741127187264 -0.20431535127212774 0.040976920734240765 0.014055492233869257
111.8 0.03445589589908213 0.06156186892401055 -0.15746862452527008 -0.12819308144927966 -0.14743742038631194 -0.13445394938919208 0.03425044417548211 0.06892653117749872
117.7 0.03831421532981804 0.05632773094621535 -0.17239385607225027 -0.10645363553834745 -0.16619420581114938 -0.1148932098332056 0.038626327244553595 0.06478175566585477
123.6 0.04201904263431612 0.0523807587893732 -0.18474100482171524 -0.08344141131697835 -0.17898810834736636 -0.09232359145835022 0.04258949420609821 0.05983318625380459
129.5 0.04520832313168429 0.04638875148600145 -0.19352757442872834 -0.05979234480198053 -0.18986228025925111 -0.06871820645068469 0.046049073521923355 0.05479790655461879
135.4 0.04594727863937415 0.041656057794014156 -0.20030649605655212 -0.034521309131920155 -0.19751773812591036 -0.04398611048677653 0.04885143758744194 0.048970323757529466
141.3 0.04849858096887355 0.03603512561137657 -0.2028909923450003 -0.008691820869092943 -0.20108971825465063 -0.01777953462647349 0.050733806510283044 0.04279249835377382
147.2 0.04926591236153647 0.03049619830914988 -0.2024742632357597 0.017466538377446182 -0.20191325001889504 0.007246199255320005 0.05191079854277679 0.03791525417753482
153.1 0.048971322994004 0.026307242365669302 -0.19731063945077976 0.04509189775976622 -0.199365031189158 0.03369358819837879 0.05302998430710382 0.032469806772089244
159.0 0.04943707094504512 0.0212980299062755 -0.19027251069183715 0.06912087181149215 -0.19307922338218403 0.058335525937433554 0.05380031987734888 0.027430879524444878
164.9 0.050315592228905665 0.01632177937153391 -0.18034314294941267 0.09337725867897864 -0.18427697469336435 0.08378796088632942 0.05350354555121836 0.02170617232654603
170.8 0.04827324659308667 0.012362194275383345 -0.16573267781800036 0.11659319765704637 -0.1728731584338076 0.10589619943023441 0.05267135263446047 0.016920104622200186
176.7 0.0476181701873271 0.0073910130296960894 -0.14906218820713996 0.13615190378900055 -0.15717640530842858 0.1272601517642127 0.05184097415691499 0.01179481479614319
182.60000000000002 0.04785337894324423 0.003749161209966296 -0.13049815063753148 0.1551718328590551 -0.13995405404411695 0.14620899764208017 0.05098990872354257 0.00786160062042427
188.5 0.045257944318877176 -0.0007724100512657805 -0.11054883891106197 0.16986603052658045 -0.11922132284005461 0.1631385453835079 0.04965042777439988 0.0034287231319881243
194.4 0.044779759497037094 -0.004140346612474437 -0.0872728985768338 0.18328591222505178 -0.09916511184071537 0.17738774539302163 0.049169525797825686 -0.00042247859662122427
200.3 0.042234593450614276 -0.0072292829438266905 -0.0625367342718761 0.19368350722021305 -0.075027184381887 0.18807399832380595 0.046432005780039795 -0.005717207256599406
206.2 0.04014866501389465 -0.011576945374874524 -0.037851735442359494 0.19876474536759503 -0.04987713923977056 0.1961071836644442 0.04417567922037009 -0.00971495483977285
212.10000000000002 0.03792055863725977 -0.01438948349044953 -0.012037048903760063 0.20270723389963713 -0.024614329397582662 0.20054375583624742 0.04248400742360644 -0.012982739723405542
218.0 0.034702939523486485 -0.017585886142024526 0.01346189331332696 0.20234503645352875 0.0008556645102575486 0.2026298262779307 0.03935031961577421 -0.017101135799093743
223.9 0.031462803630444 -0.020354314394121543 0.040298357130217774 0.19832633494938035 0.02755754159496698 0.20075996530694662 0.03569813831316713 -0.02086934746517737
229.8 0.02800323471420015 -0.022515413611445413 0.06586897063667102 0.19121191331162019 0.05200740609342572 0.19523865856202074 0.03278006038110761 -0.023141652337967823
235.70000000000002 0.02469231359921853 -0.0241026184702406 0.08912673189256745 0.18189085202666483 0.07762180367252813 0.1882671798842273 0.028680099975778233 -0.025001521127426603
241.60000000000002 0.020740754797713718 -0.025958182977076322 0.1131356870678326 0.1692978591584882 0.10095687794403589 0.17668136050393254 0.023886285686832286 -0.026969239837671428
247.5 0.016066651420834077 -0.026732556574493527 0.13375641806966573 0.1520481889160872 0.12323376485674264 0.1622836663872215 0.01943778499862038 -0.02783194666394459
253.4 0.012555114810695437 -0.02676755517701969 0.15260750198573875 0.13435090513646566 0.14334959232473674 0.1448370397186487 0.01440780810957579 -0.028033512195671403
259.3 0.008266831173657044 -0.026634484890778482 0.16907871240066727 0.11419539706826583 0.1609799805204091 0.1264404331628296 0.010423278379734249 -0.02847540550152915
265.20000000000005 0.005196290299580875 -0.026114571454815445 0.18228078739148723 0.09065470206554023 0.17584234717890468 0.10441015714866042 0.006051175464988437 -0.027325573470403517
271.1 0.001970217911377304 -0.024894229769754847 0.19262499691972818 0.06692182537142485 0.18626556914498 0.07993711976034955 0.0016342335292471172 -0.02525066682801197
277.0 -0.0009818471047941851 -0.023062367923783657 0.2000225144722864 0.0404758352448064 0.1944708484764601 0.05521197259974407 -0.002095089819614834 -0.02254942048369015
282.9 -0.004364656948715281 -0.021740172525551788 0.20590232976121176 0.014674636443043709 0.19942170346633 0.029838179143142074 -0.00696523677376926 -0.019900446380617522
288.8 -0.007999230054173821 -0.02003146729057049 0.2045068667154391 -0.011558023293668887 0.20224475673180126 0.004116576198072228 -0.008395175647301632 -0.0163541954051381
294.70000000000005 -0.009291182521965523 -0.01670237071464247 0.20157649662830338 -0.038655346691236527 0.20167279336532037 -0.021606027091789874 -0.0108733629708633 -0.01388193732072012
300.6 -0.01138923253392115 -0.012839309649262928 0.1946370029157968 -0.06434896782458435 0.1978405042713231 -0.04769957472183796 -0.011543659200023539 -0.009425850439946964
306.5 -0.01367429913918273 -0.01124134770631313 0.18438518992669184 -0.08877616637297239 0.18906634505950792 -0.07198589415563732 -0.015061190826495563 -0.007272768432521619
312.4 -0.01515950223594696 -0.008501516435571491 0.17164583100374978 -0.1121246445407759 0.1783919318643757 -0.0955004788741457 -0.015631271032316364 -0.0023171088122350774
318.3 -0.015335464467532842 -0.004816832997879987 0.15546697986958363 -0.133242124096519 0.16556135960162535 -0.11874463727572244 -0.015789905554895994 0.001554828183452982
324.20000000000005 -0.01667639309116281 -0.0012887347986966528 0.1375689564872062 -0.15203447379572624 0.1491485026434853 -0.13878749496138287 -0.01698991514633825 0.006074702887313008
330.1 -0.015357316315176018 0.002457139735858229 0.11599989639831566 -0.16961253457594502 0.12967745498774574 -0.1563371944794544 -0.014833944448304114 0.00966725729594868
336.0 -0.015751893733503507 0.004886835062196613 0.09284511780682426 -0.18251404694209952 0.10838913695782597 -0.17248802011713124 -0.014626564081950523 0.014681292953304314
341.9 -0.013783940995280226 0.00825025680887563 0.0686143328917213 -0.1929468901810775 0.08505987301297872 -0.18442715827197229 -0.01223051868090831 0.018394219420819598
347.8 -0.013396939085290695 0.01266543594036458 0.0446297501342616 -0.19923013259078923 0.061073470733390325 -0.1936276305063055 -0.009876899291987748 0.02308185536190119
353.70000000000005 -0.010982453803674214 0.01597806752995331 0.01680698999592414 -0.20381762458910416 0.035644526283616244 -0.19967864561189094 -0.007674225758288091 0.026200187314575844
359.6 -0.00979496451517895 0.018175123924047756 -0.008706837719046087 -0.20499924933737748 0.009511229863756222 -0.2027620205077786 -0.0036161542894221957 0.028249251913210947
365.5 -0.007320339012620715 0.0208292957326935 -0.03546599774969869 -0.20206391960275233 -0.016191014560979464 -0.20266105406078508 0.0013194999723303157 0.031034611895746963
371.40000000000003 -0.0038795352976798043 0.02283914673521754 -0.06115786329166177 -0.19489818473305215 -0.042713044492475684 -0.1991811693927728 0.005615548885882777 0.03287400619800748
377.3 -0.00012980164778709488 0.024414590146429636 -0.08572953305917248 -0.18464390854162577 -0.06703197859434241 -0.19231909854137375 0.010380925790484673 0.034639351182624595
383.20000000000005 0.003027005837203939 0.02549107729407216 -0.10824340979208348 -0.1717577026943228 -0.09135105216362482 -0.18174107932183667 0.014175281935616511 0.035028405975666685
389.1 0.007924384826598869 0.02664484221259495 -0.13017813368219427 -0.1560035425987344 -0.11389888088528556 -0.16838004266130843 0.021072402692019192 0.03315516488089296
395.0 0.01110576327518288 0.026290536324382652 -0.1490041135213698 -0.13701072409784906 -0.1341648672280954 -0.15191023718974564 0.024863213096453587 0.032528396367137384
400.90000000000003 0.015050250410372019 0.025596246807897998 -0.16560334358269665 -0.11660011564383138 -0.1522806629138611 -0.13363047464194291 0.029083931914227305 0.030257286560996067
406.8 0.018058796001147515 0.026106023814773133 -0.17877383419674714 -0.09440400452667391 -0.1681920932624046 -0.11289512127012352 0.0328921303765352 0.027831375876264705
412.70000000000005 0.022120638764421986 0.02504631739094129 -0.18919289289696925 -0.07077063890492936 -0.18131301187429114 -0.0904138792948876 0.036751344082429915 0.025251382826555355
418.6 0.025149861423890925 0.023468207754842957 -0.19612658106302833 -0.045300234918284187 -0.19190992979136232 -0.06677737017328095 0.03956379422940753 0.02253925779892714
424.5 0.028495041280669386 0.021138308358510535 -0.19982288714795104 -0.018506380808032335 -0.19896260975732752 -0.04146384845023373 0.04436863333628755 0.01961181133265146
430.40000000000003 0.031756013144181416 0.018356063426627423 -0.20102202613175224 0.006900653128427752 -0.20088352499638606 -0.013873496774118418 0.04589477522125643 0.014321161879790637
436.3 0.035190113411497505 0.015813296833040422 -0.1985390389584107 0.03365833015109159 -0.19973346769647732 0.01138674518000821 0.04938217036130975 0.011282917826348588
442.20000000000005 0.03714296786628068 0.012899621549164473 -0.1918486317602366 0.058102516187516946 -0.1971803490561258 0.03617510763514802 0.05211079406432082 0.006551897498073432
448.1 0.040349699041528075 0.008356960296748227 -0.18188278892802348 0.08269451848833945 -0.19029716915783867 0.06179735045593153 0.05383156850158423 0.000792229717663734
454.0 0.04310161751138889 0.005276953765811106 -0.1696687005526398 0.10575485954210503 -0.1814435703351313 0.08645438141007929 0.055647285050272 -0.004524314869785637
459.90000000000003 0.044386775129933984 0.0020199666079378483 -0.15462132795063382 0.1263691607531981 -0.16918991932927963 0.10782698363244976 0.05564976116206121 -0.008958611421135161
465.8 0.04579823744607785 -0.003718373216042398 -0.1368792531068866 0.14481324375189084 -0.15434389445396002 0.12942663870608803 0.05653846282307451 -0.014610935525224902
471.70000000000005 0.046617835318327826 -0.007800793478180614 -0.11831573235273203 0.16028588294730994 -0.1354346131038377 0.14721786817931237 0.05713083423261826 -0.020239807648313856
477.6 0.0467581277878375 -0.013521236182495481 -0.09501587761430935 0.1742437912593312 -0.11635535421797502 0.1633481057930743 0.05605910070506649 -0.026349037850306414
483.5 0.046694930977276325 -0.017716701406105418 -0.0725429457988916 0.18567005317358548 -0.09376131621099908 0.17774056721137615 0.05455843667446887 -0.032359284873705076
489.40000000000003 0.04530568227263886 -0.023885050514837473 -0.04732006260848062 0.1921859234943615 -0.07161763614107661 0.18816552511471243 0.05208759853243913 -0.037683139555251766
495.3 0.04383126805533352 -0.028162203264139297 -0.02210623633409624 0.1967257428684531 -0.04729747560217577 0.1950585659782911 0.049668481168820215 -0.04305997049773714
501.20000000000005 0.04157154681945741 -0.03288473213704258 0.0037290417479885203 0.19862099943006706 -0.020830172027601495 0.19901585247373213 0.045760996265420406 -0.04823282230464365
507.1 0.037960318057805365 -0.03752413264489727 0.02858792818939595 0.1957961578714042 0.003939319673286405 0.20043589572444184 0.04226822023606594 -0.05245221298528447
513.0 0.034938026690145736 -0.04196608342224764 0.053931977419688845 0.190663453294979 0.029230961348420348 0.1978191947831527 0.035993828428761615 -0.056933202615097246
518.9000000000001 0.031055945246404138 -0.04604833369579121 0.07757395782178923 0.18180721389625387 0.05456848215758697 0.19300148888515528 0.03161083937943681 -0.061435374483964716
524.8 0.027606843227881622 -0.048138908865497806 0.1010494006202332 0.17057536572699472 0.07934165983261424 0.1834903467429827 0.025785860717761882 -0.06465745801596466
530.7 0.02328919373789984 -0.05112041832645379 0.12204014186364867 0.15604747645151898 0.10075649094331798 0.17244421770397378 0.0202911443337996 -0.06660031746944874
536.6 0.018370770622906797 -0.0531015337688267 0.1405043031630912 0.1387812911066119 0.12303824747510922 0.15875299247224983 0.014272333268837733 -0.06831310171927359
542.5 0.013774252809372837 -0.055123874356468476 0.15645897073083015 0.11991375074378863 0.14177353428929762 0.14186335659389568 0.008808664628779472 -0.06920850888241778
548.4000000000001 0.00881392990650764 -0.05665455016533555 0.17092235892626698 0.09797235854953626 0.15966435618562902 0.1226249291298315 0.00257311567074249 -0.06952559890771559
554.3 0.0043055693216460045 -0.057207265547657406 0.1812227415125066 0.07459402675715784 0.1736258267565028 0.10192854437496361 -0.0037306747234938063 -0.06985667270885466
560.2 -0.00014746836567764346 -0.05845289733033793 0.1893764669146867 0.05097510236961482 0.18564714991938985 0.07835930162473995 -0.00900316667734548 -0.06892653880363196
566.1 -0.005307638780520992 -0.057463812095640235 0.19415332709737387 0.026184026333242846 0.19395291526304545 0.05453133125819303 -0.01614523352425774 -0.0681573253062778
572.0 -0.01063004717580084 -0.05825110345479928 0.1965837733777617 0.0011194718374180515 0.19941188235065901 0.029733151408092885 -0.02061201045427833 -0.06633813159416536
577.9000000000001 -0.01629897081658459 -0.05757398592208037 0.19490867499196385 -0.023480872515370146 0.20173356043579624 0.0042043770243799135 -0.026631988288328926 -0.06430581429991625
583.8 -0.021232089878589083 -0.05667966151696282 0.19013848659872284 -0.04858154025762185 0.20085634392025786 -0.02229090482598306 -0.03189429304925274 -0.06175474041705845
589.7 -0.026235134432540663 -0.05438849227279788 0.18163673648131531 -0.07260432906652109 0.1954949192549233 -0.04662363950035478 -0.03646616433354096 -0.05858775271936293
595.6 -0.03027997246519371 -0.052277460862921905 0.17224532563284756 -0.09435488171314568 0.1852829944475027 -0.06958350157760312 -0.04244993179334818 -0.05573924641402902
601.5 -0.03689235908054131 -0.048967502448378525 0.15797078037679294 -0.11601555977682888 0.1746114757069382 -0.09141127626687026 -0.0461331868995119 -0.05199034717039096
607.4000000000001 -0.04055330172698286 -0.04604842310013589 0.1428822129780139 -0.13562947629583738 0.1614778356202674 -0.11267005437500938 -0.05165800145388493 -0.04686847376982699
613.3000000000001 -0.04466189136573124 -0.04101729271215602 0.12454143530913377 -0.15244413668640994 0.1459589829088841 -0.13270652074400396 -0.05491750700237149 -0.0415437139522234
619.2 -0.04742134103658281 -0.03637036171199515 0.10475383492689995 -0.16717278537057145 0.12854859978326963 -0.1515409858447996 -0.05794682114612359 -0.03654384033217977
625.1 -0.05066392260601041 -0.030887173686569087 0.08179357966626832 -0.17992400919903045 0.10773762944868627 -0.16620403296449698 -0.059923875863398604 -0.030097370347977482
631.0 -0.05218539288129295 -0.02618263901725419 0.05790766006765108 -0.18892137656008165 0.08608826341528013 -0.17815480709990522 -0.06149721498042984 -0.024669084712626552
636.9 -0.05402010633251084 -0.0214647645717887 0.03344052654473873 -0.19455703973936753 0.06277372188366559 -0.18808284497989472 -0.062356055177808255 -0.01795395175559546
642.8000000000001 -0.054015185750309516 -0.015007431673168085 0.00875481067698082 -0.19809116892534256 0.037970777791048266 -0.19544786864585134 -0.06189862445033603 -0.012128126678451388
648.7 -0.05466911325054509 -0.010406334930621314 -0.01690653541976564 -0.19756251614652515 0.012884672155592497 -0.1997485116935771 -0.060121110568006265 -0.006264787983477323
654.6 -0.05292651049855113 -0.005049598592326011 -0.04330741897813935 -0.19297747488001613 -0.01197171803552065 -0.19829368143098583 -0.05795406864613265 -0.0020125494920537196
660.5 -0.05179087096859737 -0.0007684032438287785 -0.06869334033551668 -0.18671611516982825 -0.03828635859627714 -0.19676389207406236 -0.057107225109781744 0.0028908688459340277
666.4000000000001 -0.05001000414298987 0.003349863381651756 -0.09155869103824399 -0.17670107471316931 -0.06264887561129338 -0.1900165407253004 -0.05513489051635504 0.007272295526273772
672.3000000000001 -0.04858155691221178 0.006660099028246947 -0.11320344176085774 -0.16413949711104547 -0.08655269764500173 -0.1805468352045435 -0.05130041700059589 0.010279853261367582
678.2 -0.046110307245821505 0.010576264035324048 -0.13509032845227278 -0.1484003185517506 -0.10968976480194234 -0.16880492876363098 -0.04919050196946915 0.013543835893751912
684.1 -0.04464002706957159 0.012957945651495686 -0.15257303960221166 -0.12912530174666081 -0.1303321789989732 -0.15322450838656765 -0.045611378187477264 0.01728817023069869
690.0 -0.043110319104695045 0.015386044964958618 -0.16788259064558186 -0.10845419707141078 -0.14823208991998857 -0.1352921236095693 -0.04356510986316764 0.018380214559316807
695.9000000000001 -0.04121573386650312 0.018155416593069355 -0.1800308851412328 -0.08541458697206977 -0.1651862950417348 -0.11559173717053504 -0.042067979190076744 0.021113380789764418
701.8000000000001 -0.037921338504962196 0.02063445441927376 -0.19069947795401854 -0.06064023644683304 -0.1794108187598638 -0.09391834280818413 -0.03873984344566864 0.023173794076583227
707.7 -0.03596461612861709 0.023759119756043782 -0.19749664714689896 -0.0362054332469926 -0.1898944873930638 -0.0701210382680183 -0.036313404484805786 0.024195996549545937
713.6 -0.03478809699488234 0.025414465326321023 -0.19990025915092377 -0.009776600978935363 -0.19737894182525678 -0.044973465330426454 -0.033806461399021354 0.025862029788689078
719.5 -0.03167783870950113 0.027750840337129143 -0.1995377230825761 0.016796157428136334 -0.2016504400024838 -0.01807337603865864 -0.03227564883047658 0.02696736950237656
725.4000000000001 -0.02894214108220185 0.03035014818128656 -0.19578044297908756 0.042584490155331466 -0.20231965200202637 0.007336021564586473 -0.029097566929053315 0.028329226343601428
731.3000000000001 -0.02535658945846756 0.03173335314032837 -0.18916485474755532 0.06706781015390663 -0.20071046027583025 0.033780544767584596 -0.02724585276560908 0.030253201815451564
737.2 -0.021597686922450086 0.03208950435667931 -0.1786839543738792 0.09145840960766022 -0.19402618104699113 0.05924916021365352 -0.023679918784628454 0.03049833876349796
743.1 -0.0181845155033932 0.03406495159788733 -0.1653702982992654 0.11427377051553736 -0.18550477436997723 0.08356962058920006 -0.02083838186932129 0.031080667459135493
749.0 -0.014624938137584507 0.03525546346553564 -0.14874012733114822 0.13503863277562875 -0.17348177342974525 0.10727726129942224 -0.018297956104515817 0.03167551476744205
754.9000000000001 -0.010317554404748651 0.03499785331776883 -0.12992086981966952 0.15463485809481928 -0.15633333974422217 0.12601783116364376 -0.014932607335211472 0.032797685344773446
760.8000000000001 -0.006802795044378469 0.03481855688241359 -0.10871040771096134 0.16938852026050288 -0.1383458275530414 0.14586511804710678 -0.011545439910506005 0.03158141213867155
