!Created with skrf (http://scikit-rf.org).
# MHz S RI R 50.0 
!freq ReS11 ImS11 ReS21 ImS21 ReS12 ImS12 ReS22 ImS22
100.0 0.0332036846865173 0.018791469054005895 0.02051309358728695 -0.201821433560011 0.012793966275540495 -0.20423319060576106 0.037008422105436756 0.01793156335276985
125.106383 0.04269168690230563 0.05104841716325183 -0.18583065765971576 -0.08006560685874912 -0.18326115053225775 -0.08555797126823358 0.043091891338256104 0.05765936797432624
150.212766 0.049779810298675765 0.028339430269963262 -0.20027572054450127 0.029620739371282467 -0.20123455206335258 0.022329714931322887 0.05256717000395727 0.034542911281063536
175.31914899999998 0.04835441152772977 0.008302559852236586 -0.15455301550998168 0.13042118494595364 -0.16048054206900514 0.12433788127779404 0.05198909652493199 0.012715337101820427
200.425532 0.04198959028906129 -0.00822631414685634 -0.06427627277655082 0.1919560097342745 -0.07292193711570785 0.189432128318308 0.046196045126525524 -0.005571241867500081
225.531915 0.0300906995000005 -0.021357846550210603 0.04541241116543698 0.19717511350267297 0.03596681493958999 0.20045412122257406 0.03395065168230622 -0.020699108843699215
250.638298 0.0138836294072329 -0.02703790093955046 0.14283461223489233 0.14441100117820985 0.13590275390520673 0.15319864894841084 0.015812783706587296 -0.027684521639445535
275.744681 -0.0014019162482132726 -0.023167192845159713 0.19940245197449388 0.048235091427102396 0.19494999540287314 0.059913334043934306 -0.0019069478750365686 -0.022778197038635345
300.851064 -0.011459961727009057 -0.013475602443240768 0.19498825907577974 -0.06339991112681531 0.19789837350290587 -0.05014355118306112 -0.012924404218051567 -0.00927081783118475
325.957447 -0.016208612753800585 -0.0006647544845880959 0.13235013071602306 -0.15617845153727375 0.1428797031992244 -0.1461443546693395 -0.015622933184277142 0.0078083822230122875
351.06383 -0.012613825562108693 0.013414602450243852 0.030673185976572388 -0.20207058201312372 0.04577446117789758 -0.19900221968796455 -0.007759185765529635 0.024536575300790175
376.170213 -0.0015914389137529701 0.02388742034130984 -0.07909463951262 -0.18707893323965688 -0.06432953800154348 -0.1931911877654615 0.009589604786581591 0.03363870160271581
401.276596 0.014435589224458211 0.02666498662624075 -0.1644376546669362 -0.11648150950667854 -0.15565500584754288 -0.1317262628410636 0.029476727717344824 0.02953256943394144
426.382979 0.02954268709261565 0.020257425986527633 -0.20035339357597426 -0.012893008615557795 -0.20135676069624672 -0.03177254132087593 0.04472962831540853 0.016842910442673487
451.489362 0.04130180237652604 0.007368617219654127 -0.17568510448021316 0.09379141570397898 -0.18614435091561002 0.07757881626072376 0.05382430618695848 -0.0022550337466178553
476.59574499999997 0.046573544385446926 -0.011999378539723335 -0.10032230215187517 0.17119841093347352 -0.11915891885008403 0.1627492814582399 0.054920282998507534 -0.025377433219818318
501.70212799999996 0.04132769722477564 -0.03311412046133758 0.004043493324498049 0.1977177965005364 -0.018154730348412085 0.2004391162258387 0.04412847915547419 -0.04844531511088699
526.808511 0.026218319410110078 -0.04907366521696253 0.10638224820697509 0.1662926582080125 0.08848198276907336 0.18094464210880445 0.022732633399568502 -0.0634764771998219
551.914894 0.006759629365664853 -0.05666599397809358 0.1767922939285293 0.08583403592258868 0.1695010599395434 0.10916882215644495 -0.001849580887290567 -0.06812404928274274
577.021277 -0.014709745471087093 -0.05700193410862047 0.19511008002907465 -0.018520569894405568 0.20182034437086652 0.006509583520263235 -0.025237596762020274 -0.06263310072057927
602.12766 -0.03605628549028769 -0.04815471239654647 0.1581902162822457 -0.11684568656718525 0.17381846928189837 -0.09668334251955017 -0.04650778250659004 -0.04954400356330129
627.2340429999999 -0.05028272844467517 -0.029181252658638534 0.07468566296502613 -0.1822013019232603 0.09945822147403986 -0.17268716328944816 -0.05895052370790263 -0.026794321206719457
652.340426 -0.05300683832825426 -0.0069374595535592895 -0.031713162393174794 -0.19537671794213485 -0.004121796173489999 -0.20093822441422993 -0.057767705057748114 -0.0029353069569948444
677.4468089999999 -0.045720687416082005 0.009056960297066995 -0.13004947121321572 -0.1506899601614444 -0.10797101979831493 -0.17048194543967388 -0.04777638076485803 0.01345370450867723
702.553191 -0.03775719816279033 0.020447312211645228 -0.19092537951779737 -0.05987922094434875 -0.1820452005866567 -0.08929080178312089 -0.037234354219740404 0.02156186102113409
727.659574 -0.02724671163447533 0.029816526446173344 -0.1940899818217666 0.05036824054803919 -0.20265109623577413 0.019236182430872377 -0.027884356986401206 0.027504555150356803
752.765957 -0.011935335527658951 0.03458120679130071 -0.13996294971033646 0.14679853408492632 -0.1613401925426241 0.12060493591390134 -0.01655805928474094 0.030001806593399887
777.87234 0.001973585020805871 0.028568918680180383 -0.04067283743624782 0.19824965007918427 -0.07432906303503915 0.18736189982440232 -0.0070004413398434984 0.023396252109665235
802.978723 0.006131973979118964 0.01839744967717443 0.07032899246708031 0.18987681932705583 0.03489831503719203 0.19919650374052308 -0.008443809279678806 0.013933705047677573
828.085106 0.004254048854844955 0.011279802462598593 0.15987013625216545 0.12421236471995414 0.13374709067208357 0.15186426767751054 -0.016651988937467683 0.013707099677793818
853.1914889999999 0.0019598638199289486 0.00865281410255213 0.20011058966590678 0.02122667157010393 0.1921111746452531 0.0596838918190569 -0.0200733385910857 0.02140895483061681
878.297872 -0.0020026712539623504 0.006563987874906933 0.17991437289076168 -0.08663758226290931 0.19413639671008692 -0.04876751523251456 -0.018419046070289442 0.02956099571580212
903.4042549999999 -0.009533706167984692 0.009122260800345328 0.10769832260694687 -0.1663443517649414 0.14013895697152917 -0.14150840539199838 -0.015117774475988761 0.03704903242792866
928.510638 -0.012636962680244869 0.01941388888482587 0.0038076316788425877 -0.19676140317781088 0.04451940441363326 -0.18901192676951964 -0.006878005822122626 0.04789881746910585
953.6170209999999 -0.005778942396950526 0.0305495152795541 -0.09879154472281103 -0.16840250707278343 -0.05915781121396887 -0.18457907924669692 0.010630720282273007 0.05588813482817557
978.723404 0.0056917874963924595 0.035397859875607014 -0.17103136818741832 -0.09149044199499037 -0.1454795909895708 -0.1274209111867056 0.032294788631074677 0.05405217828979036
1003.829787 0.01748177761597598 0.037260149316921745 -0.19217422195134676 0.010477008285540114 -0.18954390555922673 -0.034705724296147746 0.05020368967777719 0.04310303882592689
1028.93617 0.03348295252182511 0.036404047311160516 -0.15787423504754589 0.10721139743534477 -0.1797485645035165 0.06691223409581036 0.06414266052179954 0.028197066302199158
1054.042553 0.052837999195934474 0.025340359656785254 -0.08079515884622486 0.17190279080215598 -0.11989660184381434 0.14864317650328193 0.07506948440690722 0.006428861137094363
1079.148936 0.06447142306350329 0.002061949935909406 0.018067869358385173 0.18984460353746532 -0.02755252152989087 0.18566559732498897 0.07683763561220222 -0.02271101996630503
1104.2553189999999 0.060958750730243684 -0.022879790724163674 0.11412447486464665 0.15499478584987655 0.07080881006733186 0.17400540345801555 0.062410363224806004 -0.04983510683651645
1129.361702 0.049661908715468675 -0.04174796525493371 0.1799150318949341 0.07414604637648528 0.1515039830662021 0.11402261193929757 0.03986768774313982 -0.06504358058274708
1154.468085 0.036139299965372254 -0.05583191318709842 0.1936288972528768 -0.031421291368306334 0.19058153629321636 0.019203554269082514 0.01778364607609925 -0.071184241519108
1179.574468 0.015612209744587475 -0.06736539507332627 0.14895841880837613 -0.12905517839687047 0.1748870512698177 -0.08369415220716922 -0.0032239052807786174 -0.07211158923832582
1204.6808509999998 -0.011533469388520989 -0.06951243453878939 0.05892989561406559 -0.1886245425128534 0.10565327556626515 -0.16352698766732762 -0.026894623865848115 -0.0658620422721758
1229.787234 -0.035015467379243444 -0.05782235117273895 -0.048689162611842106 -0.19204036519378254 0.004849327548601192 -0.19479466392056313 -0.044296590183753766 -0.048242605285533924
1254.893617 -0.048901863922488166 -0.0398934474755569 -0.14202546421980683 -0.1370787075855505 -0.0956926044021396 -0.16687989864274824 -0.050487474566376395 -0.02961850512022001
1280.0 -0.055550348167697876 -0.022377906734098015 -0.1931470311843562 -0.04227638579719861 -0.16884895616437762 -0.09304391089065513 -0.049707451159323096 -0.016225086137992912
1305.106383 -0.05926506846813145 -0.002380537178497424 -0.18607827329910684 0.06628462170794067 -0.19240560959535394 0.00821299354444562 -0.05004246333396402 -0.005266977115864273
1330.2127659999999 -0.05222459496338836 0.0190297068614978 -0.1223678935797417 0.15440795869797436 -0.15953075250063176 0.10803506499367424 -0.04718871689931975 0.007768877922932909
1355.319149 -0.03628201286442408 0.031810803880035654 -0.021939019946611252 0.19425219102564534 -0.07891379697169819 0.17491184435760862 -0.0385103282829281 0.017108821065881033
1380.425532 -0.020278366495469387 0.03512558695776774 0.08244161312860923 0.17542631796999156 0.02403372249592902 0.19011815877874425 -0.03143112152614513 0.019067506250904125
1405.531915 -0.009020542024662022 0.03465341914105708 0.1585150699565599 0.10372967458499056 0.11630565265755051 0.14633510183992904 -0.031069078835315976 0.02029473169662853
1430.6382979999998 0.0010446226248870256 0.03172365662830173 0.18787604501582778 0.006056299032720362 0.17292223643579147 0.0647692211200829 -0.03042735387223995 0.027040433481826824
1455.744681 0.009327985353544916 0.025092255488857528 0.16215256470755293 -0.09098139004674115 0.18023410164458278 -0.03299802829758149 -0.024675787169006442 0.0350631995963694
1480.851064 0.011009574372799239 0.016001163866824483 0.09094326098341445 -0.16051394449971376 0.13703322795309902 -0.11960161175408092 -0.01718733234106802 0.03929096733831141
1505.957447 0.0061093349898592615 0.01213722366732573 -0.004727090302111432 -0.18287772237060004 0.056436300639697734 -0.1731514687431251 -0.010036197213836518 0.04387487553713148
1531.0638299999998 0.0016720423750207886 0.013253487152797765 -0.09788527151174704 -0.15371715462497007 -0.039618686162769555 -0.17751027731595745 0.0003571315895434889 0.04953613844080427
1556.1702129999996 0.0010401325025788505 0.01682281172840481 -0.16125503445779954 -0.08035138857947395 -0.12335444776713354 -0.13089892522811095 0.015887480181758708 0.05193718673110036
1581.276596 0.0033157057948108334 0.020703629156179938 -0.17915611222703806 0.014600901728904062 -0.1736729081106247 -0.0494844059562108 0.03317543486425796 0.046414220914485584
1606.382979 0.008517358996594036 0.024725424786256108 -0.14587537697381545 0.10551270433073592 -0.17462412835049315 0.046808900109398754 0.046688150620455254 0.03578292154288445
1631.489362 0.018232057992005907 0.024886294528712324 -0.07059875514666748 0.16564192985494788 -0.1263455176820673 0.13071079724899654 0.05771340628020928 0.020524661829962505
1656.5957449999999 0.02868202394899193 0.01874534707257744 0.025248024777988893 0.17884374935899733 -0.040805092983387845 0.1784052374687312 0.06257572314814176 -0.0005288301892650505
1681.702128 0.034846550611322434 0.008907187296857917 0.1149882073159374 0.1412611058395003 0.05731661174065757 0.17461627518430717 0.05720614610794419 -0.022218867901293265
1706.808511 0.038141208359714816 -0.0010872255455464674 0.17243613256684412 0.061738249535567995 0.14050120324837348 0.12040757788714487 0.044134412860957796 -0.03751251291755166
1731.914894 0.04030510078825056 -0.013813690827075096 0.17764729643346858 -0.03709276850220817 0.18173905591435482 0.029737281623847017 0.029971022593469468 -0.04601415160187734
1757.0212769999998 0.03680344783852202 -0.029555537874760045 0.13234975263361912 -0.12505670671353242 0.171029129851696 -0.06929062711831517 0.01637631541282958 -0.05148111756586588
1782.1276599999997 0.025193127326395098 -0.044074482444618215 0.047364475001610166 -0.1762390358366334 0.10988021355047639 -0.14904826884257694 -0.0007301889858463882 -0.05357956850640089
1807.234043 0.007489792974241095 -0.05185094728696819 -0.05209783593140888 -0.17465551615839162 0.015261809537221394 -0.1845308917417184 -0.01713426392996304 -0.046965120766979035
1832.340426 -0.011372523017157979 -0.05221560620779878 -0.1361346285667533 -0.1220399283167061 -0.08348454674784624 -0.16519518371001748 -0.02756599341730547 -0.03506791032193164
1857.4468089999998 -0.02942370873711329 -0.04570660560258706 -0.18096059028558495 -0.032143517194387704 -0.15704421459702342 -0.097271973406611 -0.0301698585897978 -0.023272790014265406
1882.553191 -0.042704584467869275 -0.03207055406156546 -0.16834359637915836 0.06651367643748277 -0.18185670336527515 -0.0012887645965051846 -0.030921317565811762 -0.015309761060761007
1907.659574 -0.05047655909134905 -0.014668012528522277 -0.10813986010095027 0.1445283933300158 -0.15534790281573158 0.0930035867962219 -0.031284891486092134 -0.008765694009622451
1932.7659569999998 -0.051867795640948795 0.0037358884067914843 -0.016545293127039666 0.1797486776574127 -0.08462027327582458 0.15934355107236295 -0.03140411369474692 -0.0024791961923628526
1957.87234 -0.04615499161759587 0.021072154465874432 0.07943582023660707 0.16093718952107516 0.009326540789878534 0.17852855183737112 -0.029540838143309742 0.0030043292949638255
1982.978723 -0.03410927969275798 0.0360172390503419 0.15152100045878703 0.09585223365696474 0.1001117395898157 0.14770934931576424 -0.029077068441292618 0.00821705369619449
2008.085106 -0.016500173664806928 0.04357162281982532 0.1781492674533533 0.00337898836960862 0.16186119664891838 0.07503853964548213 -0.026882865923291133 0.013302323481334354
2033.1914889999998 0.000523096435395216 0.04130745859806144 0.15244879450220875 -0.0889202390905101 0.17681139104820875 -0.01715838892351854 -0.025255350245717553 0.018739269091958076
2058.297872 0.01178653242155866 0.03455618374442611 0.08387317920456368 -0.1542378647515998 0.14354854605911477 -0.10621699249140429 -0.024167444198149073 0.02452255231996425
2083.404255 0.019230426567789047 0.028589308962090682 -0.008140680457635973 -0.17534539877848182 0.06806382541935711 -0.16457002533194096 -0.020601665415142186 0.03420523556869588
2108.5106379999997 0.026262387786920475 0.020931813410191503 -0.09806752979304754 -0.14584644151958226 -0.026874370410401922 -0.17653376419699432 -0.009203113959869402 0.04526407212379912
2133.617021 0.03027822398203467 0.008466120552241538 -0.15985717463909213 -0.07363973571434011 -0.11444274848331927 -0.13748087035071732 0.008450576470817326 0.04902499742129929
2158.723404 0.026849150631880092 -0.002447427517905732 -0.1755721379850346 0.0209384275279683 -0.16947812777277896 -0.05798386243556198 0.024681073273045608 0.043762460595648145
2183.829787 0.020659555882510363 -0.007494103041442925 -0.13965321874528397 0.10911277939681381 -0.17577682670646766 0.038049828259976055 0.03723948315848582 0.03564355312390245
2208.93617 0.017991108126203414 -0.007439548572099826 -0.06176968075065439 0.1648481429097093 -0.1291759387856759 0.12367379137715767 0.04962844000014697 0.023861255299058387
2234.042553 0.015791514078656588 -0.00985012369251354 0.03277956334994987 0.1732654350811361 -0.046241667196359186 0.17346608357905682 0.058753155286671216 0.0044645460925087505
2259.148936 0.012081532996338566 -0.01188323721245664 0.11917368336626857 0.13138344940876484 0.05104487840137018 0.1721340547939142 0.0569054367438277 -0.01938555863608397
2284.255319 0.009931547625389118 -0.008947322287475344 0.17212361554386282 0.05012003241893736 0.1331295826941912 0.12023417021542522 0.04255602259434957 -0.03845227411264411
2309.3617019999997 0.013309213827850538 -0.007726221979445469 0.17385237257447492 -0.048764376128180895 0.17657940220160626 0.03296764362491435 0.024581733560828045 -0.047838434319501494
2334.468085 0.0163881840176622 -0.012342843673214499 0.12227289880221136 -0.13318354759084985 0.1675967189997184 -0.0641092815706691 0.007008955215500035 -0.04945173670612728
2359.574468 0.014789204696153664 -0.01926587735282883 0.032825087561330374 -0.17564003668506656 0.10887516437851591 -0.14149834140263748 -0.009798961930065919 -0.04587573127354718
2384.680851 0.012184435077596487 -0.02450280008639615 -0.06389973222243044 -0.16546634231563406 0.01861131316996326 -0.17663346816385286 -0.02296620162635534 -0.03539443162659539
2409.787234 0.006260611007665824 -0.031533048106903334 -0.14031302900087303 -0.10669835410357009 -0.07531988524190544 -0.15928220487095998 -0.028340760789509437 -0.022492915564223448
2434.8936169999997 -0.0059107940609084 -0.0384232302617499 -0.17391867117886017 -0.01691322125345197 -0.14558375381881344 -0.09609680968287292 -0.0284955998242302 -0.01207140706292262
2460.0 -0.02449669896612515 -0.03787046462974726 -0.1572055142755639 0.07652176913953253 -0.17281314654838373 -0.007173509417575062 -0.028369463260019472 -0.003362334964845878
2485.106383 -0.038976734420349615 -0.026147027116094675 -0.09330704867154378 0.1469432958235826 -0.1513570265750532 0.08302858299890624 -0.02353184488735488 0.005441139487308372
2510.212766 -0.04447846961495942 -0.010912363602944333 -0.0028094359974390934 0.17226819572251548 -0.08783123678720428 0.14836023005158086 -0.015877010250454574 0.010142434491492578
2535.319149 -0.04850361580575288 0.0017291431643800558 0.08707113170950491 0.14774047294525303 0.0016621997153458618 0.17159787816765024 -0.009161505221764803 0.005128410450890339
2560.4255319999997 -0.05166587158094317 0.018597724239426443 0.15097274824365506 0.08121280453618869 0.09007898451844325 0.14601447230612247 -0.012127061686763313 -0.001159375781770428
2585.531915 -0.04502740485242219 0.03998636818638897 0.17052512772943484 -0.009000514247055667 0.15225654453652238 0.0780116275288435 -0.018642499727559193 -0.00025938941905399594
2610.638298 -0.026994297502788294 0.056251554212858976 0.14069326961814174 -0.09612129306270875 0.1700253305634973 -0.011632471835686073 -0.022115121958083857 0.005519129777659931
2635.7446809999997 -0.005701430726320859 0.061449098323753004 0.07052926785729838 -0.15572435108885804 0.1392493592653021 -0.09663122702438375 -0.024514404272065783 0.011277325372029284
2660.851064 0.0142499750537911 0.06076655170724909 -0.021021750019105282 -0.16975671367316425 0.06994784274279897 -0.1551965775306862 -0.02797140024148052 0.021710401291846763
2685.957447 0.034401201940303154 0.0544019235962294 -0.10613307827957104 -0.1334154227140682 -0.020211936636264353 -0.17021826486605435 -0.025388835941310552 0.03866023865452612
2711.06383 0.054063855408869446 0.03973937047183208 -0.1608683553425616 -0.059138417340628115 -0.10630225539778371 -0.13571268880484474 -0.008577874144099659 0.05572489308534749
2736.170213 0.0643914501957496 0.015586538076236372 -0.16825517521047137 0.034460139498447326 -0.16200042170034076 -0.06026855038124774 0.017565324808147268 0.06021975448346438
2761.2765959999997 0.06236456330860038 -0.008728624629992124 -0.12464824103317095 0.11822313702534147 -0.16935004509710597 0.0334309303813181 0.04097893360098756 0.0506039101357391
2786.382979 0.052321473252657694 -0.027484885878540016 -0.043655302916066056 0.1661107304358012 -0.12588414863430808 0.11708828548291068 0.05799788077279747 0.03326872573199759
2811.489362 0.03761483170945454 -0.04138287254595978 0.05004311739038929 0.16321890853498297 -0.04608318137058551 0.16372130919014585 0.06889842709682474 0.01044303620299563
2836.595745 0.017856043897715567 -0.04710451197224895 0.127367226968757 0.11207438908442531 0.04484185179739082 0.16301801833569282 0.07061080722116349 -0.018416929966667647
2861.702128 -0.0009290328298075898 -0.04335991100806886 0.16719470401303732 0.028945945454958863 0.1222149990797073 0.11564234505737442 0.05659523624179853 -0.04558215207420206
