!Created with skrf (http://scikit-rf.org).
# MHz S RI R 50.0 
!freq ReS11 ImS11 ReS21 ImS21 ReS12 ImS12 ReS22 ImS22
100.0 0.18640173805446725 0.06948255794161315 -1.9690228194174612e-05 -9.59559101906287e-05 6.62188447144238e-05 -3.1016723271517774e-05 0.99708801735357 -0.012755456028406192
125.106383 0.41569633604150324 -0.107931016496428 -1.7109266621123666e-05 3.043396752792349e-05 -4.6619426085028414e-05 4.9306991199157146e-06 1.0004646580968697 -0.01659792909661117
150.212766 1.1061190687124716 0.06419222298879732 -2.8109674463329654e-06 -6.848338170484265e-07 -1.6909024282169252e-05 -2.707911887025953e-06 1.0032849239520993 -0.005326767187189391
175.31914899999998 0.5350693566574719 0.025381727900209504 2.057551307986486e-05 2.7117532158942565e-05 -8.97260038836817e-06 -1.927466358288684e-05 1.0027263732029743 -0.008867557120269716
200.425532 0.5522746905631915 0.05329486344052584 1.6828577680697605e-05 9.46725473929131e-06 -1.6528558363907494e-05 -3.135723936995225e-05 1.003896370069537 -0.008355866949364535
225.531915 0.6981093564023145 -0.42613362617795364 -2.7710907732911617e-05 -4.638716740474313e-06 -9.683209094667869e-06 -4.665339040147994e-05 1.0057778404922886 -0.01549757147341552
250.638298 0.3439907648038537 -0.23103307882642093 -3.463554505396693e-05 6.94876644837557e-05 -1.658838089289915e-05 -1.9449192090618463e-05 1.0016526354521689 -0.01456658602111957
275.744681 0.17327725568465713 -0.3936429578917342 -0.0001454376624007526 4.58176277820209e-05 -0.00018320316043294867 -5.0764350729844e-05 1.003999035587922 -0.02530667975524492
300.851064 0.16516264322253496 -0.26852287833982197 -0.00012345977160952928 0.00010844036012668699 -6.740852670264656e-05 -2.0630506315407268e-05 1.0019664726043427 -0.021222894920338974
325.957447 0.2815808293199843 -0.33927054253084793 -9.556421066966983e-05 7.366811814490272e-05 -7.505243815353621e-05 -9.83092892776921e-06 1.0015395804923266 -0.024161657498317238
351.06383 0.15928658169441842 -0.3310704366731864 -9.875740196238486e-05 0.00011672612035019103 -7.009123514635674e-05 3.905098148522206e-05 0.9993350856053408 -0.02540235761921043
376.170213 0.3710578475684612 -0.2974933296127849 -1.5011928096289604e-05 8.66169532263158e-05 -7.893877910903833e-05 -5.682835121758887e-05 1.0046037857626906 -0.02584884913447146
401.276596 0.44997445036645006 -0.17998014978195356 3.344253793913524e-05 5.608847402814961e-05 -8.476916526756518e-05 1.56223957543674e-05 1.0026034444172838 -0.028980121971866234
426.382979 0.7077509942163355 -0.38543732690531385 -1.5688907990552093e-05 1.4775785205701547e-05 -2.638546395397364e-05 -1.4954695873474953e-05 1.0031305442649354 -0.02863713366351098
451.489362 0.3785523872300088 -0.16181951268967998 6.033086799447978e-06 0.00010513260787114647 -7.222734780961548e-05 -4.088193398194456e-05 1.003221639523538 -0.028458933888810458
476.59574499999997 0.6553609320153573 0.10954292772289896 6.394386240630099e-05 2.7723440728494676e-05 -2.1935377865704166e-05 5.054586535585474e-05 1.000650462420942 -0.031477821341932076
501.70212799999996 0.5576445447538243 -0.06609384469581887 4.017515927856273e-05 8.013065817196049e-05 -6.83214415337742e-05 -2.876696951061027e-05 1.0027021684528863 -0.030212855531006763
526.808511 0.46311780851305173 -0.13447607080841947 1.8705477009319706e-05 0.00010161128503289856 -7.186453968417562e-05 -3.7312958518632214e-05 1.0026754189652844 -0.03192754887207296
551.914894 0.5243514313618588 -0.035255287598411914 7.638347105612597e-05 7.278427525489087e-05 -3.0117236432933673e-05 -8.959102385305617e-06 1.0004921581492183 -0.03372534963008141
577.021277 0.5191138422203289 -0.07926762256474047 6.431258452940859e-05 8.293776570559493e-05 -6.418540046973764e-06 -6.753134638207285e-06 0.9995975126641565 -0.035261760973413304
602.12766 0.5115381502822284 -0.14749277579046252 8.868259938291854e-05 5.944979152199717e-05 -2.3851282509674345e-05 -1.3357643712481436e-06 1.0001734441956152 -0.03695743278391431
627.2340429999999 0.7304097851360923 0.005069122024592824 6.24328650704419e-05 -2.003513706478336e-05 -4.283341337127608e-05 -5.088480380743394e-05 0.9995945886328061 -0.036468890779534274
652.340426 0.7539186976636507 0.01186560044159845 5.801202242618943e-05 -2.4564551743486925e-05 -4.65674795495736e-05 -5.16095304378538e-05 0.9993653182190912 -0.037994511941502385
677.4468089999999 0.8420957046525588 -0.1172132404120237 3.260375715178092e-05 2.6966507576648124e-06 -9.531369808847518e-05 -8.068247136434949e-05 0.9990981092818404 -0.03734081443029093
702.553191 0.6589494636136793 -0.32096682075984606 4.25088455459845e-05 4.824820737012126e-05 -2.4223331266785025e-05 -6.347388397796034e-05 0.9987386681216107 -0.03970799720997204
727.659574 1.1337648664440585 -0.4469217551605983 6.0598584716399205e-05 4.05004334275007e-05 -2.6833381480688275e-05 4.875523757365166e-06 0.998838756780248 -0.04343895874711378
752.765957 0.8396770735340638 -0.13143942113268595 4.240889239860352e-05 8.747103908185514e-06 1.7701315804510186e-05 -6.344603345562945e-05 0.9971595743344966 -0.045447813758499926
777.87234 0.9767785654181946 -0.24281326310395504 3.763843334594611e-05 3.059567271696023e-05 1.4827068163054388e-05 1.6209268959763234e-05 0.9992752207581874 -0.04793950526078502
802.978723 0.7912041681619998 -0.37632700846046035 7.051055769851771e-05 1.7507757670548264e-05 -1.1699421635593734e-05 -1.6439722652196034e-06 0.9989390902785958 -0.04841704639189506
828.085106 0.7608665244651717 -0.13094204389354067 6.934280940283191e-05 -2.069788716524662e-05 5.6568387927325406e-05 1.9016976784755363e-05 0.9984716028082831 -0.05171310973549598
853.1914889999999 0.8544956926783506 -0.16687017505970317 5.199909308479584e-05 -6.755663075919437e-06 1.3582383362750515e-05 5.697298099553342e-05 0.9998202120869767 -0.052446548278417424
878.297872 0.8279489872927983 -0.060594074904473993 4.9687835355065e-05 -4.7242910971902275e-05 -0.00010517834582147717 2.9919778314877272e-05 0.999694595490268 -0.05164144715390228
903.4042549999999 0.800208727112717 -0.27779807832089676 9.515183297705163e-05 2.5168877235845963e-06 -2.368905714019859e-05 6.549273048230559e-05 1.0002090291658103 -0.05468532131434545
928.510638 0.8726011343953084 -0.14313043909125045 5.229630918568951e-05 -1.4385394199962415e-05 -0.00011259201311250415 2.8790674345088812e-06 0.9986645389122316 -0.05459848964281231
953.6170209999999 0.6159315507108617 -0.15027208831556785 0.00014377817023438822 -7.053889471719567e-05 -0.00011360651478483584 -6.298604989647642e-05 0.9980936455378832 -0.0560237698590523
978.723404 0.9377392462857412 -0.11782945475896694 3.3191997900617e-05 -1.5272924184639775e-05 -0.00024678862717530454 -6.88453029267582e-05 0.9969506544670195 -0.056545085020101964
1003.829787 0.8168876843265099 -0.20330017304001907 8.084728403646222e-05 -2.9618965808714152e-05 -0.00025152291484786306 -0.00010625037519344992 0.9963382304127156 -0.057689751961872954
1028.93617 0.6011488625222855 -0.10165466698330847 0.0001450078006324213 -0.0001220582209081759 -0.00018516320751857672 -0.00018397013804061297 0.9962280622556483 -0.05965329938904643
1054.042553 0.5675046071848291 -0.02608208193745322 0.00014358734821330664 -0.00020597847537726349 -5.523571346387838e-05 -7.583951783728154e-05 0.9972010662494807 -0.06356404765845303
1079.148936 0.6075415975864334 -0.09715224594993818 0.00016469362709577813 -9.825238132184034e-05 -3.169150965832438e-05 0.0001242864516274262 0.9996832670291949 -0.06592442010799864
1104.2553189999999 0.5199598922060727 -0.10754174271579951 0.00022888664521350033 -0.0001308703177805691 -4.0651675943917545e-05 0.00013840576829522307 0.9997529889986755 -0.06722348152186867
1129.361702 0.45291689262846196 -0.06620029406601032 0.00029639544151836145 -0.00016854021580670178 -0.00013726555787421825 0.00022408464734661928 1.0008879667011419 -0.06775546489822926
1154.468085 0.46690428058595773 -0.15621000430056944 0.0002492629572439115 -0.00019825259900978012 -0.00015115853207087437 0.00019308866448717463 1.0005735022916502 -0.06841362925295635
1179.574468 0.4447367245356167 -0.10832916179346434 0.00030319877635840434 -0.0002221859765111108 -5.748832761554721e-05 0.00019341710987956748 0.9999003766947399 -0.07088258491615047
1204.6808509999998 0.4714724253573162 -0.13172989981500846 0.0002328714844373313 -0.00020933370310458654 -6.888202969980741e-05 0.00013187711010857547 0.9990296948646866 -0.07180793156789056
1229.787234 0.3711207618614047 -0.15643738589436015 0.00029269059804100817 -0.00023553180033220435 -4.950889500831362e-05 8.689632787468234e-05 0.9984044121614823 -0.07347761146586133
1254.893617 0.4113629205276079 -0.10442910168714255 0.00029323793274782506 -0.00026824202326605697 9.910140818076326e-05 0.0002754446224105849 1.0001933146391309 -0.07667952534001707
1280.0 0.5122946748826748 -0.10067612629754291 0.00025532190278734844 -0.00024851816561708557 -4.6103344876446034e-05 9.18036784415459e-05 0.9979757080483806 -0.07623255817664878
1305.106383 0.4304504828724818 -0.1447962476388615 0.00033185048232468027 -0.0002712614648456736 -7.479056388847787e-05 4.83278508506754e-05 0.9974095408257903 -0.07741512652738529
1330.2127659999999 0.5210946158010492 -0.2163327259016593 0.00020472311841142774 -0.0002601416031683137 7.078839055931011e-05 0.00013800211102636887 0.9985700167115632 -0.08014397492639219
1355.319149 0.49987054402501935 -0.1610232100872159 0.0002082819955788244 -0.00032512301156863296 0.00020983213439451683 0.0003073170719522354 1.0004485416837012 -0.0824801414737168
1380.425532 0.5021829155028114 -0.14951544572743822 0.00025733303290712163 -0.0003036894035136487 1.7039345150730666e-05 0.0001409332013569485 0.997989482795156 -0.08237131599823368
1405.531915 0.5643979255649164 -0.1713080437764936 0.00018620069375169696 -0.00030900366690040976 0.00012064148653108007 0.00011986625712546681 0.9980746048266275 -0.0846908433927667
1430.6382979999998 0.5997681862697692 -0.10410657960620409 0.00010413412726112968 -0.00033881941464106256 -1.4679735957908573e-05 0.00010976560965057864 0.9971177435925067 -0.0850395224239831
1455.744681 0.6068293714405394 -0.0973378104750133 0.00012210106638523493 -0.00032836520412192304 -5.4227034316264044e-05 9.172599754634271e-05 0.9966107658478539 -0.08630326352651152
1480.851064 0.6714344972110952 -0.25992990989078685 0.0001834931570430839 -0.00024551039917158267 1.7751177679387266e-05 0.0001380562854454361 0.9971342137444182 -0.08780657687298513
1505.957447 0.7383754998771602 -0.175937640902943 0.0001020033501198555 -0.0002203301774140036 0.0002031460593152811 0.00014373067981366687 0.9979941833983005 -0.09035881139901822
1531.0638299999998 0.7411423352101449 -0.18201204491189985 0.00010666152087665569 -0.00025360092194333346 1.6741234456137736e-05 9.392634799917124e-05 0.9964043643918444 -0.09107055536592998
1556.1702129999996 0.71876209552293 -0.329721467569595 0.00017797742713944223 -0.00027175279179005496 7.271840378428759e-05 0.00010952621258316653 0.9967834068993284 -0.09258038572104386
1581.276596 0.7543943417287796 -0.10435642336988327 -1.4625294631329062e-05 -0.00027191787552479426 0.00011112016213074342 9.36686840142072e-05 0.9966100588259716 -0.09456024970343557
1606.382979 0.7335519429560856 -0.33913084312979286 0.0001554331876093078 -0.0002924752866406198 0.00022219407303702667 8.10349917171705e-05 0.997409321607759 -0.09648934355296124
1631.489362 0.6890976774914795 -0.3849064353204912 0.0001689220527950904 -0.00029257632982649284 0.00014560447827919335 6.909147338342231e-05 0.9966539340146827 -0.09780228996346399
1656.5957449999999 0.7265175026915873 -0.15385633292180503 2.213708559226547e-05 -0.0003098046060999536 0.00015599961454228854 0.0001544511613568926 0.9965817574498765 -0.09899551392185545
1681.702128 0.6619019702193294 -0.19654876123562823 5.9968812703928845e-05 -0.00033749000083868787 0.00014453541921068683 0.00012627048421833773 0.9962652324839258 -0.10062602128341216
1706.808511 0.7460468660319316 -0.22267517059613093 9.910458228267613e-05 -0.0002828074405862156 0.00014950933517306756 0.00018833313358710272 0.9961477085117252 -0.10168627191407091
1731.914894 0.8359425322054046 -0.16581909004910017 2.818526833313444e-05 -0.00020247060025401024 0.00038087870312924913 9.80459375315044e-05 0.9968569354854186 -0.10418383174225555
1757.0212769999998 0.8087609608875614 -0.21848004600886742 7.00252123988421e-05 -0.0002576211530752552 0.00024385255978232523 0.0001881784107294588 0.996120792914843 -0.10485691178837889
1782.1276599999997 0.7515617655713649 -0.18317296776174066 1.6216466257309117e-05 -0.00032628048895786197 0.00014308241688429564 9.791312879611435e-05 0.9952258981307427 -0.10686217942446788
1807.234043 0.7165044648193536 -0.11410819919433 -9.656122185228586e-05 -0.00037118912717950007 0.0001412816021776881 0.00020134745518232463 0.9951835561156223 -0.10795937983599403
1832.340426 0.6792731801127584 -0.23900066812461992 1.4314986007711118e-07 -0.00042619874717690035 0.0003485255961986839 0.00016921266724997613 0.9962506222554756 -0.10988956485715018
1857.4468089999998 0.7210958803824636 -0.2102610759302721 -2.5087067152686202e-05 -0.00039401519578198844 0.0001758509567695341 0.00024182736770987946 0.9949355493132926 -0.11093680251608791
1882.553191 0.6254633586434103 -0.2552934050751163 -2.9743034791569913e-06 -0.0004914610715341557 0.0002700237108536252 0.00019957795494206682 0.9953631238676025 -0.11283080564118794
1907.659574 0.5760883938290353 -0.22015603637666928 -9.068944771332714e-05 -0.0005582843995916165 4.8192269760933184e-05 0.0001984325414092713 0.9937700075900642 -0.1143199809002848
1932.7659569999998 0.5597394377993649 -0.16063940954405675 -0.00016908503606749965 -0.000544958255787781 0.00033303174811558073 3.1795500810912404e-06 0.9950418303611159 -0.11733201254822502
1957.87234 0.5363145529163093 -0.1626597392358021 -0.00016466902003372643 -0.0006235404001164701 0.0006672612341534603 2.5882186551181275e-05 0.9968310821120343 -0.11880824322136407
1982.978723 0.6101882313779532 -0.12853703665157537 -0.00021053657289893843 -0.0005509793071199373 -9.855210989520891e-05 0.00032192235250831094 0.9921338356417846 -0.1186302065144679
2008.085106 0.6032869270640464 -0.16546740315180541 -0.00018455578039891792 -0.0006128685508048977 -0.00010255253588112175 0.00020477515037022046 0.9918408776896421 -0.12087236162922727
2033.1914889999998 0.532481909939226 -0.20436627178807254 -0.0002862857326157705 -0.0006639194483673596 9.506278863154958e-05 0.00014509098762149179 0.9927978139330553 -0.12262235537971342
2058.297872 0.5657801888397185 -0.20275145664221914 -0.00032989232630726287 -0.0006037613331652558 -5.2740154062149336e-05 0.00016575334719214757 0.9916573127262936 -0.12426745504215236
2083.404255 0.5535619426596973 -0.13910577768665414 -0.00037491106192977437 -0.0006099339220294228 0.00010291644860893136 0.00017385723137363715 0.9923653738593358 -0.12567737106513643
2108.5106379999997 0.5130748946124681 -0.15908840517304512 -0.0003725335650744418 -0.0006346313934156159 -4.5486219913738795e-05 0.00013543407960761619 0.9913377251786706 -0.12758181679438343
2133.617021 0.5493338524836445 -0.15813636261083192 -0.00038933388920396524 -0.0005565660073570831 0.0001819087644954582 -4.746075694015628e-05 0.9925712176215683 -0.12987482935381756
2158.723404 0.6419958608957889 -0.14931229134219431 -0.00036917205815621744 -0.00045986938928996334 0.00016586952060867007 1.1133494390696749e-05 0.9921148720996822 -0.1310432548817652
2183.829787 0.6085185727898498 -0.19986716920134723 -0.0003456738472390713 -0.0005918830908463429 0.0001947319406220439 7.522085188723471e-06 0.9920509563265879 -0.1324343827619842
2208.93617 0.6801115290116856 -0.18288901073777394 -0.00034565639029312883 -0.0004828091357249661 0.00028269258064275656 -2.5958263664903903e-07 0.9921709186059159 -0.1337149972715626
2234.042553 0.6590324680473268 -0.22725986972158072 -0.00041264718289348067 -0.0004828803406114167 8.92129639612788e-05 0.00010472205218763051 0.9908727556794625 -0.13505420484210034
2259.148936 0.7168202609072056 -0.22326371694902378 -0.0003733386513866801 -0.0004247178704620324 0.0001275861359657014 -7.247841319628465e-05 0.9912640741712331 -0.1370304525717568
2284.255319 0.6557490499494878 -0.17917496483129033 -0.00048372478535052587 -0.0004253193994292654 0.00015181319737173903 0.00013472916635934973 0.9906794683457756 -0.1374244141480383
2309.3617019999997 0.8115059825470792 -0.2320893301116675 -0.00021850607012934096 -0.00031039400559195325 0.00025513629286189326 0.00010575242799946397 0.9908327130411778 -0.13862122911227778
2334.468085 0.7526583716985026 -0.2220673638344885 -0.00034596029896432967 -0.0003524623762272854 0.00021837734362079898 6.94134973736399e-05 0.9906055633465681 -0.1401658137347799
2359.574468 0.6831252939000153 -0.25798266174016776 -0.0003972586590479718 -0.000436848282933812 0.0002287721979783246 5.548994342406429e-05 0.9904474412532993 -0.1415098534249797
2384.680851 0.7451125263445679 -0.16291070691902598 -0.0003739108101918222 -0.0002794485559800841 0.00038962684014959536 0.00015239832874551848 0.9904055534202644 -0.1422497079243134
2409.787234 0.7404245786412379 -0.2859696131701415 -0.00030440664817160733 -0.0004342897660945786 0.0005440147814834407 6.200865319950214e-05 0.9906381599827742 -0.14325240950071153
2434.8936169999997 0.73272316033116 -0.22909032793339626 -0.0004170078170935275 -0.0004003300127247828 0.0002502301096785045 -6.40128594428348e-05 0.9900300259204072 -0.14576523142914116
2460.0 0.7214345368010568 -0.22559576823882754 -0.0004211146184353945 -0.00041702308981748806 0.0003430100292142833 -1.2958200306033448e-05 0.9898477592104421 -0.14665898947498868
2485.106383 0.6942465638912517 -0.28959045836265385 -0.00042417692721460117 -0.0005790086790612859 0.0004086573172875248 8.588807392253746e-05 0.9893574499204637 -0.1474943286315822
2510.212766 0.6743858083723951 -0.21134083515510102 -0.000595909971072255 -0.0004440488237568717 0.00044170362958888027 3.6055035939450574e-06 0.9895574664259381 -0.148978835827453
2535.319149 0.5855010985560221 -0.2334941580214302 -0.0007154728125798005 -0.000562231522322189 0.00032032985844808844 -8.062666361373297e-05 0.9894252884911229 -0.1509053860374946
2560.4255319999997 0.6460973426571207 -0.14359825610350324 -0.0007553526950464245 -0.0002478939153657437 0.0003025226545608576 -0.0001480094538175136 0.9893753150838048 -0.15259636493715206
2585.531915 0.6699927182004521 -0.19869888973802838 -0.0006515007859534632 -0.0003290657118156891 0.0002842894655204891 -0.00012054746103517172 0.9889434382979742 -0.15392616338268708
2610.638298 0.6398911307556132 -0.200046678901087 -0.0007337829693002721 -0.00031772505381010295 0.00030197941853920917 -0.00012935016769558872 0.9887539396469109 -0.1552663631305892
2635.7446809999997 0.6485697694891658 -0.20329977825778237 -0.0007748706890430404 -0.00030264773861080714 0.0004228489875864882 -8.128188663481099e-05 0.988460801240793 -0.15617695849875646
2660.851064 0.6068543961338317 -0.19587513542988008 -0.0008499063560564579 -0.0003847983818432959 0.00016951899016479357 -0.00013893028889034041 0.9880529168241178 -0.15870631529487023
2685.957447 0.6333450931554029 -0.23912205931483893 -0.000828655511055663 -0.0003101406796855683 0.00020104354328280005 7.683279701376794e-05 0.9869237067744218 -0.15977492690464581
2711.06383 0.5891274957683089 -0.17879184128834916 -0.0009924517113893583 -0.00021016781370187236 0.0003163921758683434 -7.199590842021285e-05 0.9874402061587136 -0.16095604945117148
2736.170213 0.5893130643090142 -0.21366250490718858 -0.0009939773777388286 -0.0001953172677404902 0.00045327857787160034 -0.00010405278507670337 0.9873973816934511 -0.16190054018063538
2761.2765959999997 0.5484649830764582 -0.24155161965066663 -0.0010951500992416935 -0.0002153177203355851 0.00018398423575478087 0.00012680320539105595 0.9858446835381192 -0.1643648644983596
