# HZ S DB R 50
1.000000e+08 -7.443135e-02 -1.792699e+02
1.014750e+08 5.804625e-03 1.779458e+02
1.029500e+08 -2.813602e-02 1.774942e+02
1.044250e+08 -6.286530e-02 1.793714e+02
1.059000e+08 -3.750829e-02 1.785781e+02
1.073750e+08 -7.967317e-02 1.795003e+02
1.088500e+08 -8.343404e-02 -1.794827e+02
1.103250e+08 -2.703868e-02 1.785541e+02
1.118000e+08 -6.099931e-02 1.789792e+02
1.132750e+08 -8.324256e-02 -1.799024e+02
1.147500e+08 -2.190362e-02 1.792052e+02
1.162250e+08 -7.296117e-02 1.774050e+02
1.177000e+08 -3.301135e-02 1.773251e+02
1.191750e+08 -8.609931e-02 -1.790192e+02
1.206500e+08 -3.997506e-02 1.791708e+02
1.221250e+08 -1.303282e-02 1.783433e+02
1.236000e+08 -2.275834e-02 1.790342e+02
1.250750e+08 -1.352875e-01 1.775477e+02
1.265500e+08 -9.651559e-02 1.796683e+02
1.280250e+08 -3.623788e-02 -1.795540e+02
1.295000e+08 -1.105077e-02 1.795152e+02
1.309750e+08 -9.573512e-03 1.783533e+02
1.324500e+08 -5.807185e-02 1.795891e+02
1.339250e+08 -8.646648e-02 1.763643e+02
1.354000e+08 -5.184274e-02 1.792293e+02
1.368750e+08 -3.274430e-02 1.789053e+02
1.383500e+08 -2.712591e-03 1.779582e+02
1.398250e+08 -1.344910e-02 1.790093e+02
1.413000e+08 -1.260592e-01 1.770531e+02
1.427750e+08 -6.934864e-02 1.781930e+02
1.442500e+08 -8.280691e-02 1.774684e+02
1.457250e+08 -3.598722e-02 1.777531e+02
1.472000e+08 -7.039810e-03 1.786271e+02
1.486750e+08 -9.091633e-02 1.771438e+02
1.501500e+08 -9.300882e-02 1.772700e+02
1.516250e+08 -3.271856e-02 1.763962e+02
1.531000e+08 3.567070e-02 -1.779313e+02
1.545750e+08 -9.358189e-02 1.763843e+02
1.560500e+08 1.674892e-02 1.794785e+02
1.575250e+08 -1.342257e-03 1.796241e+02
1.590000e+08 -2.409511e-02 1.790673e+02
1.604750e+08 5.877526e-02 -1.770970e+02
1.619500e+08 1.806981e-02 1.793148e+02
1.634250e+08 -1.286001e-02 1.785283e+02
1.649000e+08 1.957833e-02 -1.796086e+02
1.663750e+08 5.130084e-02 -1.791086e+02
1.678500e+08 -3.757662e-02 1.778789e+02
1.693250e+08 -1.738532e-02 1.768314e+02
1.708000e+08 6.110416e-03 1.756990e+02
1.722750e+08 3.793486e-02 1.789996e+02
1.737500e+08 -3.302421e-03 1.764279e+02
1.752250e+08 1.271904e-02 1.770224e+02
1.767000e+08 -1.561453e-02 1.764029e+02
1.781750e+08 3.454634e-02 1.774436e+02
1.796500e+08 3.196895e-03 1.778380e+02
1.811250e+08 -7.189803e-03 1.796519e+02
1.826000e+08 -1.259396e-02 1.794368e+02
1.840750e+08 2.817564e-03 1.781351e+02
1.855500e+08 9.955626e-03 1.774148e+02
1.870250e+08 9.205317e-03 1.770865e+02
1.885000e+08 -4.549516e-03 1.774802e+02
1.899750e+08 1.604699e-02 1.767568e+02
1.914500e+08 4.611221e-02 1.773325e+02
1.929250e+08 -5.789871e-03 1.788577e+02
1.944000e+08 1.093032e-02 1.757973e+02
1.958750e+08 1.522094e-02 1.752905e+02
1.973500e+08 3.179277e-02 1.770301e+02
1.988250e+08 5.590042e-03 1.768723e+02
2.003000e+08 5.437125e-03 1.775508e+02
2.017750e+08 -7.481552e-02 1.799011e+02
2.032500e+08 -2.109168e-02 1.784010e+02
2.047250e+08 1.364848e-02 1.772899e+02
2.062000e+08 -6.331344e-02 1.777365e+02
2.076750e+08 -7.782944e-02 1.791401e+02
2.091500e+08 -5.195534e-02 1.791283e+02
2.106250e+08 -5.648513e-02 1.784483e+02
2.121000e+08 -3.702274e-02 1.787464e+02
2.135750e+08 -7.284755e-02 1.790537e+02
2.150500e+08 -5.482142e-02 1.779119e+02
2.165250e+08 8.309649e-03 1.761471e+02
2.180000e+08 -1.843200e-02 1.760161e+02
2.194750e+08 -4.752943e-02 1.774769e+02
2.209500e+08 -3.974458e-02 1.785165e+02
2.224250e+08 -5.720279e-02 1.784117e+02
2.239000e+08 -4.513096e-03 1.759422e+02
2.253750e+08 -6.949182e-02 1.786237e+02
2.268500e+08 -1.210287e-02 1.764359e+02
2.283250e+08 -5.129449e-02 1.767323e+02
2.298000e+08 -6.048002e-02 1.757811e+02
2.312750e+08 -5.596592e-02 1.791402e+02
2.327500e+08 7.610719e-03 1.772470e+02
2.342250e+08 -2.745569e-02 1.759921e+02
2.357000e+08 -7.963471e-02 1.783603e+02
2.371750e+08 -1.099803e-01 1.781056e+02
2.386500e+08 -3.980845e-02 1.787879e+02
2.401250e+08 -5.575065e-02 1.770884e+02
2.416000e+08 -5.238381e-02 1.779902e+02
2.430750e+08 -2.745926e-02 1.785249e+02
2.445500e+08 -1.165075e-01 1.748743e+02
2.460250e+08 -6.819257e-02 1.778834e+02
2.475000e+08 -5.972574e-02 1.781337e+02
2.489750e+08 -4.774025e-02 1.762498e+02
2.504500e+08 -1.170697e-01 1.763837e+02
2.519250e+08 -1.985138e-02 1.770764e+02
2.534000e+08 -5.149790e-02 1.796510e+02
2.548750e+08 -6.208843e-02 1.768307e+02
2.563500e+08 -1.142964e-02 1.790673e+02
2.578250e+08 -3.449378e-02 1.782562e+02
2.593000e+08 -2.899856e-02 1.795986e+02
2.607750e+08 -8.968942e-02 1.767082e+02
2.622500e+08 -1.933172e-02 1.772839e+02
2.637250e+08 -8.495323e-02 1.774592e+02
2.652000e+08 1.612935e-03 1.780453e+02
2.666750e+08 2.187824e-02 1.782657e+02
2.681500e+08 -8.558372e-02 1.765257e+02
2.696250e+08 -2.280157e-02 1.776357e+02
2.711000e+08 -7.778904e-02 1.752495e+02
2.725750e+08 -6.779465e-02 1.759070e+02
2.740500e+08 -6.793182e-02 1.766345e+02
2.755250e+08 -1.018067e-02 1.771508e+02
2.770000e+08 -2.710600e-02 1.763741e+02
2.784750e+08 2.624596e-02 1.794849e+02
2.799500e+08 4.299685e-03 1.770687e+02
2.814250e+08 3.029497e-03 1.785076e+02
2.829000e+08 -1.202279e-02 1.769962e+02
2.843750e+08 -2.317481e-02 1.759281e+02
2.858500e+08 -2.599767e-02 1.770598e+02
2.873250e+08 -3.117113e-02 1.759598e+02
2.888000e+08 1.727020e-02 1.795377e+02
2.902750e+08 -2.292808e-02 1.767584e+02
2.917500e+08 3.624332e-03 1.768162e+02
2.932250e+08 1.210899e-02 1.776317e+02
2.947000e+08 7.209986e-03 1.772718e+02
2.961750e+08 8.637227e-04 1.784426e+02
2.976500e+08 1.476782e-02 1.776419e+02
2.991250e+08 -2.720437e-02 1.777311e+02
3.006000e+08 -3.095071e-02 1.780160e+02
3.020750e+08 -1.583777e-02 1.767110e+02
3.035500e+08 -6.213888e-02 1.794307e+02
3.050250e+08 -1.477750e-02 1.772695e+02
3.065000e+08 -1.752366e-02 1.755739e+02
3.079750e+08 -6.707326e-03 1.751795e+02
3.094500e+08 -3.381847e-02 1.765974e+02
3.109250e+08 -5.614785e-02 1.788746e+02
3.124000e+08 5.165968e-03 1.755524e+02
3.138750e+08 -9.238950e-02 1.791139e+02
3.153500e+08 -1.549027e-02 1.766750e+02
3.168250e+08 -6.802023e-03 1.772141e+02
3.183000e+08 -2.355657e-02 1.763859e+02
3.197750e+08 -5.009175e-02 1.774659e+02
3.212500e+08 -3.474176e-02 1.758616e+02
3.227250e+08 -1.137208e-02 1.747553e+02
3.242000e+08 -1.519276e-02 1.767856e+02
3.256750e+08 -1.050976e-02 1.752449e+02
3.271500e+08 6.028040e-02 1.747249e+02
3.286250e+08 -6.700827e-02 1.770894e+02
3.301000e+08 3.711700e-04 1.746289e+02
3.315750e+08 -3.780898e-02 1.766462e+02
3.330500e+08 -4.427449e-03 1.740529e+02
3.345250e+08 -5.637168e-02 1.765158e+02
3.360000e+08 9.365974e-03 1.729104e+02
3.374750e+08 -1.040990e-01 1.785591e+02
3.389500e+08 -4.191334e-02 1.754525e+02
3.404250e+08 -2.565344e-02 1.745264e+02
3.419000e+08 -1.430331e-01 -1.775847e+02
3.433750e+08 -2.365456e-02 1.747976e+02
3.448500e+08 -1.090751e-01 1.784552e+02
3.463250e+08 -1.511498e-02 1.744542e+02
3.478000e+08 -4.694243e-02 1.762671e+02
3.492750e+08 -7.022657e-02 1.768486e+02
3.507500e+08 -4.955680e-02 1.748087e+02
3.522250e+08 -5.560291e-02 1.742305e+02
3.537000e+08 -7.798248e-02 1.763275e+02
3.551750e+08 -5.070317e-02 1.758922e+02
3.566500e+08 -3.910606e-02 1.777395e+02
3.581250e+08 -8.209740e-02 1.762406e+02
3.596000e+08 -1.107317e-01 1.774593e+02
3.610750e+08 -7.183548e-02 1.773584e+02
3.625500e+08 -9.833121e-02 1.754128e+02
3.640250e+08 -8.475938e-02 1.772292e+02
3.655000e+08 -3.908672e-02 1.740853e+02
3.669750e+08 -3.535277e-02 1.790848e+02
3.684500e+08 -4.915437e-02 1.772413e+02
3.699250e+08 -9.379227e-02 1.749948e+02
3.714000e+08 -7.968216e-02 1.746766e+02
3.728750e+08 -2.589307e-02 1.748417e+02
3.743500e+08 -1.788905e-02 1.772240e+02
3.758250e+08 -6.948578e-02 1.752464e+02
3.773000e+08 -5.086252e-02 1.750236e+02
3.787750e+08 -6.462531e-02 1.755292e+02
3.802500e+08 -4.748289e-02 1.745488e+02
3.817250e+08 -6.656728e-02 1.752044e+02
3.832000e+08 -4.499393e-02 1.756147e+02
3.846750e+08 -5.146680e-02 1.757606e+02
3.861500e+08 -5.990827e-02 1.775007e+02
3.876250e+08 -5.983564e-02 1.748326e+02
3.891000e+08 -3.719050e-02 1.770091e+02
3.905750e+08 -2.258794e-02 1.767211e+02
3.920500e+08 -5.631828e-02 1.748889e+02
3.935250e+08 -4.186755e-02 1.755030e+02
3.950000e+08 -6.980408e-02 1.745048e+02
3.964750e+08 -5.581219e-02 1.753812e+02
3.979500e+08 -5.956356e-02 1.754032e+02
3.994250e+08 -2.213580e-02 1.778712e+02
4.009000e+08 -2.768466e-02 1.740394e+02
4.023750e+08 -3.221820e-02 1.754044e+02
4.038500e+08 -6.274804e-02 1.746833e+02
4.053250e+08 -5.728409e-02 1.748589e+02
4.068000e+08 -9.376545e-02 1.743365e+02
4.082750e+08 -8.414459e-02 1.753404e+02
4.097500e+08 -5.221619e-02 1.748617e+02
4.112250e+08 -6.684001e-02 1.761556e+02
4.127000e+08 -7.811140e-02 1.769832e+02
4.141750e+08 -7.104437e-02 1.774641e+02
4.156500e+08 -3.760885e-02 1.726120e+02
4.171250e+08 -6.408197e-02 1.768958e+02
4.186000e+08 -4.506007e-02 1.753346e+02
4.200750e+08 -4.879789e-02 1.759457e+02
4.215500e+08 -2.676117e-02 1.732588e+02
4.230250e+08 -1.034506e-01 1.779614e+02
4.245000e+08 -6.061313e-02 1.769456e+02
4.259750e+08 -3.415641e-02 1.756985e+02
4.274500e+08 -4.616430e-02 1.746983e+02
4.289250e+08 -5.056662e-02 1.762781e+02
4.304000e+08 -4.782404e-02 1.773130e+02
4.318750e+08 -5.638214e-02 1.740575e+02
4.333500e+08 -3.775814e-02 1.736909e+02
4.348250e+08 -1.018110e-01 1.757443e+02
4.363000e+08 -2.701615e-02 1.757797e+02
4.377750e+08 -9.272718e-02 1.786308e+02
4.392500e+08 -5.418033e-02 1.750134e+02
4.407250e+08 -4.357921e-02 1.733146e+02
4.422000e+08 -5.854288e-02 1.750593e+02
4.436750e+08 -5.789305e-02 1.773554e+02
4.451500e+08 1.832302e-02 1.739798e+02
4.466250e+08 -9.522765e-03 1.735069e+02
4.481000e+08 -8.914456e-02 1.740453e+02
4.495750e+08 -2.315466e-02 1.752731e+02
4.510500e+08 -5.878050e-02 1.737987e+02
4.525250e+08 -7.718605e-02 1.734190e+02
4.540000e+08 -4.994345e-02 1.760984e+02
4.554750e+08 -7.925587e-02 1.748373e+02
4.569500e+08 -1.747540e-02 1.744252e+02
4.584250e+08 -8.799374e-02 1.746083e+02
4.599000e+08 -6.839013e-02 1.762025e+02
4.613750e+08 -8.048395e-02 1.748347e+02
4.628500e+08 -6.973104e-02 1.768811e+02
4.643250e+08 -1.460126e-02 1.760196e+02
4.658000e+08 -8.841888e-02 1.738593e+02
4.672750e+08 -7.522502e-02 1.769264e+02
4.687500e+08 -4.504846e-02 1.744490e+02
4.702250e+08 -2.235722e-02 1.737700e+02
4.717000e+08 -1.064506e-01 1.780737e+02
4.731750e+08 -6.186335e-02 1.758890e+02
4.746500e+08 -8.277160e-02 1.767903e+02
4.761250e+08 -8.342151e-02 1.747424e+02
4.776000e+08 -6.413613e-02 1.776527e+02
4.790750e+08 -5.019060e-02 1.765565e+02
4.805500e+08 -7.271752e-02 1.759576e+02
4.820250e+08 -5.851258e-02 1.753808e+02
4.835000e+08 -1.109575e-01 1.760656e+02
4.849750e+08 -9.686719e-02 1.767620e+02
4.864500e+08 -8.622888e-02 1.748154e+02
4.879250e+08 -6.722086e-02 1.729150e+02
4.894000e+08 -9.773912e-02 1.756502e+02
4.908750e+08 -9.474373e-02 1.729381e+02
4.923500e+08 -7.931374e-02 1.753289e+02
4.938250e+08 -9.502952e-02 1.742464e+02
4.953000e+08 -9.514149e-02 1.771610e+02
4.967750e+08 -1.195551e-01 1.763883e+02
4.982500e+08 -1.061161e-01 1.721471e+02
4.997250e+08 -1.083691e-01 1.760332e+02
5.012000e+08 -6.424917e-02 1.750560e+02
5.026750e+08 -8.896532e-02 1.742462e+02
5.041500e+08 -5.948902e-02 1.754233e+02
5.056250e+08 -7.796688e-02 1.760918e+02
5.071000e+08 -6.626750e-02 1.750147e+02
5.085750e+08 -5.530862e-02 1.757236e+02
5.100500e+08 -1.076920e-01 1.771397e+02
5.115250e+08 -6.374825e-02 1.746514e+02
5.130000e+08 -9.517844e-02 1.752715e+02
5.144750e+08 -4.495261e-02 1.740806e+02
5.159500e+08 -7.718361e-02 1.747379e+02
5.174250e+08 -9.374263e-02 1.746356e+02
5.189000e+08 -7.353011e-02 1.760511e+02
5.203750e+08 -8.425276e-02 1.765604e+02
5.218500e+08 -1.013832e-01 1.752047e+02
5.233250e+08 -7.706638e-02 1.730019e+02
5.248000e+08 -6.577011e-02 1.762003e+02
5.262750e+08 -8.452052e-02 1.777662e+02
5.277500e+08 -2.724445e-02 1.742960e+02
5.292250e+08 -6.269527e-02 1.738908e+02
5.307000e+08 -5.656587e-02 1.766385e+02
5.321750e+08 -7.644316e-02 1.735704e+02
5.336500e+08 -1.008597e-01 1.745262e+02
5.351250e+08 -2.985232e-02 1.753343e+02
5.366000e+08 -3.408461e-02 1.761637e+02
5.380750e+08 -7.947078e-02 1.735650e+02
5.395500e+08 -5.443479e-02 1.736735e+02
5.410250e+08 -4.258446e-02 1.767807e+02
5.425000e+08 -2.555716e-02 1.731635e+02
5.439750e+08 -6.678312e-02 1.742761e+02
5.454500e+08 -7.133188e-02 1.729863e+02
5.469250e+08 -5.638047e-02 1.732007e+02
5.484000e+08 -4.599349e-02 1.767428e+02
5.498750e+08 -9.841826e-02 1.736884e+02
5.513500e+08 -5.461593e-02 1.742745e+02
5.528250e+08 -5.350676e-02 1.744655e+02
5.543000e+08 -5.095528e-02 1.746821e+02
5.557750e+08 -2.519084e-02 1.756814e+02
5.572500e+08 -2.364418e-02 1.728263e+02
5.587250e+08 -5.060560e-02 1.750639e+02
5.602000e+08 -6.548378e-02 1.726972e+02
5.616750e+08 -7.400329e-02 1.757635e+02
5.631500e+08 -5.740659e-02 1.724025e+02
5.646250e+08 -8.014046e-02 1.719664e+02
5.661000e+08 -3.085419e-02 1.734143e+02
5.675750e+08 -6.665187e-02 1.738583e+02
5.690500e+08 -6.754608e-02 1.720817e+02
5.705250e+08 -4.358452e-02 1.743471e+02
5.720000e+08 -9.433569e-02 1.758247e+02
5.734750e+08 -7.330902e-02 1.725280e+02
5.749500e+08 -7.946406e-02 1.725999e+02
5.764250e+08 -4.795571e-02 1.740308e+02
5.779000e+08 -1.061630e-03 1.726497e+02
5.793750e+08 -7.799853e-02 1.725011e+02
5.808500e+08 -5.526010e-02 1.726850e+02
5.823250e+08 -9.604795e-02 1.740382e+02
5.838000e+08 -8.123510e-02 1.717929e+02
5.852750e+08 -1.115617e-01 1.764358e+02
5.867500e+08 -5.759334e-02 1.736711e+02
5.882250e+08 -6.393111e-02 1.735113e+02
5.897000e+08 -6.262776e-02 1.731297e+02
5.911750e+08 -1.011315e-01 1.756486e+02
5.926500e+08 -1.198145e-01 1.737153e+02
5.941250e+08 -4.861012e-02 1.749396e+02
5.956000e+08 -9.361810e-02 1.738937e+02
5.970750e+08 -8.065139e-02 1.710176e+02
5.985500e+08 -9.265652e-02 1.757984e+02
6.000250e+08 -4.839940e-02 1.737217e+02
6.015000e+08 -7.445650e-02 1.743660e+02
6.029750e+08 -9.049565e-02 1.721245e+02
6.044500e+08 -5.014861e-02 1.718044e+02
6.059250e+08 -8.764095e-02 1.722710e+02
6.074000e+08 -5.974291e-02 1.739298e+02
6.088750e+08 -4.302169e-02 1.731283e+02
6.103500e+08 -1.444486e-01 1.746181e+02
6.118250e+08 -7.382035e-02 1.737776e+02
6.133000e+08 -5.569645e-02 1.710966e+02
6.147750e+08 -9.173369e-02 1.733502e+02
6.162500e+08 -5.089389e-02 1.705007e+02
6.177250e+08 -1.089153e-01 1.729171e+02
6.192000e+08 -3.063928e-02 1.716709e+02
6.206750e+08 -1.021994e-01 1.763314e+02
6.221500e+08 -9.454856e-02 1.737714e+02
6.236250e+08 -9.677988e-02 1.719131e+02
6.251000e+08 -9.244753e-02 1.740518e+02
6.265750e+08 -1.655393e-01 1.761511e+02
6.280500e+08 -1.188543e-01 1.743648e+02
6.295250e+08 -6.247460e-02 1.743713e+02
6.310000e+08 -1.160243e-01 1.725902e+02
6.324750e+08 -1.064520e-01 1.740672e+02
6.339500e+08 -1.300316e-01 1.759608e+02
6.354250e+08 -7.311096e-02 1.751602e+02
6.369000e+08 -1.215478e-01 1.729303e+02
6.383750e+08 -1.360816e-01 1.719841e+02
6.398500e+08 -1.142685e-01 1.732301e+02
6.413250e+08 -1.209085e-01 1.754636e+02
6.428000e+08 -1.248908e-01 1.734824e+02
6.442750e+08 -4.592093e-02 1.721402e+02
6.457500e+08 -1.234979e-01 1.743074e+02
6.472250e+08 -8.430800e-02 1.732557e+02
6.487000e+08 -7.157723e-02 1.722076e+02
6.501750e+08 -8.967177e-02 1.742995e+02
6.516500e+08 -1.360462e-01 1.740863e+02
6.531250e+08 -6.351159e-02 1.730275e+02
6.546000e+08 -9.047994e-02 1.743575e+02
6.560750e+08 -9.966137e-02 1.731606e+02
6.575500e+08 -1.041560e-01 1.719167e+02
6.590250e+08 -7.563389e-02 1.740097e+02
6.605000e+08 -7.503929e-02 1.732948e+02
6.619750e+08 -1.038765e-01 1.717096e+02
6.634500e+08 -5.837485e-02 1.740870e+02
6.649250e+08 -5.638873e-02 1.743398e+02
6.664000e+08 -6.528222e-02 1.756655e+02
6.678750e+08 -6.741965e-02 1.745700e+02
6.693500e+08 -5.023580e-02 1.736525e+02
6.708250e+08 -7.545950e-02 1.722730e+02
6.723000e+08 -8.427891e-02 1.733885e+02
6.737750e+08 -6.062676e-02 1.729621e+02
6.752500e+08 -5.765025e-02 1.742860e+02
6.767250e+08 -3.170230e-02 1.739145e+02
6.782000e+08 -3.942726e-02 1.748673e+02
6.796750e+08 -1.141517e-02 1.736656e+02
6.811500e+08 -4.854847e-02 1.728591e+02
6.826250e+08 -5.707532e-02 1.729498e+02
6.841000e+08 -5.063236e-02 1.710633e+02
6.855750e+08 -4.398458e-02 1.726612e+02
6.870500e+08 -6.543715e-02 1.733870e+02
6.885250e+08 -4.910102e-02 1.739500e+02
6.900000e+08 -8.147817e-02 1.735337e+02
6.914750e+08 -7.242141e-02 1.727181e+02
6.929500e+08 -8.751712e-02 1.743928e+02
6.944250e+08 -1.159038e-01 1.745028e+02
6.959000e+08 -7.059807e-02 1.730525e+02
6.973750e+08 -4.856870e-02 1.733496e+02
6.988500e+08 -9.992427e-02 1.721952e+02
7.003250e+08 -7.139454e-02 1.707493e+02
7.018000e+08 -4.717568e-02 1.698325e+02
7.032750e+08 -1.064486e-01 1.746367e+02
7.047500e+08 -7.971575e-02 1.750140e+02
7.062250e+08 -5.656165e-02 1.732568e+02
7.077000e+08 -1.038768e-01 1.730404e+02
7.091750e+08 -2.491708e-02 1.716878e+02
7.106500e+08 -6.583860e-02 1.727327e+02
7.121250e+08 -6.590879e-02 1.703371e+02
7.136000e+08 -1.013483e-01 1.751818e+02
7.150750e+08 -6.415424e-02 1.737210e+02
7.165500e+08 -1.598264e-01 1.769506e+02
7.180250e+08 -8.533889e-02 1.726708e+02
7.195000e+08 -8.723650e-02 1.712640e+02
7.209750e+08 -9.719658e-02 1.727354e+02
7.224500e+08 -9.088117e-02 1.739784e+02
7.239250e+08 -1.549610e-01 1.745298e+02
7.254000e+08 -7.271190e-02 1.734448e+02
7.268750e+08 -1.469454e-01 1.732842e+02
7.283500e+08 -1.520653e-01 1.751700e+02
7.298250e+08 -8.037866e-02 1.721374e+02
7.313000e+08 -1.644004e-01 1.760906e+02
7.327750e+08 -1.329236e-01 1.745166e+02
7.342500e+08 -1.235835e-01 1.749430e+02
7.357250e+08 -9.292861e-02 1.728977e+02
7.372000e+08 -9.785777e-02 1.734660e+02
7.386750e+08 -7.091488e-02 1.722734e+02
7.401500e+08 -7.367199e-02 1.737489e+02
7.416250e+08 -1.173322e-01 1.743191e+02
7.431000e+08 -1.161568e-01 1.741601e+02
7.445750e+08 -3.880118e-02 1.726551e+02
7.460500e+08 -8.317388e-02 1.717957e+02
7.475250e+08 -1.381502e-01 1.737793e+02
7.490000e+08 -7.787407e-02 1.701808e+02
7.504750e+08 -1.244343e-01 1.728489e+02
7.519500e+08 -1.085582e-01 1.710606e+02
7.534250e+08 -1.188002e-01 1.747310e+02
7.549000e+08 -5.931345e-02 1.719788e+02
7.563750e+08 -1.357335e-01 1.735668e+02
7.578500e+08 -1.036315e-01 1.712969e+02
7.593250e+08 -7.489038e-02 1.725338e+02
7.608000e+08 -1.101130e-01 1.728261e+02
7.622750e+08 -5.778417e-02 1.714214e+02
7.637500e+08 -9.974724e-02 1.736685e+02
7.652250e+08 -6.797269e-02 1.711077e+02
7.667000e+08 -1.167206e-01 1.737374e+02
7.681750e+08 -1.445587e-01 1.722282e+02
7.696500e+08 -1.186974e-01 1.731281e+02
7.711250e+08 -7.710584e-02 1.741575e+02
7.726000e+08 -8.486975e-02 1.710591e+02
7.740750e+08 -7.015568e-02 1.703486e+02
7.755500e+08 -1.208125e-01 1.724620e+02
7.770250e+08 -1.124317e-01 1.718036e+02
7.785000e+08 -7.334183e-02 1.736556e+02
7.799750e+08 -9.132776e-02 1.719563e+02
7.814500e+08 -6.722793e-02 1.716865e+02
7.829250e+08 -7.659371e-02 1.733962e+02
7.844000e+08 -7.940608e-02 1.720427e+02
7.858750e+08 -7.130614e-02 1.719267e+02
7.873500e+08 -6.865248e-02 1.717874e+02
7.888250e+08 -4.793968e-02 1.724812e+02
7.903000e+08 -9.272699e-02 1.725676e+02
7.917750e+08 -7.428259e-03 1.743262e+02
7.932500e+08 -1.151193e-01 1.709088e+02
7.947250e+08 -6.669674e-02 1.745434e+02
7.962000e+08 -1.105144e-01 1.713492e+02
7.976750e+08 -8.213305e-02 1.702188e+02
7.991500e+08 -5.209400e-02 1.718887e+02
8.006250e+08 -6.858921e-02 1.725897e+02
8.021000e+08 -4.773986e-02 1.732051e+02
8.035750e+08 -9.752317e-02 1.736618e+02
8.050500e+08 -1.088509e-01 1.706626e+02
8.065250e+08 -7.833403e-02 1.732671e+02
8.080000e+08 -7.495982e-02 1.717782e+02
8.094750e+08 -8.938412e-02 1.720327e+02
8.109500e+08 -8.035920e-02 1.719105e+02
8.124250e+08 -9.617325e-02 1.707685e+02
8.139000e+08 -5.020336e-02 1.733894e+02
8.153750e+08 -1.104893e-01 1.723353e+02
8.168500e+08 -6.478883e-02 1.719800e+02
8.183250e+08 -7.738083e-02 1.719614e+02
8.198000e+08 -6.769320e-02 1.715377e+02
8.212750e+08 -5.311530e-02 1.711366e+02
8.227500e+08 -7.835681e-02 1.711924e+02
8.242250e+08 -6.312353e-02 1.709536e+02
8.257000e+08 -6.473704e-02 1.721237e+02
8.271750e+08 -7.744052e-02 1.712233e+02
8.286500e+08 -8.942988e-02 1.719880e+02
8.301250e+08 -1.048143e-01 1.734474e+02
8.316000e+08 -8.389783e-02 1.720293e+02
8.330750e+08 -1.019976e-01 1.710380e+02
8.345500e+08 -6.194654e-02 1.727216e+02
8.360250e+08 -6.807198e-02 1.708849e+02
