#  HZ   S   DB   R     50.0 
! Rohde & Schwarz ZVL6 2Ports - Version 3.32 - 1303.6509k06 SN: 102097
! Date: 2024-06-28 18:58:19
! Data & Calibration Information:
! Trc1:S11(TOSM) Trc3:S21(TOSM) Trc2:S12(TOSM) Trc4:S22(TOSM)
! 
! 
! 
 1.000000000000000E8    -5.626492860897069E1   8.959177920950357E1  -2.506747983568381E-2  -3.336115722732398   6.465788747356698E-3  -4.627522679970078  -5.363269419908708E1  -1.361018858287159E2  
 1.014750000000000E8    -4.058376572519891E1  -1.251015096866895E2  -2.486383984638604E-2  -3.519968659877574   4.244986200649876E-3  -3.011132502518392  -5.069528135082713E1   1.190068705403656E2  
 1.029500000000000E8    -4.204695502675724E1  -9.173971399288830E1  -3.271266360289973E-2  -3.748062565379710  -1.024635800547885E-2  -1.754947670126478  -5.313053926302478E1   1.160405516270757  
 1.044250000000000E8    -5.020418004127901E1   3.716376278161450E1  -1.243234514690312E-2  -3.171292203379374   6.884609396411029E-3  -3.364389352935568  -5.686509546480608E1   1.091575180941880E2  
 1.059000000000000E8    -5.183981310139039E1  -1.748959075274999E1  -1.341407747417749E-2  -2.183201386405823  -5.000154623525478E-3  -2.623318070717578  -5.567837905965845E1  -2.579868201123890E1  
 1.073750000000000E8    -5.327031715453491E1  -1.244163169166200E2   5.913803811612964E-5  -3.040046687091689  -8.940367361736545E-3  -3.080556222293656  -4.827042809573164E1  -8.527133024455111E1  
 1.088500000000000E8    -4.882188917172479E1  -2.946322140629249E1  -1.469014896391103E-2  -3.427582547784668  -5.651497499245579E-3  -2.569547422546599  -4.627209820822720E1  -1.169952481751690E1  
 1.103250000000000E8    -4.036930135164256E1  -5.144220463532089  -2.393505361849253E-2  -3.650720213559504  -3.012092793303986E-2  -3.654939012819369  -4.644915462513126E1   6.166601037761659E-1  
 1.118000000000000E8    -4.652976582347218E1  -2.307115063586108E1  -1.663088683300884E-2  -4.798336325475067   4.308715836098962E-3  -4.090660163762583  -4.230915451014442E1   6.603546584522837E1  
 1.132750000000000E8    -4.715371740278523E1  -1.580954050730502E1  -2.177915506843475E-2  -3.572342220483397  -3.018295703340309E-3  -4.099182521719379  -3.938412143071767E1  -9.812616050173388E1  
 1.147500000000000E8    -5.430879726277354E1  -6.574884488057076E1  -2.879461393734206E-2  -2.340689182197670   5.068313042935905E-3  -3.575527965543846  -4.483544645442420E1  -8.668001790989176E1  
 1.162250000000000E8    -5.901350837508727E1  -1.318310017309352E2  -4.177457191523542E-3  -3.911769382420899  -3.487306796311162E-3  -3.013296068674052  -5.441167209921648E1  -1.719008195664376  
 1.177000000000000E8    -3.900687640633660E1  -1.237652578636101  -2.004889208533055E-2  -4.900579725597385  -2.671970610809899E-2  -2.988415245381648  -5.034931355339241E1   4.071593361825447E1  
 1.191750000000000E8    -5.619388909729648E1  -4.745338022639475  -2.556700513509543E-2  -3.923606003450613  -7.380606673334087E-3  -1.965722586896010  -6.439714844911708E1  -1.073281969748910E2  
 1.206500000000000E8    -5.373945491619877E1  -1.098216965201800E2  -3.816643133266822E-3  -3.527866474058766   2.098915393471995E-2  -3.605031998232813  -4.323696625180079E1  -1.035290941196744E2  
 1.221250000000000E8    -5.040696959180532E1   1.385407030723782E2  -2.190245628224608E-2  -3.456088692974060   4.494566570043374E-3  -4.704039197286939  -4.460526249718048E1  -2.738012739092159E1  
 1.236000000000000E8    -5.600508761551251E1   1.421453705972602E2  -2.301009773935913E-2  -3.256809467834467  -6.485817611420769E-4  -4.330403040062705  -4.706043612882820E1  -1.134724934894040E2  
 1.250750000000000E8    -4.826620933079109E1   1.469381077092938E2  -2.048275659676327E-2  -3.690354775782494  -5.832206929176007E-3  -4.753595194492903  -5.426322761737814E1  -4.196545750527101E1  
 1.265500000000000E8    -5.530913944781493E1  -1.384531702884000E2  -3.210638163075320E-2  -3.590348785454289  -7.698231445995509E-3  -2.593776807161462  -4.780437037266194E1  -1.215126677516644E2  
 1.280250000000000E8    -5.319390911310589E1   3.172601721155692E1  -1.552701134720552E-2  -4.377065957521677   6.613842352219161E-4  -2.632813443996033  -4.742581628492097E1  -3.541867665402350E1  
 1.295000000000000E8    -6.326936675529225E1   1.457213164161400E2  -2.680507115598744E-2  -2.485167272360954  -1.456137526374008E-2  -4.580811540498552  -4.839713017462444E1  -7.148064757126940E1  
 1.309750000000000E8    -4.670553490043101E1   8.757201300045566E1  -2.401015020489775E-2  -4.116202249390843  -1.094379372630776E-2  -2.796306490234453  -6.840962518069392E1  -3.420906998232321E1  
 1.324500000000000E8    -5.437184074055846E1   1.545993166614222E2  -8.711787303789846E-3  -4.041856796193764   1.040440843439166E-4  -2.188267422940343  -4.757892051942149E1  -3.850292643796733E1  
 1.339250000000000E8    -4.844056762373046E1  -1.096395809437750E2   3.752049424367018E-3  -5.033009432451602  -3.278276618097332E-3  -3.249575541744386  -5.308111207350686E1  -2.387754314252361E1  
 1.354000000000000E8    -4.800270960841069E1  -4.362886500290383E1  -1.110693647521508E-2  -3.139492187150654  -1.459788412277900E-2  -4.941586656029828  -4.680590510717538E1   2.519605626238420E1  
 1.368750000000000E8    -4.539560361813845E1  -1.728785401730882E1  -1.846176954899997E-2  -5.362572687803860  -1.216186294820745E-2  -4.034744211498289  -4.551675064042392E1  -2.446772811502682E1  
 1.383500000000000E8    -4.701487306391561E1  -6.190131126324251E1  -9.917021993649196E-3  -5.485268043910035   5.810859521917768E-4  -3.230751888374357  -4.420256276406905E1  -3.840153981830854E1  
 1.398250000000000E8    -5.387289678706244E1  -1.703264956342013E2  -1.335443867701416E-2  -2.661797303107403  -2.177892977897544E-3  -3.357818081223242  -5.145395858967900E1  -1.743867542209314E2  
 1.413000000000000E8    -5.328914184720488E1  -1.559328536175670E-1  -1.112689422418366E-2  -4.311841553439247  -7.575151827373408E-3  -4.063186769254782  -5.624784776611158E1  -8.561993656274170  
 1.427750000000000E8    -4.777342931638315E1  -2.063151836054884E1  -2.722112071402345E-2  -4.070507575395932  -1.801950082487210E-2  -3.162665200301956  -5.090691685939963E1   1.181831771622523E2  
 1.442500000000000E8    -4.519873505824334E1  -7.534319403609779E1  -1.062285784125744E-2  -4.262750353446106  -2.611935052800368E-2  -3.742291207973736  -4.634679239249841E1   2.163699767593463E1  
 1.457250000000000E8    -4.859790688158059E1  -1.293046825436062  -1.886000434104482E-3  -5.447852278241674  -1.667198588232910E-2  -3.153623150481900  -4.595495618153463E1   1.757893221321636E1  
 1.472000000000000E8    -4.452405055947417E1   4.430719043924790E1  -2.840693628153994E-3  -6.711379868286365  -5.281276408063448E-3  -2.847612193421310  -4.884887564121035E1  -1.083025930748730E2  
 1.486750000000000E8    -5.232619274776523E1  -2.784763502285858E1  -2.133536200393518E-2  -4.010034072598168  -1.997654729382974E-2  -5.284858122527329  -5.405461551028117E1  -7.598121645532044E1  
 1.501500000000000E8    -5.092409069455041E1  -5.371369847448951E1  -1.049066639160419E-2  -5.654063691132218  -1.026801458798260E-2  -1.883579079378278  -4.291833605159137E1  -5.709710225527021E1  
 1.516250000000000E8    -4.788640084407661E1  -3.926995922901998E1  -1.165624538771299E-2  -5.058886123138096   1.147760715149936E-3  -5.499600606166786  -4.751651752082550E1  -3.174700671780342E1  
 1.531000000000000E8    -4.690283163317548E1  -3.393147642751823E1  -5.751115208105522E-3  -4.819315158574880   2.779967082609607E-3  -4.451456701214626  -5.184462556872027E1  -6.509370309164930E1  
 1.545750000000000E8    -4.499282707327292E1  -9.774002750119230E1  -1.824744307893490E-2  -2.191974460427929  -1.966869143200637E-2  -4.250794979181118  -5.473435476918023E1  -5.559856557099589E1  
 1.560500000000000E8    -5.741474448408911E1  -1.025573653565150E2  -2.367065875621733E-2  -4.295353636119352  -8.359125984516179E-4  -6.132621825355019  -4.342028443177016E1   8.792244491529999  
 1.575250000000000E8    -5.963120873006016E1  -1.772433653665025E2  -1.771539622631582E-2  -3.785361347258867  -2.644906398277398E-3  -3.272065568418084  -5.125241558633153E1   1.588676631159372E2  
 1.590000000000000E8    -5.724219738717589E1   1.421086570377084E2  -1.614403903147092E-2  -3.585572571492101  -2.155248941418245E-2  -5.918576385811835  -5.468883661214664E1  -1.170356524116009E2  
 1.604750000000000E8    -4.714682852514464E1   4.464507269611827E1  -1.100723227480089E-2  -5.306169715822541  -1.171959186206385E-2  -4.804614900649800  -4.565359805756298E1  -6.221949063192594E1  
 1.619500000000000E8    -5.561423435881751E1  -3.768304373343574E1  -2.390491923747157E-2  -4.896709719961087  -2.143206040798542E-2  -2.965259267595044  -4.602589120863766E1  -1.130395057349258E2  
 1.634250000000000E8    -5.785141031474471E1   1.654602651259056E2  -1.909327326860693E-2  -5.771956691362886  -1.098871100277673E-2  -4.332883041053107  -4.003531375778490E1  -9.953168373167689E1  
 1.649000000000000E8    -5.279073258281150E1   1.244837005860664E1  -1.022025208251618E-3  -5.242223134317547  -1.218402224762278E-2  -3.633955195882842  -5.449459834042602E1  -8.696375549936140E1  
 1.663750000000000E8    -4.307032870830315E1  -1.400626428883235E2  -2.147317031136673E-2  -4.945769881531209  -1.645816220897120E-2  -5.716746543023910  -4.586156448907123E1  -7.009895499443780E1  
 1.678500000000000E8    -5.105873826575186E1  -5.581439516889682E1  -1.791029302704235E-2  -5.338689315021849  -6.825677664654411E-3  -3.763535520138885  -5.363013134157660E1  -8.504449887289891E1  
 1.693250000000000E8    -4.472722424646197E1  -3.331417063837530E1  -8.864951840282865E-3  -4.898604900037100  -1.241509815006855E-2  -4.117299414554174  -4.674397276487188E1  -1.290359172221293E2  
 1.708000000000000E8    -5.202761724263104E1   5.006894844463998E1  -2.056283849832657E-2  -4.857644340832622  -2.496990024374696E-2  -3.604897792596361  -4.888544310603334E1  -1.358525744934213E2  
 1.722750000000000E8    -4.351635642014934E1  -6.222618035227215E1  -1.309282547192645E-2  -4.418768229636640  -1.767549827143870E-2  -7.726520098898440  -4.810225886319627E1  -1.643415799516131E2  
 1.737500000000000E8    -6.163398608844331E1   1.542311844018495E2  -1.149846714884267E-2  -5.310190916878796  -2.002592430637957E-2  -4.565995609354285  -5.244159710040305E1  -6.073534155811154E1  
 1.752250000000000E8    -4.645041539977281E1  -1.104198391583922E2  -7.356428013320512E-3  -4.066808592288805  -2.061274273490969E-2  -3.067575391101574  -4.680395718904570E1   9.032704706945650E1  
 1.767000000000000E8    -4.455515714680581E1  -4.289698347369486E1  -2.323282561444493E-2  -5.056666530866856  -3.394102762503166E-3  -5.670492798688928  -4.730247799722730E1   4.083274465132697E1  
 1.781750000000000E8    -5.682634087431303E1   1.126757404652820E2   7.614729882262236E-3  -5.409456446355801  -1.667624024804692E-2  -5.068404473418090  -4.586308534733105E1  -7.261177630772495E1  
 1.796500000000000E8    -5.256062304457533E1  -4.433092971373161E1  -3.179024576430475E-2  -4.476684041740904  -1.568058982597495E-2  -4.040618485828614  -5.207696481417235E1  -5.864446144782135E1  
 1.811250000000000E8    -4.873860434838841E1  -5.399133227756571E1  -1.109465246431278E-2  -5.118488182729525  -1.157745600821154E-2  -5.572689802734788  -5.020841604015637E1  -1.129072105819674  
 1.826000000000000E8    -6.062199068095127E1  -4.931831290197016E1  -2.089577518704171E-2  -4.120761979745963  -2.623414187043194E-2  -4.013279020918759  -4.312976696523349E1   1.367984341850490  
 1.840750000000000E8    -4.856107750824653E1  -9.903317124904092E1  -3.683463759771637E-2  -3.957252381003159  -1.403196668188816E-2  -4.917802148831113  -5.058618909072784E1  -4.022453074976329E1  
 1.855500000000000E8    -4.490146857406603E1  -7.173080890144317E1  -1.273611405067659E-2  -3.194629467711376  -3.890407208084571E-3  -5.583484855406633  -4.441803078419238E1   1.396653889918444  
 1.870250000000000E8    -5.283396721358713E1   8.777128275014012E1  -1.718211654246225E-2  -4.557640146645341   5.585550716830883E-4  -5.926946066636410  -4.638000276474641E1  -3.916957028522445E1  
 1.885000000000000E8    -4.251234897768261E1  -1.341963193249644E2  -1.004349989980665E-2  -7.484780762277209  -2.037398369200730E-2  -5.790270880820984  -4.167759212987301E1  -1.732883055861562E2  
 1.899750000000000E8    -4.833336767824167E1   1.108230646506441E1  -1.169442412752760E-2  -6.949930871360193  -8.432942539884986E-3  -5.263951738186312  -4.944916635210221E1   3.618715870061376E1  
 1.914500000000000E8    -5.077498567966875E1   6.712285167525355  -1.167510940812059E-2  -5.597445408922007  -5.466568498688620E-3  -5.676813714000720  -4.405987436928857E1   6.478864317021383E1  
 1.929250000000000E8    -4.727649760051624E1  -8.922987000158565E1  -5.539089902276654E-3  -6.427186000406382  -6.257577215337573E-3  -5.207839233470461  -6.016891673590086E1   1.784407193751827E2  
 1.944000000000000E8    -4.618625919853981E1  -8.030911585345075  -1.836134233538499E-2  -5.062743344210315  -1.055745933269715E-2  -5.066466632092640  -5.627879980720335E1  -2.701810044860547E1  
 1.958750000000000E8    -4.335347918143631E1  -9.922926127749095E1  -2.756922040547578E-2  -5.171999974536185   2.827050216063688E-3  -6.836738156021582  -5.293571797824767E1  -1.595915880002033E2  
 1.973500000000000E8    -4.800457744451246E1  -4.226901579214956E1  -8.183090581983386E-3  -4.932650861127207  -1.894562561290137E-2  -4.806223800113465  -5.127972012887993E1  -4.908333685950902E1  
 1.988250000000000E8    -4.703106245323235E1  -8.125887210505685E1  -8.886290090547243E-3  -5.578781347545704  -1.873716257594697E-2  -5.060515551549096  -4.880471598158978E1  -2.530855268208538E1  
 2.003000000000000E8    -4.760657596725216E1  -1.470478217264317E2  -1.426947197167133E-3  -7.048994739725895  -6.437556247818300E-3  -5.748577212435800  -5.117689070386537E1  -4.703932088108606E1  
 2.017750000000000E8    -6.096785995692004E1  -1.042738820972203E2  -1.640183943323779E-2  -6.029985663312540  -1.036617937054840E-2  -5.831235207903236  -4.345493844750816E1   3.019171432849129E1  
 2.032500000000000E8    -4.624260915860192E1  -1.340529485379767E1   5.695516103209406E-3  -3.361543415476537  -2.635732768478663E-2  -4.795623504018533  -3.984908973844082E1  -6.314416878161575E1  
 2.047250000000000E8    -4.397726593843622E1  -1.324633968395925E1  -1.369742646173444E-2  -4.165092314158210  -1.716946669449782E-2  -5.218654688821544  -4.934785950511754E1  -1.013824656128587E2  
 2.062000000000000E8    -5.764588452163954E1  -5.451950458557926E1  -3.276208806690063E-3  -4.827065671334514  -9.075242388583347E-3  -4.693167017567341  -4.837346811990616E1  -4.465316335251446E1  
 2.076750000000000E8    -5.535545064409418E1   4.938680465445570E1  -4.643766389866344E-3  -5.405720954313952  -9.450813708484621E-3  -5.922316685408468  -4.511456039588804E1  -1.220302033702423  
 2.091500000000000E8    -5.760297658943385E1   3.387434786008705E1  -6.403849900101486E-3  -5.342518624439656  -1.234359409627089E-2  -7.374119927165797  -5.276215309116208E1  -8.562145787753315E1  
 2.106250000000000E8    -6.151126076956812E1   1.896938510137904E1  -1.214329693501250E-2  -4.742551971780144  -2.603436949508777E-2  -5.008412860135011  -4.915334080096206E1  -6.064421753316399E1  
 2.121000000000000E8    -5.992841780118887E1  -8.566627730577734E1  -2.600239509950848E-3  -3.092524417404770  -1.793565440606140E-2  -4.919593183603629  -3.849989044775020E1  -9.763337617429008E1  
 2.135750000000000E8    -4.290864156672745E1   4.186215984384395E1  -1.180151074249851E-2  -5.824888585229392  -2.054405875054173E-2  -6.512555596547077  -4.675097125253019E1  -9.856937973613775E1  
 2.150500000000000E8    -4.706774675332701E1  -3.871266716387864E1  -1.861327263002603E-2  -6.412778258647285  -6.367034785911735E-3  -6.440208444770732  -6.116576598695995E1  -1.019297449289949E2  
 2.165250000000000E8    -4.286567963014011E1  -6.845663579520198E1  -1.705161127983427E-2  -6.224242154036893  -1.080599339174662E-2  -6.380825489761413  -4.677775737496362E1  -3.067608787697895E1  
 2.180000000000000E8    -5.486512101622186E1  -6.513541461180890E1  -1.038896187475857E-2  -6.238348178350942  -9.785043725791885E-4  -6.833181097092685  -5.495648198248658E1   1.427441573321886E2  
 2.194750000000000E8    -4.759201139608587E1  -4.877176517628627E1  -3.397538854071707E-2  -6.729670530543384  -1.578866903858471E-2  -7.085077672957219  -4.875630785098105E1   1.312094634912367E2  
 2.209500000000000E8    -4.045098100401985E1  -4.577546688864872E1  -1.861902772721459E-2  -5.412670705646696  -1.801989235093465E-2  -6.352065914960440  -4.347244968233258E1  -5.211259967223056E1  
 2.224250000000000E8    -5.156951137990049E1   5.758792922979239E1  -1.938419844409860E-2  -5.412583609540478  -1.590553669749065E-2  -6.340797917362740  -5.166282442445355E1  -1.996899344223552E1  
 2.239000000000000E8    -5.955315280262201E1   4.653708839019939E1  -1.890519586873759E-2  -6.057617887590276  -1.555334171813791E-2  -5.117074157557007  -5.390017550382712E1  -3.504257089947006  
 2.253750000000000E8    -4.668328657807397E1  -1.394947450176298E1  -1.904115430622939E-2  -5.501021276954896  -1.333090949235799E-2  -6.533401798501552  -4.354184721520050E1   4.185215413485290E1  
 2.268500000000000E8    -6.165325308745965E1   1.659912827035337E2  -2.563590917379293E-2  -6.761952124331769  -7.711191626195570E-3  -6.689415313142106  -5.090601951401668E1  -9.188923590967893E1  
 2.283250000000000E8    -5.852572471456774E1   4.813954489910382E1  -2.976277633323477E-2  -6.392744070190561  -1.036934679298190E-3  -6.803159822392285  -4.597005219581187E1  -5.515351863906725E1  
 2.298000000000000E8    -4.476439986601882E1  -8.227432284829057E1  -9.883164401559886E-3  -7.646020428416979  -2.791360299203126E-2  -6.297827490136124  -4.353765963627531E1   5.391715051185469E1  
 2.312750000000000E8    -4.953385641718809E1  -1.378554400884491E2  -1.616887242778621E-2  -6.599333037420801  -2.839351692203160E-2  -6.496006843056055  -4.431223535857293E1  -3.905101176869442E1  
 2.327500000000000E8    -5.191933430282106E1  -6.513088819683482E1  -2.146029543856327E-2  -5.289855096776559  -2.697488665092086E-2  -6.400259134915114  -4.504052876192381E1   1.422494029741948E1  
 2.342250000000000E8    -4.519170021935186E1  -4.780609460530083E1  -2.428634611108781E-2  -5.956123315800324  -2.212370453008739E-2  -6.594195119230847  -5.213184611536276E1  -8.360415734205775E1  
 2.357000000000000E8    -4.168458559966069E1   1.458322445500033E1  -3.333688677318676E-2  -6.481929555881670   5.335374498685011E-3  -5.480467405594602  -4.851512720116833E1  -1.456209515345645E2  
 2.371750000000000E8    -4.148744243733975E1  -3.486888745605964E1  -1.715293230952641E-2  -6.322813376976422  -1.872107475027789E-2  -7.283612797315291  -4.887346989583587E1  -4.683590135921607E1  
 2.386500000000000E8    -4.820648583492125E1  -4.462013690012496E1  -1.565616852200922E-2  -6.906443688593365  -2.642572161093927E-2  -6.469076173888421  -4.240607843775526E1   7.624695786142141  
 2.401250000000000E8    -4.256781729116251E1  -3.193515002187939E1  -1.167402163967387E-2  -7.421937178693977  -1.792405293505831E-2  -7.709414653180116  -4.763853268866380E1   1.346068642026039E1  
 2.416000000000000E8    -4.823479298380148E1  -7.380680107479269E1  -1.873276256683230E-2  -6.362910913448427  -2.239220706488211E-3  -7.385545297427847  -4.493421898475844E1  -7.962426543069356E1  
 2.430750000000000E8    -5.723006057372008E1  -5.325786706524579E1  -3.603314538221707E-2  -6.903222070959763  -2.083015765632721E-2  -7.430766554593078  -4.496581144565239E1  -7.676865844877354E1  
 2.445500000000000E8    -5.124928721632733E1  -6.394192011967560E1  -2.362213583836894E-2  -7.516273436781264  -7.930283285535424E-6  -5.030425554208300  -5.176030755107908E1  -1.175248714025810E2  
