!Mini-Circuits Laboratory
!S-Parameters
!MODEL: ZHDC-16-63-S+
!Run/Lot/Date Code:CE5190//1643
!DATA FOR:UNIT#1
!Fixture/SN/Due: N/A
!Connection:PORT-1 - pin<1>; PORT-2 - pin<2>; PORT-3- pin<3>

!Created: 11-02-2016 at 3:26 PM
# MHZ S DB R 50
!Frequency        S11 dB  S11 DEG   S12 dB  S12 DEG   S13 dB  S13 DEG
!                 S21 dB  S21 DEG   S22 dB  S22 DEG   S23 dB  S23 DEG
!                 S31 dB  S31 DEG   S32 dB  S32 DEG   S33 dB  S33 DEG
  10.0000     -3.391088E+001  9.823621E+001 -1.437291E+000 -2.915215E+000 -1.635087E+001  5.488615E+000
              -1.443024E+000 -2.907500E+000 -3.374093E+001  9.940761E+001 -3.439693E+001 -8.348473E+001
              -1.634999E+001  5.537227E+000 -3.438019E+001 -8.429404E+001 -3.539704E+001  1.399886E+002
  15.0000     -3.820901E+001  9.226248E+001 -1.460290E+000 -3.206572E+000 -1.629490E+001  1.699968E+000
              -1.468633E+000 -3.197591E+000 -3.799194E+001  9.444189E+001 -3.909552E+001 -8.868646E+001
              -1.629313E+001  1.734504E+000 -3.905052E+001 -8.998206E+001 -3.804026E+001 -1.752896E+002
  20.0000     -4.049988E+001  9.741219E+001 -1.460628E+000 -3.788290E+000 -1.635109E+001 -3.856356E-001
              -1.464271E+000 -3.782028E+000 -3.987234E+001  9.541306E+001 -4.237436E+001 -8.368679E+001
              -1.634710E+001 -3.635988E-001 -4.238845E+001 -8.543427E+001 -3.533175E+001 -1.508878E+002
  25.0000     -4.213897E+001  9.997768E+001 -1.459958E+000 -4.482518E+000 -1.639486E+001 -1.751826E+000
              -1.463876E+000 -4.467705E+000 -4.067792E+001  9.700677E+001 -4.434353E+001 -7.843976E+001
              -1.639157E+001 -1.707328E+000 -4.440350E+001 -8.092774E+001 -3.314445E+001 -1.432594E+002
  30.0000     -4.309943E+001  9.862074E+001 -1.459960E+000 -5.212247E+000 -1.642892E+001 -2.845720E+000
              -1.463472E+000 -5.208116E+000 -4.149239E+001  9.623425E+001 -4.561439E+001 -7.563757E+001
              -1.642581E+001 -2.809571E+000 -4.567698E+001 -7.806708E+001 -3.148156E+001 -1.403811E+002
  35.0000     -4.374347E+001  9.950462E+001 -1.463547E+000 -5.971750E+000 -1.646047E+001 -3.804485E+000
              -1.465760E+000 -5.966459E+000 -4.179193E+001  9.407549E+001 -4.666257E+001 -7.215594E+001
              -1.645667E+001 -3.773348E+000 -4.675284E+001 -7.582059E+001 -3.010658E+001 -1.397555E+002
  40.0000     -4.403343E+001  9.749270E+001 -1.467807E+000 -6.734149E+000 -1.648953E+001 -4.661176E+000
              -1.469486E+000 -6.744193E+000 -4.214888E+001  9.173013E+001 -4.743173E+001 -7.135257E+001
              -1.648907E+001 -4.656013E+000 -4.749385E+001 -7.411567E+001 -2.906356E+001 -1.403056E+002
  45.0000     -4.448517E+001  9.769117E+001 -1.468323E+000 -7.519790E+000 -1.652234E+001 -5.485091E+000
              -1.471256E+000 -7.511666E+000 -4.203894E+001  8.975250E+001 -4.825810E+001 -6.977488E+001
              -1.651975E+001 -5.451051E+000 -4.842448E+001 -7.343015E+001 -2.814935E+001 -1.410257E+002
  50.0000     -4.491409E+001  9.488393E+001 -1.469571E+000 -8.297263E+000 -1.654990E+001 -6.213631E+000
              -1.474845E+000 -8.281260E+000 -4.193033E+001  8.879980E+001 -4.880738E+001 -6.894451E+001
              -1.654663E+001 -6.206873E+000 -4.899035E+001 -7.307021E+001 -2.741110E+001 -1.425943E+002
  55.0000     -4.509706E+001  9.166798E+001 -1.472970E+000 -9.081242E+000 -1.658151E+001 -6.939401E+000
              -1.477988E+000 -9.057367E+000 -4.200023E+001  8.595837E+001 -4.942398E+001 -6.810184E+001
              -1.657941E+001 -6.900106E+000 -4.955342E+001 -7.218907E+001 -2.676641E+001 -1.442255E+002
  60.0000     -4.538332E+001  8.987711E+001 -1.475925E+000 -9.873166E+000 -1.660951E+001 -7.594873E+000
              -1.480260E+000 -9.837501E+000 -4.169461E+001  8.279819E+001 -4.976772E+001 -6.734315E+001
              -1.660889E+001 -7.570920E+000 -5.009666E+001 -7.134516E+001 -2.622338E+001 -1.463097E+002
  65.0000     -4.576478E+001  8.590314E+001 -1.478916E+000 -1.063586E+001 -1.663683E+001 -8.239521E+000
              -1.484192E+000 -1.061798E+001 -4.191012E+001  7.874616E+001 -5.025777E+001 -6.746416E+001
              -1.663823E+001 -8.219188E+000 -5.037408E+001 -7.178899E+001 -2.574351E+001 -1.482150E+002
  70.0000     -4.593277E+001  8.671530E+001 -1.482062E+000 -1.141526E+001 -1.666370E+001 -8.849967E+000
              -1.481959E+000 -1.140876E+001 -4.179311E+001  7.657204E+001 -5.060870E+001 -6.787558E+001
              -1.666124E+001 -8.824135E+000 -5.081477E+001 -7.241932E+001 -2.531911E+001 -1.502738E+002
  75.0000     -4.580547E+001  8.474593E+001 -1.484537E+000 -1.220446E+001 -1.668773E+001 -9.438169E+000
              -1.485490E+000 -1.219642E+001 -4.175135E+001  7.541225E+001 -5.105313E+001 -6.896149E+001
              -1.668630E+001 -9.423415E+000 -5.127502E+001 -7.389309E+001 -2.496147E+001 -1.521035E+002
  80.0000     -4.578059E+001  8.137930E+001 -1.486548E+000 -1.299976E+001 -1.671171E+001 -1.002709E+001
              -1.489051E+000 -1.298015E+001 -4.161113E+001  7.398702E+001 -5.158907E+001 -7.074404E+001
              -1.671025E+001 -9.990634E+000 -5.181498E+001 -7.408922E+001 -2.464053E+001 -1.540103E+002
  85.0000     -4.600878E+001  7.968069E+001 -1.489018E+000 -1.377151E+001 -1.673363E+001 -1.057112E+001
              -1.491096E+000 -1.376740E+001 -4.160765E+001  7.151644E+001 -5.200639E+001 -7.113310E+001
              -1.673108E+001 -1.055493E+001 -5.216026E+001 -7.535917E+001 -2.435806E+001 -1.560010E+002
  90.0000     -4.566280E+001  8.130385E+001 -1.492895E+000 -1.454763E+001 -1.675402E+001 -1.113139E+001
              -1.493268E+000 -1.455195E+001 -4.150949E+001  6.950692E+001 -5.243588E+001 -7.076685E+001
              -1.675113E+001 -1.110345E+001 -5.259248E+001 -7.636853E+001 -2.409330E+001 -1.579407E+002
  95.0000     -4.551894E+001  7.657674E+001 -1.493266E+000 -1.533244E+001 -1.677665E+001 -1.167430E+001
              -1.495975E+000 -1.534166E+001 -4.137179E+001  6.698934E+001 -5.293927E+001 -7.239662E+001
              -1.677161E+001 -1.166671E+001 -5.315576E+001 -7.746890E+001 -2.386184E+001 -1.597965E+002
 100.0000     -4.542530E+001  7.528268E+001 -1.495151E+000 -1.611390E+001 -1.679531E+001 -1.220903E+001
              -1.498078E+000 -1.611470E+001 -4.117097E+001  6.513860E+001 -5.329596E+001 -7.207475E+001
              -1.679035E+001 -1.219406E+001 -5.371534E+001 -7.736845E+001 -2.366085E+001 -1.616456E+002
 105.0000     -4.508129E+001  7.346426E+001 -1.496619E+000 -1.689183E+001 -1.681452E+001 -1.274268E+001
              -1.499833E+000 -1.689207E+001 -4.077994E+001  6.354192E+001 -5.376402E+001 -7.143835E+001
              -1.681192E+001 -1.273552E+001 -5.424577E+001 -7.617658E+001 -2.348596E+001 -1.633242E+002
 110.0000     -4.507933E+001  7.286800E+001 -1.501315E+000 -1.767889E+001 -1.683652E+001 -1.324961E+001
              -1.502004E+000 -1.767183E+001 -4.075588E+001  5.977842E+001 -5.410850E+001 -7.072008E+001
              -1.683044E+001 -1.324637E+001 -5.440498E+001 -7.486140E+001 -2.331073E+001 -1.651861E+002
 115.0000     -4.489487E+001  6.571359E+001 -1.500898E+000 -1.846235E+001 -1.685158E+001 -1.375523E+001
              -1.505114E+000 -1.846952E+001 -4.040625E+001  5.812426E+001 -5.469059E+001 -6.921198E+001
              -1.684902E+001 -1.375458E+001 -5.507816E+001 -7.529321E+001 -2.315565E+001 -1.668499E+002
 120.0000     -4.438727E+001  6.584847E+001 -1.502479E+000 -1.924297E+001 -1.686847E+001 -1.426080E+001
              -1.506316E+000 -1.924008E+001 -4.027436E+001  5.637044E+001 -5.492070E+001 -6.787013E+001
              -1.686608E+001 -1.425583E+001 -5.552085E+001 -7.455527E+001 -2.300970E+001 -1.685785E+002
 125.0000     -4.404914E+001  6.372744E+001 -1.506348E+000 -2.002421E+001 -1.688254E+001 -1.476961E+001
              -1.508873E+000 -2.004003E+001 -4.015549E+001  5.318110E+001 -5.503990E+001 -6.680537E+001
              -1.688155E+001 -1.476525E+001 -5.550427E+001 -7.255014E+001 -2.290325E+001 -1.701393E+002
 130.0000     -4.472834E+001  6.017978E+001 -1.507321E+000 -2.081067E+001 -1.689822E+001 -1.527103E+001
              -1.510722E+000 -2.081214E+001 -4.018537E+001  5.081910E+001 -5.558719E+001 -6.751282E+001
              -1.689650E+001 -1.523470E+001 -5.579554E+001 -7.375280E+001 -2.278169E+001 -1.716084E+002
 135.0000     -4.545343E+001  6.262374E+001 -1.511162E+000 -2.159656E+001 -1.691114E+001 -1.574234E+001
              -1.510945E+000 -2.159761E+001 -4.023784E+001  4.803766E+001 -5.544276E+001 -6.948764E+001
              -1.690810E+001 -1.574102E+001 -5.576115E+001 -7.333575E+001 -2.267798E+001 -1.731632E+002
 140.0000     -4.679019E+001  6.387537E+001 -1.512670E+000 -2.237350E+001 -1.692487E+001 -1.622945E+001
              -1.512474E+000 -2.237681E+001 -4.062257E+001  4.493107E+001 -5.548225E+001 -6.899391E+001
              -1.691857E+001 -1.623320E+001 -5.552547E+001 -7.436983E+001 -2.259082E+001 -1.746076E+002
 145.0000     -4.854466E+001  6.524583E+001 -1.514831E+000 -2.315613E+001 -1.693435E+001 -1.669941E+001
              -1.513759E+000 -2.313749E+001 -4.091680E+001  4.214667E+001 -5.516370E+001 -7.083898E+001
              -1.692973E+001 -1.670518E+001 -5.547690E+001 -7.690592E+001 -2.251132E+001 -1.760197E+002
 150.0000     -4.963576E+001  6.534534E+001 -1.517075E+000 -2.393618E+001 -1.694457E+001 -1.719317E+001
              -1.514658E+000 -2.391434E+001 -4.093386E+001  3.890450E+001 -5.527213E+001 -7.208380E+001
              -1.694104E+001 -1.717718E+001 -5.545722E+001 -7.697987E+001 -2.243099E+001 -1.774793E+002
 155.0000     -5.009927E+001  6.818565E+001 -1.520318E+000 -2.471938E+001 -1.695916E+001 -1.765767E+001
              -1.516292E+000 -2.469366E+001 -4.081680E+001  3.714796E+001 -5.533070E+001 -6.975834E+001
              -1.695260E+001 -1.766836E+001 -5.550030E+001 -7.719817E+001 -2.235993E+001 -1.789285E+002
 160.0000     -4.880768E+001  6.432454E+001 -1.520477E+000 -2.550409E+001 -1.697108E+001 -1.813930E+001
              -1.519690E+000 -2.547943E+001 -4.058355E+001  3.753033E+001 -5.576083E+001 -6.906963E+001
              -1.696591E+001 -1.815876E+001 -5.607195E+001 -7.756953E+001 -2.228781E+001  1.797426E+002
 165.0000     -4.770014E+001  6.317157E+001 -1.522260E+000 -2.627758E+001 -1.697829E+001 -1.863442E+001
              -1.520464E+000 -2.627912E+001 -4.013952E+001  3.564783E+001 -5.625468E+001 -6.850796E+001
              -1.697195E+001 -1.866172E+001 -5.627124E+001 -7.458579E+001 -2.222621E+001  1.783995E+002
 170.0000     -4.633692E+001  6.338050E+001 -1.522870E+000 -2.706394E+001 -1.698418E+001 -1.912429E+001
              -1.522915E+000 -2.705497E+001 -3.974272E+001  3.600513E+001 -5.696041E+001 -6.598412E+001
              -1.698206E+001 -1.913078E+001 -5.715906E+001 -7.317338E+001 -2.216828E+001  1.770970E+002
 175.0000     -4.592855E+001  6.116644E+001 -1.522695E+000 -2.784720E+001 -1.699170E+001 -1.960229E+001
              -1.524053E+000 -2.784583E+001 -3.948685E+001  3.558831E+001 -5.753998E+001 -6.656924E+001
              -1.698894E+001 -1.962145E+001 -5.794212E+001 -7.428767E+001 -2.213371E+001  1.758072E+002
 180.0000     -4.516294E+001  6.079580E+001 -1.524513E+000 -2.863079E+001 -1.700193E+001 -2.007949E+001
              -1.527530E+000 -2.862559E+001 -3.931192E+001  3.643259E+001 -5.822226E+001 -6.600458E+001
              -1.699806E+001 -2.008151E+001 -5.835001E+001 -7.490546E+001 -2.207553E+001  1.745729E+002
 185.0000     -4.525323E+001  5.954114E+001 -1.527013E+000 -2.940316E+001 -1.701072E+001 -2.057899E+001
              -1.530694E+000 -2.940173E+001 -3.913301E+001  3.371921E+001 -5.876431E+001 -6.728161E+001
              -1.701034E+001 -2.055603E+001 -5.845975E+001 -7.258751E+001 -2.202447E+001  1.732650E+002
 190.0000     -4.532183E+001  5.528370E+001 -1.527745E+000 -3.018438E+001 -1.701650E+001 -2.105353E+001
              -1.530688E+000 -3.018949E+001 -3.913581E+001  3.308170E+001 -5.882831E+001 -6.837411E+001
              -1.701495E+001 -2.104294E+001 -5.879573E+001 -7.449459E+001 -2.198400E+001  1.720956E+002
 195.0000     -4.544833E+001  5.436754E+001 -1.529333E+000 -3.096931E+001 -1.702305E+001 -2.152443E+001
              -1.533611E+000 -3.096841E+001 -3.893123E+001  3.076900E+001 -5.874763E+001 -6.678145E+001
              -1.702119E+001 -2.152240E+001 -5.897524E+001 -7.379671E+001 -2.195304E+001  1.708724E+002
 200.0000     -4.589887E+001  5.242597E+001 -1.530648E+000 -3.174549E+001 -1.702577E+001 -2.201783E+001
              -1.533286E+000 -3.175138E+001 -3.894821E+001  3.015293E+001 -5.904073E+001 -6.768880E+001
              -1.702419E+001 -2.200409E+001 -5.909150E+001 -7.553053E+001 -2.190944E+001  1.696602E+002
 205.0000     -4.608603E+001  5.160152E+001 -1.531329E+000 -3.252864E+001 -1.703184E+001 -2.248582E+001
              -1.534862E+000 -3.253764E+001 -3.895608E+001  2.783589E+001 -5.904985E+001 -6.629314E+001
              -1.702801E+001 -2.249138E+001 -5.923978E+001 -7.503762E+001 -2.186664E+001  1.685122E+002
 210.0000     -4.587407E+001  5.052484E+001 -1.532146E+000 -3.330963E+001 -1.703755E+001 -2.295797E+001
              -1.534482E+000 -3.332602E+001 -3.878146E+001  2.635695E+001 -5.927412E+001 -6.590122E+001
              -1.703282E+001 -2.296810E+001 -5.951231E+001 -7.411127E+001 -2.184109E+001  1.673886E+002
 215.0000     -4.604202E+001  5.295585E+001 -1.535092E+000 -3.408113E+001 -1.704276E+001 -2.344169E+001
              -1.535686E+000 -3.409037E+001 -3.866795E+001  2.511042E+001 -5.959068E+001 -6.957285E+001
              -1.704086E+001 -2.343749E+001 -5.940136E+001 -7.507079E+001 -2.181906E+001  1.662931E+002
 220.0000     -4.653218E+001  4.764464E+001 -1.537854E+000 -3.486256E+001 -1.705075E+001 -2.392303E+001
              -1.538947E+000 -3.487532E+001 -3.853579E+001  2.346935E+001 -5.989772E+001 -6.575002E+001
              -1.704574E+001 -2.391886E+001 -5.940000E+001 -7.338162E+001 -2.177821E+001  1.651494E+002
 225.0000     -4.608131E+001  4.809085E+001 -1.537669E+000 -3.565963E+001 -1.705515E+001 -2.440117E+001
              -1.538824E+000 -3.565228E+001 -3.832030E+001  2.315611E+001 -6.012220E+001 -6.467195E+001
              -1.705001E+001 -2.438851E+001 -6.010569E+001 -7.211912E+001 -2.175264E+001  1.640754E+002
 230.0000     -4.557500E+001  4.763191E+001 -1.539575E+000 -3.644269E+001 -1.705958E+001 -2.489716E+001
              -1.539848E+000 -3.645480E+001 -3.813709E+001  2.177929E+001 -5.997549E+001 -6.509489E+001
              -1.705592E+001 -2.489663E+001 -6.022168E+001 -7.068890E+001 -2.173594E+001  1.629107E+002
 235.0000     -4.599920E+001  4.739327E+001 -1.540025E+000 -3.721652E+001 -1.706403E+001 -2.538126E+001
              -1.540884E+000 -3.721389E+001 -3.802422E+001  2.014424E+001 -6.004348E+001 -6.493107E+001
              -1.706030E+001 -2.536305E+001 -6.027517E+001 -7.126801E+001 -2.170070E+001  1.618320E+002
 240.0000     -4.593079E+001  4.597787E+001 -1.541841E+000 -3.800807E+001 -1.706538E+001 -2.585668E+001
              -1.541818E+000 -3.799975E+001 -3.789430E+001  1.937321E+001 -5.947921E+001 -6.367548E+001
              -1.706091E+001 -2.587548E+001 -6.039111E+001 -7.107590E+001 -2.168119E+001  1.607312E+002
 245.0000     -4.609286E+001  4.456176E+001 -1.542400E+000 -3.879257E+001 -1.706682E+001 -2.635183E+001
              -1.543506E+000 -3.877337E+001 -3.771238E+001  1.763202E+001 -6.011642E+001 -6.244240E+001
              -1.706618E+001 -2.634659E+001 -6.021485E+001 -6.771864E+001 -2.166437E+001  1.597808E+002
 250.0000     -4.561639E+001  4.454845E+001 -1.543568E+000 -3.956212E+001 -1.707060E+001 -2.683360E+001
              -1.544841E+000 -3.957109E+001 -3.766399E+001  1.663662E+001 -5.995708E+001 -6.172547E+001
              -1.707129E+001 -2.685242E+001 -6.039027E+001 -6.796362E+001 -2.164518E+001  1.587702E+002
 255.0000     -4.574879E+001  4.461668E+001 -1.545325E+000 -4.034094E+001 -1.707563E+001 -2.730989E+001
              -1.545936E+000 -4.033803E+001 -3.766309E+001  1.570060E+001 -6.051720E+001 -6.415619E+001
              -1.707725E+001 -2.731232E+001 -6.026748E+001 -6.832499E+001 -2.162332E+001  1.577761E+002
 260.0000     -4.608924E+001  4.431765E+001 -1.546642E+000 -4.113259E+001 -1.708160E+001 -2.779159E+001
              -1.548210E+000 -4.111806E+001 -3.757725E+001  1.541589E+001 -6.087778E+001 -5.952503E+001
              -1.707965E+001 -2.779135E+001 -6.085757E+001 -6.688171E+001 -2.159543E+001  1.567098E+002
 265.0000     -4.575553E+001  4.515155E+001 -1.549268E+000 -4.191079E+001 -1.708450E+001 -2.828120E+001
              -1.549398E+000 -4.190585E+001 -3.746787E+001  1.353663E+001 -6.120408E+001 -6.356371E+001
              -1.708270E+001 -2.827714E+001 -6.085518E+001 -6.506266E+001 -2.158064E+001  1.557503E+002
 270.0000     -4.622910E+001  4.557067E+001 -1.549485E+000 -4.268702E+001 -1.708806E+001 -2.876700E+001
              -1.551218E+000 -4.268367E+001 -3.759446E+001  1.229466E+001 -6.098713E+001 -6.075562E+001
              -1.708643E+001 -2.876418E+001 -6.049360E+001 -6.748595E+001 -2.156046E+001  1.546749E+002
 275.0000     -4.619220E+001  4.462305E+001 -1.550809E+000 -4.347718E+001 -1.708883E+001 -2.925679E+001
              -1.553498E+000 -4.347230E+001 -3.746272E+001  1.183565E+001 -6.140548E+001 -6.234570E+001
              -1.708993E+001 -2.925810E+001 -6.111589E+001 -6.411607E+001 -2.154496E+001  1.537749E+002
 280.0000     -4.643757E+001  4.446868E+001 -1.552007E+000 -4.426219E+001 -1.709462E+001 -2.974441E+001
              -1.552109E+000 -4.424531E+001 -3.742872E+001  1.031119E+001 -6.130433E+001 -6.320973E+001
              -1.709105E+001 -2.973971E+001 -6.087239E+001 -6.348812E+001 -2.153311E+001  1.527095E+002
 285.0000     -4.665697E+001  4.410009E+001 -1.551105E+000 -4.503083E+001 -1.709308E+001 -3.023319E+001
              -1.553962E+000 -4.503265E+001 -3.750201E+001  8.783323E+000 -6.117033E+001 -6.498979E+001
              -1.709222E+001 -3.024971E+001 -6.106908E+001 -6.634473E+001 -2.152000E+001  1.517769E+002
 290.0000     -4.709420E+001  4.699683E+001 -1.551809E+000 -4.582011E+001 -1.709475E+001 -3.071456E+001
              -1.555037E+000 -4.580548E+001 -3.751855E+001  7.279651E+000 -6.130870E+001 -6.353111E+001
              -1.709488E+001 -3.072720E+001 -6.094893E+001 -6.462199E+001 -2.151027E+001  1.507240E+002
 295.0000     -4.772541E+001  4.756616E+001 -1.552544E+000 -4.659684E+001 -1.709731E+001 -3.120540E+001
              -1.555456E+000 -4.658404E+001 -3.764806E+001  6.376843E+000 -6.134518E+001 -6.492237E+001
              -1.709689E+001 -3.120173E+001 -6.122539E+001 -6.692130E+001 -2.148973E+001  1.498046E+002
 300.0000     -4.800156E+001  4.486047E+001 -1.555058E+000 -4.737583E+001 -1.710139E+001 -3.168923E+001
              -1.558235E+000 -4.736842E+001 -3.762347E+001  5.038604E+000 -6.197293E+001 -6.302723E+001
              -1.709863E+001 -3.168965E+001 -6.126279E+001 -6.734920E+001 -2.145892E+001  1.488974E+002
 305.0000     -4.794915E+001  4.851529E+001 -1.556650E+000 -4.815739E+001 -1.710477E+001 -3.216318E+001
              -1.558821E+000 -4.814431E+001 -3.744945E+001  3.733133E+000 -6.169168E+001 -6.350848E+001
              -1.710312E+001 -3.217373E+001 -6.149652E+001 -6.738692E+001 -2.146049E+001  1.478119E+002
 310.0000     -4.842998E+001  5.087598E+001 -1.558679E+000 -4.893487E+001 -1.710813E+001 -3.265280E+001
              -1.559578E+000 -4.893033E+001 -3.758276E+001  1.988113E+000 -6.200751E+001 -6.266236E+001
              -1.710455E+001 -3.265530E+001 -6.123348E+001 -6.503307E+001 -2.144006E+001  1.469469E+002
 315.0000     -4.790579E+001  5.284728E+001 -1.558616E+000 -4.971806E+001 -1.711133E+001 -3.314813E+001
              -1.560778E+000 -4.970470E+001 -3.749506E+001  1.191038E+000 -6.235977E+001 -6.018750E+001
              -1.710678E+001 -3.313591E+001 -6.174138E+001 -6.597243E+001 -2.142684E+001  1.460256E+002
