!Mini-Circuits Laboratory
!S-Parameters
!MODEL: ZHDC-16-63-S+
!Run/Lot/Date Code:CE5190//1643
!DATA FOR:UNIT#1
!Fixture/SN/Due: N/A
!Connection:PORT-1 - pin<1>; PORT-2 - pin<2>; PORT-3- pin<3>

!Created: 11-02-2016 at 3:26 PM
# MHZ S DB R 50
!Frequency        S11 dB  S11 DEG   S12 dB  S12 DEG   S13 dB  S13 DEG
!                 S21 dB  S21 DEG   S22 dB  S22 DEG   S23 dB  S23 DEG
!                 S31 dB  S31 DEG   S32 dB  S32 DEG   S33 dB  S33 DEG
  10.0000     -3.434971E+001  9.694106E+001 -1.436556E+000 -2.875935E+000 -1.635819E+001  5.269263E+000
              -1.442498E+000 -2.865190E+000 -3.421312E+001  9.809552E+001 -3.471203E+001 -8.526240E+001
              -1.635649E+001  5.312991E+000 -3.469199E+001 -8.615461E+001 -3.576283E+001  1.408333E+002
  15.0000     -3.892670E+001  9.014492E+001 -1.457432E+000 -3.176573E+000 -1.630721E+001  1.575190E+000
              -1.466275E+000 -3.172948E+000 -3.863821E+001  9.249279E+001 -3.937992E+001 -9.169083E+001
              -1.630641E+001  1.604552E+000 -3.933281E+001 -9.263438E+001 -3.814163E+001 -1.723143E+002
  20.0000     -4.148063E+001  9.572533E+001 -1.457575E+000 -3.765921E+000 -1.636414E+001 -5.047867E-001
              -1.460926E+000 -3.763443E+000 -4.088883E+001  9.448235E+001 -4.282337E+001 -8.733768E+001
              -1.635999E+001 -4.748819E-001 -4.281510E+001 -8.942539E+001 -3.530669E+001 -1.486509E+002
  25.0000     -4.350330E+001  9.945008E+001 -1.456068E+000 -4.470932E+000 -1.640833E+001 -1.858415E+000
              -1.459566E+000 -4.454342E+000 -4.195065E+001  9.594886E+001 -4.486224E+001 -8.235273E+001
              -1.640624E+001 -1.805214E+000 -4.488883E+001 -8.484682E+001 -3.306427E+001 -1.418141E+002
  30.0000     -4.494385E+001  9.780169E+001 -1.455328E+000 -5.202292E+000 -1.644460E+001 -2.931270E+000
              -1.459076E+000 -5.196352E+000 -4.316562E+001  9.632793E+001 -4.613792E+001 -7.942195E+001
              -1.644148E+001 -2.902029E+000 -4.621598E+001 -8.220950E+001 -3.138315E+001 -1.393790E+002
  35.0000     -4.583604E+001  1.003700E+002 -1.458090E+000 -5.963799E+000 -1.647695E+001 -3.877264E+000
              -1.461196E+000 -5.962948E+000 -4.366304E+001  9.487525E+001 -4.729241E+001 -7.691379E+001
              -1.647435E+001 -3.852667E+000 -4.734398E+001 -8.076917E+001 -3.005729E+001 -1.389406E+002
  40.0000     -4.658359E+001  9.833028E+001 -1.462372E+000 -6.734527E+000 -1.650716E+001 -4.733575E+000
              -1.464460E+000 -6.743498E+000 -4.435627E+001  9.211722E+001 -4.811664E+001 -7.609139E+001
              -1.650613E+001 -4.730136E+000 -4.809528E+001 -7.910715E+001 -2.901047E+001 -1.394960E+002
  45.0000     -4.715526E+001  9.950269E+001 -1.462310E+000 -7.526331E+000 -1.653793E+001 -5.544272E+000
              -1.465458E+000 -7.515986E+000 -4.435263E+001  9.117857E+001 -4.894714E+001 -7.454151E+001
              -1.653674E+001 -5.514713E+000 -4.896159E+001 -7.860385E+001 -2.807990E+001 -1.404912E+002
  50.0000     -4.803003E+001  9.551979E+001 -1.463672E+000 -8.305762E+000 -1.656758E+001 -6.277445E+000
              -1.469384E+000 -8.291316E+000 -4.444299E+001  8.961822E+001 -4.944799E+001 -7.442393E+001
              -1.656498E+001 -6.264997E+000 -4.963474E+001 -7.889802E+001 -2.734667E+001 -1.420656E+002
  55.0000     -4.845399E+001  9.224320E+001 -1.466961E+000 -9.095223E+000 -1.659836E+001 -6.985180E+000
              -1.472118E+000 -9.070709E+000 -4.472921E+001  8.674997E+001 -5.009675E+001 -7.426949E+001
              -1.659569E+001 -6.947886E+000 -5.017784E+001 -7.846684E+001 -2.671624E+001 -1.437074E+002
  60.0000     -4.913889E+001  9.274055E+001 -1.470451E+000 -9.889672E+000 -1.662655E+001 -7.645063E+000
              -1.473431E+000 -9.855434E+000 -4.477158E+001  8.289156E+001 -5.048803E+001 -7.354996E+001
              -1.662455E+001 -7.625273E+000 -5.074063E+001 -7.814156E+001 -2.615523E+001 -1.457496E+002
  65.0000     -5.001671E+001  8.644780E+001 -1.472527E+000 -1.065768E+001 -1.665308E+001 -8.295953E+000
              -1.478004E+000 -1.064309E+001 -4.536296E+001  7.887746E+001 -5.091545E+001 -7.422832E+001
              -1.665348E+001 -8.259594E+000 -5.093409E+001 -7.827581E+001 -2.568983E+001 -1.476009E+002
  70.0000     -5.013576E+001  8.812403E+001 -1.475319E+000 -1.143937E+001 -1.667979E+001 -8.892154E+000
              -1.476652E+000 -1.143769E+001 -4.542141E+001  7.418178E+001 -5.127084E+001 -7.494709E+001
              -1.667859E+001 -8.877481E+000 -5.139387E+001 -7.916566E+001 -2.528010E+001 -1.496593E+002
  75.0000     -5.105234E+001  8.584071E+001 -1.477929E+000 -1.223636E+001 -1.670469E+001 -9.487943E+000
              -1.479256E+000 -1.222934E+001 -4.559451E+001  7.447959E+001 -5.180974E+001 -7.616125E+001
              -1.670282E+001 -9.464641E+000 -5.194416E+001 -8.146987E+001 -2.492866E+001 -1.516225E+002
  80.0000     -5.124769E+001  8.276009E+001 -1.479618E+000 -1.303220E+001 -1.672818E+001 -1.008121E+001
              -1.482827E+000 -1.301540E+001 -4.555994E+001  7.121885E+001 -5.220336E+001 -7.822240E+001
              -1.672673E+001 -1.003317E+001 -5.244434E+001 -8.255690E+001 -2.458757E+001 -1.535842E+002
  85.0000     -5.166853E+001  7.897414E+001 -1.482030E+000 -1.381245E+001 -1.674981E+001 -1.061942E+001
              -1.484745E+000 -1.380258E+001 -4.596677E+001  6.865495E+001 -5.257039E+001 -7.974163E+001
              -1.674645E+001 -1.059517E+001 -5.273067E+001 -8.420779E+001 -2.432608E+001 -1.554172E+002
  90.0000     -5.193250E+001  8.306556E+001 -1.485652E+000 -1.459311E+001 -1.677226E+001 -1.117906E+001
              -1.485421E+000 -1.459291E+001 -4.591239E+001  6.493555E+001 -5.323475E+001 -7.966973E+001
              -1.676658E+001 -1.115246E+001 -5.311955E+001 -8.558884E+001 -2.406519E+001 -1.574230E+002
  95.0000     -5.170991E+001  7.583091E+001 -1.486382E+000 -1.537954E+001 -1.679069E+001 -1.172339E+001
              -1.489346E+000 -1.538441E+001 -4.576435E+001  6.259171E+001 -5.355367E+001 -8.136342E+001
              -1.678785E+001 -1.171772E+001 -5.377755E+001 -8.804530E+001 -2.383208E+001 -1.592485E+002
 100.0000     -5.252182E+001  7.609202E+001 -1.488747E+000 -1.616504E+001 -1.681176E+001 -1.225671E+001
              -1.491537E+000 -1.616388E+001 -4.576159E+001  6.012846E+001 -5.405144E+001 -8.276882E+001
              -1.680644E+001 -1.225009E+001 -5.436411E+001 -8.843862E+001 -2.363294E+001 -1.610212E+002
 105.0000     -5.239655E+001  7.099632E+001 -1.490185E+000 -1.694853E+001 -1.683155E+001 -1.279823E+001
              -1.493902E+000 -1.694654E+001 -4.550358E+001  5.748103E+001 -5.461399E+001 -8.309030E+001
              -1.682913E+001 -1.278434E+001 -5.477571E+001 -8.893817E+001 -2.344410E+001 -1.628235E+002
 110.0000     -5.279374E+001  6.750941E+001 -1.494309E+000 -1.773911E+001 -1.685043E+001 -1.331540E+001
              -1.495309E+000 -1.773216E+001 -4.525507E+001  5.110709E+001 -5.498175E+001 -8.182117E+001
              -1.684482E+001 -1.329307E+001 -5.523041E+001 -8.624593E+001 -2.328074E+001 -1.645993E+002
 115.0000     -5.285921E+001  5.250142E+001 -1.494285E+000 -1.852502E+001 -1.686762E+001 -1.382282E+001
              -1.498477E+000 -1.853161E+001 -4.515702E+001  4.870027E+001 -5.548272E+001 -8.207620E+001
              -1.686750E+001 -1.380187E+001 -5.572759E+001 -8.844448E+001 -2.313411E+001 -1.662307E+002
 120.0000     -5.185497E+001  5.197993E+001 -1.495846E+000 -1.931277E+001 -1.688309E+001 -1.432556E+001
              -1.499392E+000 -1.931131E+001 -4.505482E+001  4.599198E+001 -5.594628E+001 -8.019186E+001
              -1.688253E+001 -1.430999E+001 -5.608109E+001 -8.824004E+001 -2.300223E+001 -1.680234E+002
 125.0000     -5.142363E+001  4.819767E+001 -1.498886E+000 -2.009925E+001 -1.689799E+001 -1.482397E+001
              -1.502156E+000 -2.011185E+001 -4.484046E+001  4.141187E+001 -5.628258E+001 -8.012730E+001
              -1.689832E+001 -1.482195E+001 -5.624762E+001 -8.745441E+001 -2.287493E+001 -1.695251E+002
 130.0000     -5.318576E+001  3.669125E+001 -1.500471E+000 -2.088667E+001 -1.691413E+001 -1.533235E+001
              -1.504339E+000 -2.088564E+001 -4.493581E+001  3.809734E+001 -5.678342E+001 -8.214194E+001
              -1.691190E+001 -1.528810E+001 -5.660900E+001 -8.856818E+001 -2.276289E+001 -1.710766E+002
 135.0000     -5.524233E+001  3.913502E+001 -1.504485E+000 -2.167741E+001 -1.692696E+001 -1.581065E+001
              -1.503245E+000 -2.167848E+001 -4.522780E+001  3.163825E+001 -5.673342E+001 -8.322646E+001
              -1.692142E+001 -1.580164E+001 -5.648773E+001 -8.730296E+001 -2.267844E+001 -1.725777E+002
 140.0000     -6.067234E+001  1.554104E+001 -1.505924E+000 -2.245913E+001 -1.693873E+001 -1.629885E+001
              -1.505946E+000 -2.245765E+001 -4.587436E+001  2.607710E+001 -5.642020E+001 -8.350690E+001
              -1.693597E+001 -1.629533E+001 -5.634917E+001 -8.961620E+001 -2.257573E+001 -1.740511E+002
 145.0000     -6.294894E+001 -5.648592E+001 -1.507691E+000 -2.324585E+001 -1.694971E+001 -1.677137E+001
              -1.507448E+000 -2.322813E+001 -4.640160E+001  1.977262E+001 -5.619706E+001 -8.444849E+001
              -1.694700E+001 -1.676879E+001 -5.614507E+001 -9.141376E+001 -2.249656E+001 -1.754464E+002
 150.0000     -6.025471E+001 -8.275552E+001 -1.510175E+000 -2.402739E+001 -1.696096E+001 -1.726108E+001
              -1.508236E+000 -2.400954E+001 -4.641883E+001  1.192539E+001 -5.619135E+001 -8.595856E+001
              -1.695930E+001 -1.725124E+001 -5.602789E+001 -9.169555E+001 -2.242962E+001 -1.768238E+002
 155.0000     -5.835832E+001 -9.546132E+001 -1.513470E+000 -2.481423E+001 -1.697573E+001 -1.773130E+001
              -1.510583E+000 -2.478865E+001 -4.627726E+001  7.338871E+000 -5.633457E+001 -8.410432E+001
              -1.697100E+001 -1.772512E+001 -5.625737E+001 -9.290510E+001 -2.236487E+001 -1.783088E+002
 160.0000     -6.032786E+001 -9.046317E+001 -1.514064E+000 -2.560035E+001 -1.698716E+001 -1.821950E+001
              -1.512578E+000 -2.558091E+001 -4.593663E+001  8.677746E+000 -5.683820E+001 -8.364730E+001
              -1.698061E+001 -1.822270E+001 -5.685154E+001 -9.317889E+001 -2.228535E+001 -1.796900E+002
 165.0000     -6.456370E+001 -6.341360E+001 -1.515316E+000 -2.637933E+001 -1.699512E+001 -1.870631E+001
              -1.514305E+000 -2.638203E+001 -4.539259E+001  6.884037E+000 -5.755377E+001 -8.437342E+001
              -1.698794E+001 -1.872296E+001 -5.733728E+001 -9.317934E+001 -2.223471E+001  1.790154E+002
 170.0000     -6.601714E+001 -1.088219E+001 -1.515960E+000 -2.717229E+001 -1.700006E+001 -1.919931E+001
              -1.516517E+000 -2.716504E+001 -4.483613E+001  9.192358E+000 -5.822622E+001 -8.471991E+001
              -1.699733E+001 -1.919941E+001 -5.799471E+001 -9.242448E+001 -2.216376E+001  1.777887E+002
 175.0000     -6.471197E+001  3.073521E+000 -1.516356E+000 -2.795992E+001 -1.700809E+001 -1.968722E+001
              -1.518140E+000 -2.795663E+001 -4.474791E+001  1.016771E+001 -5.892539E+001 -8.589297E+001
              -1.700566E+001 -1.968168E+001 -5.883643E+001 -9.368490E+001 -2.212969E+001  1.764969E+002
 180.0000     -6.229880E+001  1.210181E+001 -1.518623E+000 -2.874230E+001 -1.701854E+001 -2.017038E+001
              -1.520743E+000 -2.874120E+001 -4.451502E+001  1.114306E+001 -5.977268E+001 -8.794975E+001
              -1.701622E+001 -2.015074E+001 -5.952017E+001 -9.620727E+001 -2.209497E+001  1.751847E+002
 185.0000     -6.141648E+001  1.872109E+000 -1.520861E+000 -2.952130E+001 -1.702566E+001 -2.064947E+001
              -1.524497E+000 -2.951152E+001 -4.423829E+001  8.198410E+000 -6.003211E+001 -8.877832E+001
              -1.702526E+001 -2.062761E+001 -5.968862E+001 -9.598339E+001 -2.203823E+001  1.739823E+002
 190.0000     -6.095545E+001 -1.808804E+001 -1.521627E+000 -3.030841E+001 -1.703303E+001 -2.113372E+001
              -1.525294E+000 -3.030944E+001 -4.440666E+001  6.108736E+000 -6.033226E+001 -9.206940E+001
              -1.703281E+001 -2.111415E+001 -5.983999E+001 -9.975945E+001 -2.199218E+001  1.727496E+002
 195.0000     -6.030058E+001 -3.660853E+001 -1.523458E+000 -3.109528E+001 -1.703850E+001 -2.161040E+001
              -1.528330E+000 -3.109577E+001 -4.400879E+001  2.355610E+000 -6.038902E+001 -9.048952E+001
              -1.703934E+001 -2.160734E+001 -6.007454E+001 -9.695552E+001 -2.195949E+001  1.715268E+002
 200.0000     -5.819485E+001 -5.912082E+001 -1.524438E+000 -3.187865E+001 -1.704314E+001 -2.209967E+001
              -1.528273E+000 -3.187803E+001 -4.413171E+001 -4.502248E-002 -6.094031E+001 -9.065302E+001
              -1.704228E+001 -2.206768E+001 -6.013829E+001 -9.875167E+001 -2.190968E+001  1.704217E+002
 205.0000     -5.656268E+001 -6.379935E+001 -1.525762E+000 -3.266042E+001 -1.704821E+001 -2.257544E+001
              -1.528960E+000 -3.267117E+001 -4.396648E+001 -2.619589E+000 -6.085188E+001 -8.925505E+001
              -1.704599E+001 -2.257543E+001 -6.017786E+001 -1.007571E+002 -2.188430E+001  1.693066E+002
 210.0000     -5.630484E+001 -6.392460E+001 -1.527044E+000 -3.344684E+001 -1.705530E+001 -2.304935E+001
              -1.529541E+000 -3.346054E+001 -4.372834E+001 -5.010417E+000 -6.106551E+001 -9.064980E+001
              -1.705004E+001 -2.304664E+001 -6.029320E+001 -9.960398E+001 -2.185501E+001  1.681472E+002
 215.0000     -5.607922E+001 -7.968250E+001 -1.529533E+000 -3.422855E+001 -1.706125E+001 -2.352685E+001
              -1.531094E+000 -3.423130E+001 -4.355825E+001 -6.774634E+000 -6.111249E+001 -9.411208E+001
              -1.705737E+001 -2.351539E+001 -6.065057E+001 -1.016933E+002 -2.182969E+001  1.671221E+002
 220.0000     -5.355164E+001 -7.924838E+001 -1.532815E+000 -3.500412E+001 -1.706760E+001 -2.400714E+001
              -1.534102E+000 -3.502040E+001 -4.351326E+001 -8.847341E+000 -6.186137E+001 -9.353481E+001
              -1.706507E+001 -2.400358E+001 -6.059069E+001 -9.851333E+001 -2.179539E+001  1.659829E+002
 225.0000     -5.380081E+001 -7.866956E+001 -1.532756E+000 -3.580751E+001 -1.707274E+001 -2.450089E+001
              -1.534087E+000 -3.579928E+001 -4.325740E+001 -7.964752E+000 -6.183451E+001 -9.440526E+001
              -1.706779E+001 -2.447513E+001 -6.151767E+001 -1.009823E+002 -2.177615E+001  1.649252E+002
 230.0000     -5.428334E+001 -7.652216E+001 -1.534759E+000 -3.659327E+001 -1.707759E+001 -2.499142E+001
              -1.535687E+000 -3.660028E+001 -4.292924E+001 -9.695063E+000 -6.219598E+001 -9.410812E+001
              -1.707472E+001 -2.498315E+001 -6.164950E+001 -9.972818E+001 -2.176137E+001  1.637982E+002
 235.0000     -5.356042E+001 -8.141116E+001 -1.535423E+000 -3.737057E+001 -1.707878E+001 -2.547408E+001
              -1.536363E+000 -3.736864E+001 -4.287955E+001 -1.245646E+001 -6.218521E+001 -9.102739E+001
              -1.707686E+001 -2.545841E+001 -6.155868E+001 -9.973180E+001 -2.172882E+001  1.628418E+002
 240.0000     -5.280698E+001 -8.323144E+001 -1.537011E+000 -3.816188E+001 -1.708247E+001 -2.595598E+001
              -1.537916E+000 -3.815587E+001 -4.272848E+001 -1.459875E+001 -6.171404E+001 -8.784212E+001
              -1.707911E+001 -2.596824E+001 -6.194671E+001 -9.818859E+001 -2.171458E+001  1.616776E+002
 245.0000     -5.229517E+001 -8.370327E+001 -1.538645E+000 -3.895307E+001 -1.708558E+001 -2.644303E+001
              -1.539613E+000 -3.893351E+001 -4.228313E+001 -1.525216E+001 -6.229430E+001 -9.119751E+001
              -1.708368E+001 -2.644447E+001 -6.231587E+001 -9.580028E+001 -2.168574E+001  1.606991E+002
 250.0000     -5.248599E+001 -8.195200E+001 -1.539229E+000 -3.972589E+001 -1.708888E+001 -2.691998E+001
              -1.541392E+000 -3.973010E+001 -4.239515E+001 -1.737376E+001 -6.252363E+001 -9.073917E+001
              -1.708824E+001 -2.692575E+001 -6.227779E+001 -9.862347E+001 -2.167953E+001  1.596710E+002
 255.0000     -5.257207E+001 -8.988722E+001 -1.540775E+000 -4.050505E+001 -1.709512E+001 -2.740130E+001
              -1.542183E+000 -4.050303E+001 -4.244284E+001 -2.036455E+001 -6.279848E+001 -9.384058E+001
              -1.709406E+001 -2.738993E+001 -6.236497E+001 -9.966177E+001 -2.166875E+001  1.587664E+002
 260.0000     -5.169977E+001 -9.227557E+001 -1.543263E+000 -4.130186E+001 -1.710004E+001 -2.789290E+001
              -1.544900E+000 -4.128422E+001 -4.233448E+001 -2.022320E+001 -6.395704E+001 -9.293835E+001
              -1.709861E+001 -2.788331E+001 -6.314320E+001 -9.988826E+001 -2.163863E+001  1.577494E+002
 265.0000     -5.222595E+001 -9.460920E+001 -1.545382E+000 -4.208514E+001 -1.710284E+001 -2.838451E+001
              -1.545563E+000 -4.207856E+001 -4.211012E+001 -2.279743E+001 -6.390991E+001 -9.833932E+001
              -1.710097E+001 -2.837452E+001 -6.285138E+001 -9.927910E+001 -2.162657E+001  1.567282E+002
 270.0000     -5.139124E+001 -1.005661E+002 -1.546062E+000 -4.286047E+001 -1.710629E+001 -2.887250E+001
              -1.547978E+000 -4.285713E+001 -4.224913E+001 -2.515692E+001 -6.400982E+001 -9.513763E+001
              -1.710504E+001 -2.886695E+001 -6.287279E+001 -9.921921E+001 -2.160408E+001  1.556948E+002
 275.0000     -5.081597E+001 -1.009209E+002 -1.547513E+000 -4.365510E+001 -1.710822E+001 -2.935589E+001
              -1.550263E+000 -4.364767E+001 -4.208485E+001 -2.569432E+001 -6.409742E+001 -9.879898E+001
              -1.710883E+001 -2.935190E+001 -6.346195E+001 -9.647077E+001 -2.158880E+001  1.547883E+002
 280.0000     -5.018384E+001 -1.067438E+002 -1.548489E+000 -4.444146E+001 -1.711065E+001 -2.984876E+001
              -1.549347E+000 -4.442511E+001 -4.194882E+001 -2.839647E+001 -6.405407E+001 -9.825945E+001
              -1.710996E+001 -2.984461E+001 -6.383302E+001 -9.811188E+001 -2.157348E+001  1.538297E+002
 285.0000     -4.967021E+001 -1.079177E+002 -1.548146E+000 -4.521901E+001 -1.711063E+001 -3.033693E+001
              -1.551121E+000 -4.521571E+001 -4.218540E+001 -3.186619E+001 -6.396580E+001 -9.918304E+001
              -1.710956E+001 -3.034651E+001 -6.332669E+001 -1.023836E+002 -2.157568E+001  1.528329E+002
 290.0000     -4.887197E+001 -1.152692E+002 -1.549342E+000 -4.600986E+001 -1.711332E+001 -3.081911E+001
              -1.552179E+000 -4.599019E+001 -4.196832E+001 -3.518260E+001 -6.404626E+001 -1.016031E+002
              -1.711421E+001 -3.083865E+001 -6.372661E+001 -1.021021E+002 -2.155050E+001  1.518457E+002
 295.0000     -4.812760E+001 -1.182350E+002 -1.549613E+000 -4.678593E+001 -1.711559E+001 -3.132188E+001
              -1.552492E+000 -4.677169E+001 -4.198952E+001 -3.700768E+001 -6.405800E+001 -1.014526E+002
              -1.711266E+001 -3.131505E+001 -6.369688E+001 -1.031353E+002 -2.154124E+001  1.509295E+002
 300.0000     -4.774267E+001 -1.183829E+002 -1.552066E+000 -4.756813E+001 -1.711772E+001 -3.180425E+001
              -1.555500E+000 -4.755788E+001 -4.196238E+001 -3.908045E+001 -6.512881E+001 -1.014760E+002
              -1.711744E+001 -3.179690E+001 -6.385382E+001 -1.038121E+002 -2.151225E+001  1.500201E+002
 305.0000     -4.728656E+001 -1.233406E+002 -1.554426E+000 -4.835599E+001 -1.712119E+001 -3.227242E+001
              -1.557244E+000 -4.834157E+001 -4.185385E+001 -4.067698E+001 -6.490729E+001 -1.030241E+002
              -1.712189E+001 -3.226756E+001 -6.420378E+001 -1.061669E+002 -2.151667E+001  1.490274E+002
 310.0000     -4.672675E+001 -1.254014E+002 -1.555973E+000 -4.913237E+001 -1.712614E+001 -3.276401E+001
              -1.557558E+000 -4.912923E+001 -4.174147E+001 -4.348235E+001 -6.561246E+001 -1.047993E+002
              -1.712230E+001 -3.276283E+001 -6.415552E+001 -1.052216E+002 -2.149758E+001  1.480685E+002
 315.0000     -4.668688E+001 -1.287069E+002 -1.556633E+000 -4.992329E+001 -1.712903E+001 -3.326160E+001
              -1.558647E+000 -4.990369E+001 -4.164911E+001 -4.500106E+001 -6.607760E+001 -1.060093E+002
              -1.712655E+001 -3.325222E+001 -6.434821E+001 -1.085006E+002 -2.147897E+001  1.471594E+002
